CITIFILE A.01.00
#NA VERSION HP8720D.06.14
NAME DATA
VAR FREQ MAG 1601
DATA S[1,1] RI

SEG_LIST_BEGIN
SEG 1000000000 8000000000 1601
SEG_LIST_END
BEGIN
2.75863E-1,-3.60412E-1
2.63351E-1,-3.66378E-1
2.47940E-1,-3.72833E-1
2.32727E-1,-3.77731E-1
2.18780E-1,-3.81591E-1
2.03765E-1,-3.86627E-1
1.85577E-1,-3.88549E-1
1.71005E-1,-3.87603E-1
1.57058E-1,-3.86718E-1
1.46438E-1,-3.84216E-1
1.35482E-1,-3.84002E-1
1.26892E-1,-3.81378E-1
1.21261E-1,-3.81820E-1
1.16485E-1,-3.85757E-1
1.06735E-1,-3.91830E-1
0.96984E-1,-3.96133E-1
0.87219E-1,-4.01550E-1
0.74066E-1,-4.06768E-1
0.60470E-1,-4.09042E-1
0.48873E-1,-4.10949E-1
0.38147E-1,-4.13818E-1
0.26443E-1,-4.19418E-1
0.10925E-1,-4.25781E-1
-8.42285E-3,-4.28009E-1
-2.39105E-2,-4.26178E-1
-3.90319E-2,-4.26178E-1
-5.33905E-2,-4.27032E-1
-7.19299E-2,-4.29702E-1
-9.12628E-2,-4.29626E-1
-1.11541E-1,-4.28039E-1
-1.33087E-1,-4.20837E-1
-1.51947E-1,-4.12628E-1
-1.69494E-1,-4.06585E-1
-1.88598E-1,-3.98132E-1
-2.05658E-1,-3.87664E-1
-2.20367E-1,-3.77471E-1
-2.36053E-1,-3.67401E-1
-2.51892E-1,-3.55224E-1
-2.65991E-1,-3.42071E-1
-2.79113E-1,-3.24218E-1
-2.90618E-1,-3.12469E-1
-3.02825E-1,-3.01116E-1
-3.16803E-1,-2.86956E-1
-3.29284E-1,-2.71331E-1
-3.38684E-1,-2.54852E-1
-3.48297E-1,-2.37854E-1
-3.56353E-1,-2.19696E-1
-3.62243E-1,-1.99707E-1
-3.65112E-1,-1.82098E-1
-3.66577E-1,-1.66351E-1
-3.69934E-1,-1.50054E-1
-3.71032E-1,-1.33789E-1
-3.70498E-1,-1.17614E-1
-3.69232E-1,-1.03057E-1
-3.68103E-1,-9.01336E-2
-3.6763E-1,-7.92999E-2
-3.68820E-1,-6.70013E-2
-3.67858E-1,-5.46569E-2
-3.68621E-1,-4.37622E-2
-3.69384E-1,-3.12347E-2
-3.69491E-1,-1.85394E-2
-3.68194E-1,-7.21740E-3
-3.69140E-1,0.01556E-1
-3.73428E-1,0.14846E-1
-3.73291E-1,0.31448E-1
-3.70361E-1,0.46081E-1
-3.66333E-1,0.60668E-1
-3.61068E-1,0.74142E-1
-3.54736E-1,0.85983E-1
-3.46984E-1,0.94894E-1
-3.41247E-1,1.00585E-1
-3.39508E-1,1.04934E-1
-3.41674E-1,1.12365E-1
-3.43048E-1,1.23855E-1
-3.43261E-1,1.37085E-1
-3.41079E-1,1.51519E-1
-3.36746E-1,1.66793E-1
-3.31268E-1,1.81778E-1
-3.21853E-1,1.94320E-1
-3.14209E-1,2.06115E-1
-3.04199E-1,2.15011E-1
-2.95806E-1,2.22122E-1
-2.89932E-1,2.29797E-1
-2.86056E-1,2.38983E-1
-2.81890E-1,2.49511E-1
-2.74810E-1,2.61749E-1
-2.66937E-1,2.73910E-1
-2.56088E-1,2.85049E-1
-2.45559E-1,2.95257E-1
-2.34924E-1,3.03146E-1
-2.25555E-1,3.10546E-1
-2.16629E-1,3.19564E-1
-2.06787E-1,3.28918E-1
-1.94793E-1,3.38897E-1
-1.79580E-1,3.46374E-1
-1.65664E-1,3.51486E-1
-1.52557E-1,3.56018E-1
-1.39099E-1,3.5849E-1
-1.27685E-1,3.60961E-1
-1.17446E-1,3.64440E-1
-1.05545E-1,3.69964E-1
-9.13085E-2,3.74115E-1
-7.56683E-2,3.76785E-1
-6.07147E-2,3.75701E-1
-4.74853E-2,3.73748E-1
-3.55835E-2,3.72406E-1
-2.48260E-2,3.69293E-1
-1.45721E-2,3.67034E-1
-5.02014E-3,3.65966E-1
0.03265E-1,3.63464E-1
0.11398E-1,3.64105E-1
0.22064E-1,3.64517E-1
0.32791E-1,3.63571E-1
0.42404E-1,3.61358E-1
0.50842E-1,3.59252E-1
0.59738E-1,3.58688E-1
0.68344E-1,3.58230E-1
0.79101E-1,3.59024E-1
0.90866E-1,3.60244E-1
1.03958E-1,3.59283E-1
1.17111E-1,3.58200E-1
1.31912E-1,3.54934E-1
1.48193E-1,3.48419E-1
1.61346E-1,3.40332E-1
1.72515E-1,3.31268E-1
1.82220E-1,3.23181E-1
1.91772E-1,3.15612E-1
2.0224E-1,3.07189E-1
2.10784E-1,2.96936E-1
2.18597E-1,2.88360E-1
2.26409E-1,2.79113E-1
2.34680E-1,2.71637E-1
2.43927E-1,2.63183E-1
2.52014E-1,2.51983E-1
2.59765E-1,2.41302E-1
2.65228E-1,2.30102E-1
2.72186E-1,2.17620E-1
2.77130E-1,2.04162E-1
2.79663E-1,1.91436E-1
2.80670E-1,1.80633E-1
2.83752E-1,1.70806E-1
2.86254E-1,1.61621E-1
2.89550E-1,1.51153E-1
2.93548E-1,1.40136E-1
2.95593E-1,1.28418E-1
2.97515E-1,1.17187E-1
2.99621E-1,1.04492E-1
2.98980E-1,0.91110E-1
2.97363E-1,0.79422E-1
2.95532E-1,0.68939E-1
2.94586E-1,0.58715E-1
2.92755E-1,0.47332E-1
2.90313E-1,0.37750E-1
2.88879E-1,0.28015E-1
2.87353E-1,0.16540E-1
2.84042E-1,0.05477E-1
2.80990E-1,-5.44738E-3
2.77084E-1,-1.73034E-2
2.70919E-1,-2.86865E-2
2.64846E-1,-3.94134E-2
2.56881E-1,-4.95605E-2
2.49229E-1,-5.89675E-2
2.39631E-1,-6.82296E-2
2.28157E-1,-7.62176E-2
2.17041E-1,-8.10699E-2
2.06253E-1,-8.40988E-2
1.96975E-1,-8.58917E-2
1.88262E-1,-8.71276E-2
1.81976E-1,-8.91723E-2
1.74072E-1,-9.19647E-2
1.64444E-1,-9.29412E-2
1.56814E-1,-9.07669E-2
1.52740E-1,-8.89663E-2
1.50535E-1,-8.84475E-2
1.47575E-1,-9.15756E-2
1.43302E-1,-9.60998E-2
1.36230E-1,-9.96017E-2
1.28654E-1,-1.00669E-1
1.23046E-1,-1.01341E-1
1.16107E-1,-1.02424E-1
1.09569E-1,-1.01371E-1
1.03801E-1,-1.00532E-1
9.93118E-2,-1.00231E-1
9.41124E-2,-9.94720E-2
8.87565E-2,-9.78927E-2
8.46595E-2,-9.49134E-2
8.33282E-2,-9.22927E-2
8.25958E-2,-9.19494E-2
8.09173E-2,-9.25598E-2
8.01696E-2,-9.43450E-2
7.75642E-2,-9.80453E-2
7.23609E-2,-1.01368E-1
6.64367E-2,-1.02954E-1
6.02188E-2,-1.03580E-1
5.36689E-2,-1.02836E-1
4.83512E-2,-1.02279E-1
4.34188E-2,-1.01329E-1
3.78189E-2,-9.97848E-2
3.28064E-2,-9.7229E-2
2.89955E-2,-9.59091E-2
2.43301E-2,-9.50431E-2
1.82495E-2,-9.28840E-2
1.29852E-2,-9.08546E-2
0.81405E-2,-8.78295E-2
0.32577E-2,-8.49342E-2
-8.23974E-4,-8.14170E-2
-4.26483E-3,-7.77931E-2
-7.31658E-3,-7.46078E-2
-1.01013E-2,-7.14073E-2
-1.24282E-2,-6.82678E-2
-1.43966E-2,-6.53343E-2
-1.61781E-2,-6.31828E-2
-1.87835E-2,-6.11915E-2
-2.14653E-2,-5.87310E-2
-2.36511E-2,-5.60035E-2
-2.60200E-2,-5.37757E-2
-2.90222E-2,-5.08194E-2
-3.10516E-2,-4.69245E-2
-3.25546E-2,-4.37545E-2
-3.41301E-2,-4.10041E-2
-3.63922E-2,-3.83834E-2
-3.90739E-2,-3.45535E-2
-4.12139E-2,-2.96249E-2
-4.18357E-2,-2.44140E-2
-4.14180E-2,-1.98516E-2
-4.07981E-2,-1.64718E-2
-4.07676E-2,-1.34620E-2
-4.06494E-2,-1.02672E-2
-4.01516E-2,-7.49206E-3
-3.97682E-2,-5.71060E-3
-4.08802E-2,-4.44412E-3
-4.30641E-2,-1.97410E-3
-4.48017E-2,0.23441E-2
-4.47635E-2,0.68855E-2
-4.34970E-2,1.05018E-2
-4.24118E-2,1.30176E-2
-4.13970E-2,1.47132E-2
-4.13303E-2,1.59492E-2
-4.17423E-2,1.80187E-2
-4.19216E-2,2.00481E-2
-4.22229E-2,2.26841E-2
-4.14657E-2,2.53696E-2
-4.05921E-2,2.72312E-2
-3.98654E-2,2.89382E-2
-3.93486E-2,3.03955E-2
-3.92894E-2,3.17878E-2
-3.93714E-2,3.33805E-2
-3.99131E-2,3.56998E-2
-3.91273E-2,3.83796E-2
-3.86886E-2,4.06570E-2
-3.77903E-2,4.32949E-2
-3.64856E-2,4.58469E-2
-3.52268E-2,4.68769E-2
-3.54995E-2,4.86831E-2
-3.51257E-2,5.18722E-2
-3.36990E-2,5.44700E-2
-3.23905E-2,5.71193E-2
-3.00464E-2,5.92899E-2
-2.75077E-2,6.03637E-2
-2.55641E-2,6.02016E-2
-2.52323E-2,5.93452E-2
-2.57759E-2,5.96427E-2
-2.62508E-2,6.02283E-2
-2.68878E-2,6.07509E-2
-2.77538E-2,6.13575E-2
-2.89993E-2,6.22291E-2
-3.06854E-2,6.37435E-2
-3.18450E-2,6.58569E-2
-3.21426E-2,6.80542E-2
-3.23715E-2,6.92672E-2
-3.34930E-2,7.00912E-2
-3.58657E-2,7.18994E-2
-3.75518E-2,7.52944E-2
-3.84368E-2,7.85446E-2
-3.93486E-2,8.18672E-2
-4.01153E-2,8.54988E-2
-4.08668E-2,8.98895E-2
-4.08668E-2,9.53559E-2
-3.99856E-2,1.00559E-1
-3.82728E-2,1.05739E-1
-3.59764E-2,1.10759E-1
-3.38134E-2,1.15364E-1
-3.23257E-2,1.20170E-1
-3.02963E-2,1.26594E-1
-2.65884E-2,1.32537E-1
-2.2789E-2,1.39701E-1
-1.69143E-2,1.45553E-1
-9.60540E-3,1.50169E-1
-3.58581E-3,1.53701E-1
0.01998E-1,1.57394E-1
0.08270E-1,1.60430E-1
0.15167E-1,1.63589E-1
0.22018E-1,1.66702E-1
0.29586E-1,1.69006E-1
0.37979E-1,1.70974E-1
0.47309E-1,1.71279E-1
0.56175E-1,1.70089E-1
0.63980E-1,1.67846E-1
0.72715E-1,1.65153E-1
0.80551E-1,1.60438E-1
0.87043E-1,1.55349E-1
0.91514E-1,1.50199E-1
0.95443E-1,1.45904E-1
1.00791E-1,1.41426E-1
1.05697E-1,1.36993E-1
1.09649E-1,1.31485E-1
1.12075E-1,1.25839E-1
1.15509E-1,1.21368E-1
1.18118E-1,1.16210E-1
1.21337E-1,1.10801E-1
1.21719E-1,1.04667E-1
1.22154E-1,1.00784E-1
1.23222E-1,9.71298E-2
1.24389E-1,9.28802E-2
1.24527E-1,8.97293E-2
1.25503E-1,0.86181E-1
1.26533E-1,0.82473E-1
1.26220E-1,0.78842E-1
1.25335E-1,0.75195E-1
1.24298E-1,7.20062E-2
1.22497E-1,6.95877E-2
1.21521E-1,6.84814E-2
1.21704E-1,6.75506E-2
1.21818E-1,6.66503E-2
1.22497E-1,6.45370E-2
1.23306E-1,6.22863E-2
1.23123E-1,5.88073E-2
1.20880E-1,5.62439E-2
1.19216E-1,5.58929E-2
1.19522E-1,5.53894E-2
1.21208E-1,5.49545E-2
1.23420E-1,5.27267E-2
1.23962E-1,4.98886E-2
1.24275E-1,4.84695E-2
1.25839E-1,0.46051E-1
1.27174E-1,0.43304E-1
1.28097E-1,0.41580E-1
1.30271E-1,0.39337E-1
1.32415E-1,0.36377E-1
1.33895E-1,0.32852E-1
1.36184E-1,0.28808E-1
1.37680E-1,0.24307E-1
1.38549E-1,0.20172E-1
1.39602E-1,0.15274E-1
1.40655E-1,0.10826E-1
1.40724E-1,0.04875E-1
1.40319E-1,-6.40869E-4
1.39686E-1,-6.30950E-3
1.37748E-1,-1.26876E-2
1.34094E-1,-1.78375E-2
1.30806E-1,-2.17056E-2
1.28723E-1,-2.63443E-2
1.25579E-1,-3.19366E-2
1.21299E-1,-3.68499E-2
1.15295E-1,-4.06875E-2
1.09176E-1,-4.43267E-2
1.04690E-1,-4.77600E-2
9.9823E-2,-5.12008E-2
9.36279E-2,-5.38635E-2
8.85086E-2,-5.64880E-2
8.26339E-2,-5.79261E-2
7.84797E-2,-5.94139E-2
7.32040E-2,-6.22024E-2
6.67419E-2,-6.38313E-2
6.04362E-2,-6.43043E-2
5.45349E-2,-6.38275E-2
4.95147E-2,-6.44683E-2
4.30755E-2,-6.43348E-2
3.68957E-2,-6.23264E-2
3.22990E-2,-6.07299E-2
2.78186E-2,-5.93204E-2
2.32849E-2,-5.85022E-2
1.68819E-2,-5.77259E-2
1.02176E-2,-5.43975E-2
0.48809E-2,-5.0354E-2
-7.43866E-5,-4.62589E-2
-4.70352E-3,-4.12540E-2
-7.78961E-3,-3.59630E-2
-1.02367E-2,-3.15094E-2
-1.28250E-2,-2.71968E-2
-1.47628E-2,-2.27985E-2
-1.59740E-2,-1.91326E-2
-1.75056E-2,-1.65481E-2
-1.99165E-2,-1.45969E-2
-2.35614E-2,-1.21059E-2
-2.74105E-2,-8.29315E-3
-3.05347E-2,-3.63922E-3
-3.28311E-2,0.16002E-2
-3.40194E-2,0.63972E-2
-3.43856E-2,1.06029E-2
-3.49044E-2,1.42612E-2
-3.53584E-2,1.73034E-2
-3.62949E-2,2.00672E-2
-3.8414E-2,2.27699E-2
-4.12139E-2,2.72979E-2
-4.27589E-2,3.36532E-2
-4.17785E-2,4.05883E-2
-3.89404E-2,4.5784E-2
-3.67393E-2,4.85572E-2
-3.60088E-2,5.15937E-2
-3.59993E-2,5.56030E-2
-3.51696E-2,6.03466E-2
-3.33175E-2,6.54220E-2
-3.06320E-2,6.91833E-2
-2.89840E-2,7.26394E-2
-2.75840E-2,7.63282E-2
-2.58178E-2,8.09059E-2
-2.27851E-2,8.53881E-2
-1.93252E-2,8.85314E-2
-1.65596E-2,9.06333E-2
-1.49383E-2,9.30709E-2
-1.34925E-2,9.66415E-2
-1.09443E-2,1.00421E-1
-8.04138E-3,1.03820E-1
-4.34112E-3,1.07235E-1
0.03395E-2,1.10168E-1
0.51574E-2,1.11084E-1
0.88043E-2,1.11274E-1
1.21612E-2,1.12014E-1
1.53808E-2,1.12373E-1
1.87225E-2,1.12640E-1
2.18658E-2,1.13205E-1
2.56195E-2,1.12945E-1
2.83966E-2,1.12152E-1
3.15094E-2,1.11801E-1
3.49273E-2,1.11572E-1
3.83453E-2,1.09664E-1
3.89556E-2,1.08108E-1
4.08783E-2,1.08596E-1
4.27246E-2,1.07849E-1
4.54406E-2,1.08398E-1
4.79278E-2,1.08367E-1
5.04608E-2,1.07223E-1
5.23071E-2,1.06597E-1
5.4245E-2,1.06872E-1
5.63964E-2,1.06628E-1
5.86700E-2,1.05697E-1
5.98907E-2,1.05697E-1
6.23168E-2,1.04324E-1
6.38885E-2,1.02844E-1
6.41632E-2,1.02050E-1
6.48498E-2,1.02386E-1
6.66885E-2,1.02989E-1
6.89849E-2,1.02439E-1
7.08084E-2,1.00799E-1
7.15332E-2,9.84191E-2
7.15255E-2,9.71221E-2
7.17697E-2,9.59701E-2
7.11746E-2,9.51919E-2
7.12051E-2,9.54971E-2
7.17010E-2,9.53750E-2
7.22961E-2,9.48791E-2
7.34100E-2,9.45739E-2
7.40814E-2,9.42230E-2
7.45849E-2,9.31396E-2
7.48901E-2,9.31243E-2
7.52563E-2,9.31243E-2
7.59811E-2,9.36737E-2
7.62786E-2,9.47189E-2
7.73620E-2,9.70230E-2
8.10928E-2,9.86099E-2
8.46252E-2,9.81216E-2
8.69674E-2,9.72213E-2
8.85849E-2,9.69619E-2
9.08813E-2,9.66796E-2
9.28649E-2,9.61914E-2
9.41162E-2,9.63745E-2
9.63134E-2,9.71527E-2
9.97161E-2,9.79156E-2
1.03637E-1,9.74731E-2
1.06033E-1,9.59320E-2
1.08276E-1,9.49859E-2
1.11663E-1,9.38568E-2
1.14318E-1,9.15069E-2
1.16729E-1,8.87908E-2
1.18072E-1,8.60748E-2
1.19239E-1,8.41293E-2
1.20796E-1,8.25424E-2
1.22856E-1,8.00247E-2
1.25351E-1,0.76835E-1
1.27189E-1,0.72853E-1
1.27975E-1,0.68359E-1
1.27792E-1,0.63980E-1
1.26899E-1,0.60257E-1
1.25801E-1,0.57731E-1
1.26144E-1,0.5513E-1
1.25755E-1,0.51910E-1
1.25206E-1,0.47683E-1
1.23008E-1,4.32891E-2
1.19094E-1,4.12139E-2
1.16958E-1,4.11071E-2
1.16066E-1,4.06265E-2
1.15737E-1,3.85055E-2
1.13548E-1,3.60641E-2
1.10664E-1,3.49807E-2
1.08657E-1,3.51867E-2
1.07666E-1,3.50341E-2
1.06002E-1,3.47976E-2
1.04255E-1,3.42712E-2
1.02233E-1,3.40423E-2
1.00830E-1,3.34549E-2
9.85488E-2,3.29208E-2
9.58633E-2,3.33862E-2
9.36813E-2,3.29589E-2
9.00917E-2,3.36494E-2
8.69751E-2,3.52096E-2
8.46710E-2,3.76129E-2
8.34655E-2,3.94363E-2
8.09173E-2,4.03060E-2
7.82547E-2,4.22554E-2
7.64427E-2,4.55589E-2
7.57904E-2,4.79965E-2
7.49435E-2,5.04455E-2
7.35473E-2,5.29327E-2
7.25860E-2,5.66711E-2
7.41272E-2,6.10809E-2
7.66296E-2,6.35528E-2
7.88879E-2,6.46820E-2
8.04977E-2,6.53305E-2
8.15658E-2,6.53839E-2
8.11004E-2,6.58111E-2
8.05435E-2,6.83441E-2
8.16345E-2,7.10144E-2
8.32061E-2,7.36084E-2
8.51287E-2,7.63092E-2
8.76159E-2,7.81402E-2
9.08889E-2,7.93838E-2
9.37576E-2,7.93457E-2
9.59549E-2,7.83691E-2
9.60693E-2,7.72399E-2
9.51080E-2,7.85827E-2
9.55352E-2,8.10852E-2
9.82818E-2,8.36944E-2
1.00585E-1,8.45031E-2
1.03057E-1,8.57696E-2
1.05636E-1,8.64715E-2
1.08291E-1,8.63037E-2
1.10748E-1,8.52966E-2
1.11877E-1,8.47244E-2
1.13143E-1,8.48388E-2
1.14822E-1,8.45336E-2
1.15837E-1,8.46405E-2
1.17950E-1,8.56323E-2
1.21452E-1,8.61740E-2
1.24557E-1,8.45794E-2
1.27204E-1,0.82572E-1
1.29806E-1,0.80078E-1
1.30172E-1,0.77758E-1
1.31362E-1,0.75691E-1
1.31164E-1,0.72578E-1
1.29943E-1,0.70922E-1
1.29707E-1,0.70442E-1
1.28952E-1,0.69450E-1
1.29234E-1,0.69473E-1
1.29089E-1,0.68565E-1
1.28418E-1,0.67878E-1
1.27090E-1,0.68031E-1
1.26976E-1,0.69297E-1
1.27502E-1,0.70854E-1
1.28601E-1,0.70884E-1
1.29234E-1,0.69961E-1
1.28509E-1,0.68595E-1
1.26968E-1,0.68450E-1
1.25419E-1,0.69534E-1
1.24481E-1,7.13424E-2
1.24336E-1,7.35092E-2
1.24763E-1,7.48748E-2
1.24939E-1,7.66601E-2
1.25572E-1,0.78666E-1
1.27204E-1,0.80612E-1
1.29257E-1,0.81733E-1
1.31172E-1,0.82382E-1
1.32125E-1,0.82473E-1
1.33354E-1,0.83557E-1
1.35276E-1,0.84617E-1
1.36665E-1,0.85968E-1
1.38488E-1,0.87852E-1
1.41540E-1,0.89126E-1
1.45126E-1,0.90255E-1
1.48841E-1,0.90026E-1
1.51199E-1,0.88913E-1
1.53854E-1,0.89157E-1
1.56623E-1,0.88722E-1
1.58905E-1,0.88127E-1
1.61529E-1,0.88279E-1
1.64444E-1,0.88371E-1
1.67953E-1,0.88378E-1
1.72088E-1,0.87875E-1
1.75293E-1,0.86975E-1
1.79550E-1,0.85876E-1
1.83349E-1,0.82473E-1
1.85577E-1,0.79559E-1
1.87973E-1,0.77606E-1
1.89544E-1,0.76293E-1
1.92398E-1,0.74432E-1
1.95495E-1,0.72418E-1
1.98959E-1,0.68847E-1
2.01995E-1,0.65643E-1
2.03994E-1,0.61218E-1
2.05017E-1,0.56884E-1
2.05490E-1,0.53604E-1
2.07168E-1,0.51284E-1
2.08541E-1,0.47264E-1
2.08900E-1,0.43541E-1
2.09739E-1,0.40893E-1
2.10647E-1,0.37849E-1
2.11525E-1,0.34805E-1
2.12860E-1,0.31631E-1
2.14035E-1,0.27504E-1
2.14820E-1,0.23918E-1
2.15271E-1,0.19767E-1
2.14798E-1,0.14656E-1
2.13417E-1,0.10780E-1
2.11486E-1,0.08255E-1
2.11319E-1,0.06256E-1
2.11853E-1,0.02494E-1
2.11425E-1,-6.71386E-4
2.11563E-1,-4.09698E-3
2.10495E-1,-9.54437E-3
2.08221E-1,-1.31454E-2
2.06047E-1,-1.61895E-2
2.03926E-1,-2.06680E-2
2.00408E-1,-2.39486E-2
1.97235E-1,-2.65045E-2
1.94534E-1,-2.82821E-2
1.91352E-1,-2.97927E-2
1.87782E-1,-3.30047E-2
1.83898E-1,-3.44390E-2
1.80107E-1,-3.4935E-2
1.77291E-1,-3.45306E-2
1.75430E-1,-3.45993E-2
1.73217E-1,-3.59573E-2
1.70326E-1,-3.67584E-2
1.67221E-1,-3.66134E-2
1.6465E-1,-3.73077E-2
1.60728E-1,-3.71093E-2
1.57447E-1,-3.59573E-2
1.54571E-1,-3.39279E-2
1.52351E-1,-3.22876E-2
1.50268E-1,-2.94723E-2
1.49192E-1,-2.64434E-2
1.49009E-1,-2.42004E-2
1.48788E-1,-2.27203E-2
1.48780E-1,-2.06298E-2
1.49192E-1,-1.93481E-2
1.49810E-1,-1.81121E-2
1.50299E-1,-1.77307E-2
1.50009E-1,-1.75323E-2
1.48567E-1,-1.68380E-2
1.47636E-1,-1.53732E-2
1.48002E-1,-1.35040E-2
1.48468E-1,-1.26495E-2
1.48239E-1,-1.15356E-2
1.48452E-1,-9.36126E-3
1.49635E-1,-7.72857E-3
1.51207E-1,-5.98144E-3
1.53137E-1,-5.50842E-3
1.54556E-1,-5.47027E-3
1.55601E-1,-4.76837E-3
1.57386E-1,-4.05883E-3
1.60347E-1,-3.25012E-3
1.63375E-1,-4.05883E-3
1.66000E-1,-6.37054E-3
1.66572E-1,-8.46099E-3
1.66893E-1,-9.14764E-3
1.67205E-1,-9.49096E-3
1.68411E-1,-9.84954E-3
1.70509E-1,-1.13296E-2
1.71562E-1,-1.22299E-2
1.72470E-1,-1.44271E-2
1.71890E-1,-1.61285E-2
1.71752E-1,-1.78604E-2
1.71379E-1,-1.87912E-2
1.69700E-1,-1.90124E-2
1.70166E-1,-1.85394E-2
1.70074E-1,-1.92184E-2
1.69807E-1,-1.96380E-2
1.69685E-1,-1.94015E-2
1.69426E-1,-2.00347E-2
1.69540E-1,-2.06146E-2
1.69860E-1,-2.13546E-2
1.68731E-1,-2.22396E-2
1.67984E-1,-2.22396E-2
1.66519E-1,-2.18658E-2
1.66366E-1,-2.09808E-2
1.66877E-1,-2.10571E-2
1.67030E-1,-2.13470E-2
1.67045E-1,-2.16674E-2
1.65733E-1,-2.16140E-2
1.64955E-1,-1.99508E-2
1.65344E-1,-1.85699E-2
1.66389E-1,-1.75705E-2
1.67221E-1,-1.66626E-2
1.68594E-1,-1.68838E-2
1.68983E-1,-1.58157E-2
1.69769E-1,-1.52359E-2
1.70982E-1,-1.38473E-2
1.72164E-1,-1.33361E-2
1.73904E-1,-1.23214E-2
1.7453E-1,-1.19323E-2
1.75964E-1,-1.13983E-2
1.77047E-1,-1.01013E-2
1.78871E-1,-9.17816E-3
1.80595E-1,-8.05664E-3
1.82327E-1,-6.40106E-3
1.84761E-1,-5.1651E-3
1.86454E-1,-5.02014E-3
1.89140E-1,-3.88336E-3
1.92573E-1,-3.00598E-3
1.96365E-1,-3.13568E-3
1.99623E-1,-3.82995E-3
2.02621E-1,-5.23376E-3
2.05459E-1,-6.20269E-3
2.08450E-1,-7.8125E-3
2.10746E-1,-9.46807E-3
2.14279E-1,-1.10397E-2
2.16499E-1,-1.38473E-2
2.18467E-1,-1.56478E-2
2.20535E-1,-1.74789E-2
2.22633E-1,-1.95007E-2
2.24723E-1,-2.05383E-2
2.28355E-1,-2.25906E-2
2.31788E-1,-2.47421E-2
2.34970E-1,-2.86102E-2
2.37442E-1,-3.22952E-2
2.39372E-1,-3.65524E-2
2.40814E-1,-3.99169E-2
2.42523E-1,-4.30603E-2
2.43820E-1,-4.64096E-2
2.45727E-1,-4.96444E-2
2.47039E-1,-5.27725E-2
2.48291E-1,-5.62133E-2
2.49847E-1,-5.95550E-2
2.51068E-1,-6.38122E-2
2.52273E-1,-6.82525E-2
2.52395E-1,-7.33032E-2
2.51739E-1,-7.79113E-2
2.50396E-1,-8.14971E-2
2.49855E-1,-8.43124E-2
2.50289E-1,-8.80889E-2
2.49359E-1,-9.25293E-2
2.48344E-1,-9.69390E-2
2.46574E-1,-1.01150E-1
2.44819E-1,-1.04164E-1
2.44133E-1,-1.08619E-1
2.41882E-1,-1.12541E-1
2.39723E-1,-1.16363E-1
2.37060E-1,-1.19171E-1
2.35633E-1,-1.21719E-1
2.33131E-1,-1.24740E-1
2.31750E-1,-1.28074E-1
2.30346E-1,-1.30867E-1
2.28248E-1,-1.33995E-1
2.26066E-1,-1.37367E-1
2.23724E-1,-1.39541E-1
2.21015E-1,-1.41861E-1
2.19474E-1,-1.43119E-1
2.17636E-1,-1.45088E-1
2.16369E-1,-1.46888E-1
2.14973E-1,-1.48902E-1
2.13531E-1,-1.51496E-1
2.11433E-1,-1.54159E-1
2.09205E-1,-1.56272E-1
2.06733E-1,-1.57737E-1
2.04208E-1,-1.59149E-1
2.01896E-1,-1.60965E-1
1.99905E-1,-1.62689E-1
1.97242E-1,-1.63589E-1
1.94236E-1,-1.65504E-1
1.91421E-1,-1.65092E-1
1.90147E-1,-1.65435E-1
1.88797E-1,-1.66595E-1
1.87561E-1,-1.68769E-1
1.84761E-1,-1.7099E-1
1.82334E-1,-1.72058E-1
1.80603E-1,-1.73233E-1
1.78558E-1,-1.74980E-1
1.76017E-1,-1.77627E-1
1.72653E-1,-1.79138E-1
1.69014E-1,-1.81358E-1
1.66000E-1,-1.81518E-1
1.63169E-1,-1.82205E-1
1.61148E-1,-1.83197E-1
1.58401E-1,-1.84295E-1
1.55662E-1,-1.85783E-1
1.53175E-1,-1.86019E-1
1.50489E-1,-1.85943E-1
1.48864E-1,-1.86973E-1
1.47018E-1,-1.875E-1
1.44569E-1,-1.88171E-1
1.42547E-1,-1.89064E-1
1.40358E-1,-1.89209E-1
1.38153E-1,-1.89964E-1
1.35925E-1,-1.91207E-1
1.32614E-1,-1.92054E-1
1.29066E-1,-1.92153E-1
1.26213E-1,-1.91688E-1
1.22451E-1,-1.91581E-1
1.19293E-1,-1.90216E-1
1.16386E-1,-1.88430E-1
1.13937E-1,-1.87561E-1
1.11457E-1,-1.86676E-1
1.08650E-1,-1.85615E-1
1.05529E-1,-1.84967E-1
1.02523E-1,-1.83403E-1
0.99777E-1,-1.81816E-1
0.96519E-1,-1.80587E-1
0.92956E-1,-1.78062E-1
0.90469E-1,-1.74476E-1
0.89157E-1,-1.71623E-1
0.87463E-1,-1.68541E-1
0.86402E-1,-1.66458E-1
0.85701E-1,-1.63368E-1
0.85495E-1,-1.60697E-1
0.85342E-1,-1.58821E-1
0.85220E-1,-1.56662E-1
0.85205E-1,-1.54373E-1
0.85250E-1,-1.52671E-1
0.84930E-1,-1.51077E-1
0.84556E-1,-1.48887E-1
0.84320E-1,-1.45568E-1
0.85601E-1,-1.42097E-1
0.87684E-1,-1.39144E-1
0.89996E-1,-1.37352E-1
0.92254E-1,-1.36169E-1
0.94474E-1,-1.34658E-1
0.96778E-1,-1.32904E-1
0.99586E-1,-1.32080E-1
1.01936E-1,-1.32064E-1
1.03088E-1,-1.31538E-1
1.04866E-1,-1.30302E-1
1.07322E-1,-1.29440E-1
1.09809E-1,-1.28723E-1
1.12495E-1,-1.28700E-1
1.15058E-1,-1.29478E-1
1.17256E-1,-1.29959E-1
1.19316E-1,-1.30821E-1
1.20063E-1,-1.32049E-1
1.21841E-1,-1.32919E-1
1.23146E-1,-1.33544E-1
1.24961E-1,-1.34429E-1
1.26815E-1,-1.36329E-1
1.27716E-1,-1.38214E-1
1.28852E-1,-1.39694E-1
1.30188E-1,-1.41189E-1
1.31408E-1,-1.43158E-1
1.33079E-1,-1.45057E-1
1.33705E-1,-1.47995E-1
1.31797E-1,-1.51275E-1
1.33003E-1,-1.53404E-1
1.33750E-1,-1.55914E-1
1.34574E-1,-1.59004E-1
1.35688E-1,-1.62078E-1
1.36238E-1,-1.64825E-1
1.37130E-1,-1.68380E-1
1.37001E-1,-1.72088E-1
1.36520E-1,-1.76841E-1
1.35383E-1,-1.80595E-1
1.34422E-1,-1.85195E-1
1.31828E-1,-1.88087E-1
1.29303E-1,-1.90429E-1
1.28021E-1,-1.92558E-1
1.27426E-1,-1.94877E-1
1.25717E-1,-1.97792E-1
1.24488E-1,-2.00264E-1
1.23275E-1,-2.03338E-1
1.22146E-1,-2.07168E-1
1.19010E-1,-2.10540E-1
1.15737E-1,-2.13928E-1
1.12625E-1,-2.15774E-1
1.08894E-1,-2.17277E-1
1.06529E-1,-2.19360E-1
1.02760E-1,-2.21595E-1
