CITIFILE A.01.00
#NA VERSION HP8720D.06.14
NAME DATA
VAR FREQ MAG 1601
DATA S[1,1] RI

SEG_LIST_BEGIN
SEG 1000000000 8000000000 1601
SEG_LIST_END
BEGIN
3.00018E-1,-3.61648E-1
2.89962E-1,-3.68133E-1
2.77755E-1,-3.76907E-1
2.65335E-1,-3.85284E-1
2.51983E-1,-3.9505E-1
2.35076E-1,-4.04632E-1
2.14843E-1,-4.08294E-1
2.00332E-1,-4.10781E-1
1.86645E-1,-4.13101E-1
1.73294E-1,-4.14993E-1
1.60293E-1,-4.18365E-1
1.48696E-1,-4.20227E-1
1.37329E-1,-4.24469E-1
1.26693E-1,-4.29245E-1
1.12991E-1,-4.34646E-1
0.99166E-1,-4.39956E-1
0.8461E-1,-4.43527E-1
0.70220E-1,-4.46624E-1
0.54626E-1,-4.49768E-1
0.40145E-1,-4.52194E-1
0.26153E-1,-4.55368E-1
0.10223E-1,-4.61395E-1
-9.58252E-3,-4.66095E-1
-3.27758E-2,-4.66613E-1
-5.27343E-2,-4.63867E-1
-7.04040E-2,-4.59960E-1
-8.87146E-2,-4.60052E-1
-1.11541E-1,-4.58831E-1
-1.32598E-1,-4.53155E-1
-1.55426E-1,-4.46472E-1
-1.77398E-1,-4.36431E-1
-1.96411E-1,-4.25598E-1
-2.16033E-1,-4.15649E-1
-2.36022E-1,-4.03076E-1
-2.54638E-1,-3.87146E-1
-2.70111E-1,-3.70819E-1
-2.83264E-1,-3.54461E-1
-2.96264E-1,-3.37890E-1
-3.07495E-1,-3.21106E-1
-3.17901E-1,-2.99133E-1
-3.26202E-1,-2.84057E-1
-3.34533E-1,-2.68737E-1
-3.42712E-1,-2.51678E-1
-3.49029E-1,-2.35382E-1
-3.53363E-1,-2.19512E-1
-3.58886E-1,-2.03765E-1
-3.63952E-1,-1.87439E-1
-3.65173E-1,-1.69555E-1
-3.66241E-1,-1.55029E-1
-3.67736E-1,-1.42425E-1
-3.69934E-1,-1.28204E-1
-3.71551E-1,-1.13143E-1
-3.71612E-1,-9.71527E-2
-3.69674E-1,-8.41064E-2
-3.68118E-1,-7.10907E-2
-3.67050E-1,-6.04400E-2
-3.6586E-1,-4.87518E-2
-3.65676E-1,-3.90625E-2
-3.67401E-1,-2.96325E-2
-3.70224E-1,-1.78070E-2
-3.71749E-1,-4.24194E-3
-3.70727E-1,0.08911E-1
-3.72177E-1,0.20523E-1
-3.74176E-1,0.35842E-1
-3.70956E-1,0.53451E-1
-3.66012E-1,0.67367E-1
-3.60290E-1,0.79971E-1
-3.54980E-1,0.91171E-1
-3.50280E-1,1.02340E-1
-3.43597E-1,1.12976E-1
-3.37722E-1,1.21231E-1
-3.33923E-1,1.28189E-1
-3.32107E-1,1.36261E-1
-3.30810E-1,1.46804E-1
-3.27850E-1,1.58050E-1
-3.24432E-1,1.70700E-1
-3.19732E-1,1.83776E-1
-3.14361E-1,1.97357E-1
-3.05938E-1,2.09686E-1
-2.97226E-1,2.21389E-1
-2.86300E-1,2.31887E-1
-2.76397E-1,2.39273E-1
-2.68844E-1,2.46292E-1
-2.62542E-1,2.53997E-1
-2.55294E-1,2.62939E-1
-2.46551E-1,2.72399E-1
-2.38830E-1,2.82012E-1
-2.29141E-1,2.91549E-1
-2.17285E-1,3.00308E-1
-2.06573E-1,3.06839E-1
-1.96334E-1,3.13369E-1
-1.85638E-1,3.19946E-1
-1.75048E-1,3.27667E-1
-1.62048E-1,3.35159E-1
-1.47338E-1,3.40255E-1
-1.33148E-1,3.42178E-1
-1.20422E-1,3.43643E-1
-1.07894E-1,3.43887E-1
-9.69848E-2,3.44467E-1
-8.70361E-2,3.44512E-1
-7.69348E-2,3.46160E-1
-6.52618E-2,3.47473E-1
-5.22613E-2,3.47976E-1
-4.00543E-2,3.45504E-1
-3.00445E-2,3.42071E-1
-2.05078E-2,3.38104E-1
-1.39617E-2,3.34075E-1
-8.10241E-3,3.31970E-1
-2.82287E-3,3.31771E-1
0.03326E-1,3.31771E-1
0.09780E-1,3.33786E-1
0.19271E-1,3.35311E-1
0.28823E-1,3.35006E-1
0.36926E-1,3.34014E-1
0.44677E-1,3.33038E-1
0.51864E-1,3.32565E-1
0.59631E-1,3.33389E-1
0.69503E-1,3.34487E-1
0.79299E-1,3.35586E-1
0.90408E-1,3.35861E-1
1.03103E-1,3.35510E-1
1.16302E-1,3.33236E-1
1.30340E-1,3.28460E-1
1.43020E-1,3.21991E-1
1.53503E-1,3.14041E-1
1.62246E-1,3.07510E-1
1.71325E-1,3.00994E-1
1.80679E-1,2.93548E-1
1.88171E-1,2.85568E-1
1.95465E-1,2.78747E-1
2.03292E-1,2.71102E-1
2.11578E-1,2.65258E-1
2.21008E-1,2.57797E-1
2.28317E-1,2.47940E-1
2.35702E-1,2.39624E-1
2.41378E-1,2.29827E-1
2.48580E-1,2.19879E-1
2.54394E-1,2.08267E-1
2.58880E-1,1.97570E-1
2.62725E-1,1.86584E-1
2.66296E-1,1.77276E-1
2.69043E-1,1.66809E-1
2.72705E-1,1.57318E-1
2.75848E-1,1.46026E-1
2.7771E-1,1.35620E-1
2.79754E-1,1.25488E-1
2.82318E-1,1.14318E-1
2.82714E-1,1.02111E-1
2.81829E-1,0.91018E-1
2.80563E-1,0.81527E-1
2.79754E-1,0.72860E-1
2.79174E-1,0.62957E-1
2.78381E-1,0.54229E-1
2.79144E-1,0.45257E-1
2.79693E-1,0.34301E-1
2.78335E-1,0.21972E-1
2.76474E-1,0.10421E-1
2.72811E-1,-1.98364E-3
2.67074E-1,-1.39465E-2
2.60986E-1,-2.43988E-2
2.53845E-1,-3.48053E-2
2.46437E-1,-4.37164E-2
2.37808E-1,-5.26351E-2
2.27996E-1,-6.06994E-2
2.17430E-1,-6.58950E-2
2.07717E-1,-6.95343E-2
1.98684E-1,-7.17315E-2
1.90979E-1,-7.32421E-2
1.84402E-1,-7.54241E-2
1.77413E-1,-7.84454E-2
1.68319E-1,-8.04748E-2
1.60491E-1,-7.86514E-2
1.55830E-1,-7.74917E-2
1.53160E-1,-7.76825E-2
1.50398E-1,-7.93380E-2
1.46118E-1,-8.29391E-2
1.38458E-1,-8.57086E-2
1.32286E-1,-8.5289E-2
1.27868E-1,-8.56552E-2
1.21955E-1,-8.58993E-2
1.16962E-1,-8.47206E-2
1.13220E-1,-8.33435E-2
1.10092E-1,-8.21647E-2
1.07719E-1,-8.15086E-2
1.05293E-1,-8.06198E-2
1.03626E-1,-7.95898E-2
1.04084E-1,-7.99713E-2
1.03664E-1,-8.17337E-2
1.02516E-1,-8.44192E-2
1.01303E-1,-8.74481E-2
9.91058E-2,-9.19685E-2
9.48219E-2,-9.65194E-2
8.95423E-2,-9.95178E-2
8.36677E-2,-1.01779E-1
7.79876E-2,-1.03244E-1
7.26623E-2,-1.04320E-1
6.68411E-2,-1.04858E-1
6.16607E-2,-1.04572E-1
5.69458E-2,-1.0466E-1
5.24292E-2,-1.05434E-1
4.72183E-2,-1.06708E-1
3.97262E-2,-1.06979E-1
3.23028E-2,-1.06178E-1
2.60620E-2,-1.04595E-1
2.03361E-2,-1.02562E-1
1.54838E-2,-1.00391E-1
1.06201E-2,-9.79919E-2
0.53443E-2,-9.58175E-2
0.09155E-2,-9.25025E-2
-3.05938E-3,-8.93936E-2
-5.51223E-3,-8.61969E-2
-7.70187E-3,-8.46710E-2
-1.09024E-2,-8.28590E-2
-1.44386E-2,-8.14552E-2
-1.77459E-2,-8.00170E-2
-2.1595E-2,-7.86705E-2
-2.64701E-2,-7.63855E-2
-3.01284E-2,-7.28225E-2
-3.28216E-2,-6.98318E-2
-3.57322E-2,-6.75621E-2
-3.94783E-2,-6.54640E-2
-4.41017E-2,-6.25877E-2
-4.88548E-2,-5.77812E-2
-5.12619E-2,-5.21469E-2
-5.26695E-2,-4.76722E-2
-5.45311E-2,-4.46624E-2
-5.75790E-2,-4.11453E-2
-6.01615E-2,-3.65638E-2
-6.21185E-2,-3.21731E-2
-6.37626E-2,-2.84385E-2
-6.64863E-2,-2.52075E-2
-7.02896E-2,-2.07786E-2
-7.29713E-2,-1.42021E-2
-7.36084E-2,-8.09478E-3
-7.39135E-2,-2.96783E-3
-7.41310E-2,0.17356E-2
-7.40852E-2,0.57907E-2
-7.46841E-2,0.97389E-2
-7.51533E-2,1.42746E-2
-7.50007E-2,1.84936E-2
-7.53669E-2,2.28271E-2
-7.46612E-2,2.74772E-2
-7.32765E-2,3.12957E-2
-7.25250E-2,3.43704E-2
-7.24105E-2,3.75785E-2
-7.26394E-2,4.12864E-2
-7.25631E-2,4.54292E-2
-7.19451E-2,5.01022E-2
-7.06253E-2,5.49240E-2
-6.93664E-2,5.96466E-2
-6.70738E-2,6.40296E-2
-6.46209E-2,6.84280E-2
-6.21986E-2,7.15065E-2
-6.07452E-2,7.53173E-2
-5.84640E-2,7.99140E-2
-5.51796E-2,8.35571E-2
-5.24330E-2,8.72764E-2
-4.88510E-2,9.07211E-2
-4.48074E-2,9.34295E-2
-4.08287E-2,9.47036E-2
-3.82843E-2,9.49363E-2
-3.66325E-2,9.60540E-2
-3.47671E-2,9.72404E-2
-3.32603E-2,9.79194E-2
-3.24707E-2,9.85679E-2
-3.22799E-2,1.00006E-1
-3.22036E-2,1.02066E-1
-3.13720E-2,1.04797E-1
-2.93045E-2,1.07376E-1
-2.77328E-2,1.08451E-1
-2.71987E-2,1.09550E-1
-2.74429E-2,1.11640E-1
-2.74505E-2,1.15371E-1
-2.59704E-2,1.18961E-1
-2.44903E-2,1.22352E-1
-2.30865E-2,1.26174E-1
-2.12402E-2,1.30828E-1
-1.80892E-2,1.36398E-1
-1.34658E-2,1.40907E-1
-9.28497E-3,1.45301E-1
-3.18908E-3,1.49841E-1
0.02861E-1,1.52389E-1
0.07598E-1,1.54945E-1
0.12741E-1,1.58989E-1
0.18714E-1,1.62406E-1
0.25299E-1,1.66557E-1
0.33355E-1,1.69387E-1
0.41656E-1,1.70913E-1
0.49377E-1,1.71829E-1
0.57403E-1,1.72546E-1
0.65628E-1,1.7276E-1
0.73684E-1,1.72531E-1
0.82366E-1,1.72027E-1
0.92010E-1,1.70318E-1
1.01882E-1,1.67785E-1
1.11434E-1,1.63452E-1
1.20925E-1,1.56646E-1
1.28555E-1,1.49627E-1
1.35757E-1,1.42013E-1
1.42837E-1,1.31912E-1
1.46881E-1,1.21780E-1
1.49337E-1,1.11434E-1
1.50314E-1,1.03729E-1
1.52664E-1,0.95581E-1
1.53717E-1,0.86959E-1
1.54190E-1,0.78353E-1
1.53198E-1,0.69366E-1
1.52542E-1,0.62271E-1
1.51504E-1,0.54351E-1
1.49398E-1,0.46646E-1
1.45614E-1,0.39756E-1
1.41975E-1,0.34210E-1
1.38938E-1,0.29518E-1
1.35688E-1,0.24498E-1
1.31210E-1,0.20149E-1
1.27235E-1,0.16532E-1
1.23703E-1,1.31149E-2
1.19026E-1,1.00936E-2
1.14151E-1,0.79422E-2
1.09142E-1,0.51956E-2
1.03191E-1,0.39939E-2
9.76944E-2,0.48446E-2
9.41352E-2,0.61454E-2
9.10644E-2,0.60386E-2
8.82530E-2,0.64888E-2
8.57925E-2,0.70152E-2
8.28170E-2,0.61264E-2
7.85064E-2,0.63552E-2
7.47375E-2,0.78430E-2
7.20214E-2,0.96664E-2
7.08084E-2,1.27487E-2
7.08732E-2,1.40266E-2
6.92939E-2,1.31912E-2
6.74018E-2,1.45568E-2
6.70204E-2,1.67617E-2
6.69326E-2,1.75514E-2
6.79893E-2,1.90734E-2
6.94541E-2,1.90734E-2
7.03887E-2,1.84440E-2
7.11059E-2,1.76353E-2
7.15713E-2,1.70288E-2
7.20558E-2,1.60675E-2
7.22732E-2,1.46331E-2
7.18536E-2,1.31835E-2
7.10525E-2,1.22222E-2
7.01522E-2,1.12228E-2
6.93435E-2,1.08795E-2
6.88819E-2,0.98419E-2
6.72416E-2,0.87623E-2
6.48994E-2,0.88157E-2
6.37741E-2,0.96015E-2
6.31065E-2,1.00288E-2
6.24084E-2,0.97084E-2
6.13937E-2,0.95558E-2
5.98220E-2,0.97808E-2
5.59425E-2,0.75645E-2
5.59921E-2,0.76789E-2
5.53150E-2,0.72612E-2
5.42297E-2,0.67672E-2
5.37147E-2,0.63667E-2
5.27992E-2,0.55503E-2
5.17845E-2,0.46081E-2
5.03292E-2,0.34313E-2
4.84275E-2,0.26683E-2
4.59842E-2,0.19455E-2
4.37717E-2,0.25444E-2
4.25243E-2,0.29258E-2
4.00886E-2,0.31375E-2
3.83434E-2,0.48103E-2
3.78513E-2,0.56991E-2
3.67717E-2,0.62351E-2
3.5923E-2,0.67291E-2
3.38516E-2,0.68664E-2
3.16276E-2,0.88520E-2
3.09696E-2,1.05972E-2
2.99892E-2,1.18274E-2
2.85759E-2,1.35173E-2
2.78720E-2,1.56574E-2
2.76622E-2,1.72996E-2
2.72140E-2,1.85585E-2
2.70423E-2,2.01244E-2
2.73532E-2,2.08015E-2
2.73437E-2,2.06413E-2
2.64587E-2,2.01454E-2
2.46772E-2,1.96800E-2
2.20947E-2,2.01950E-2
1.98631E-2,2.14233E-2
1.80091E-2,2.35290E-2
1.73339E-2,2.55012E-2
1.73873E-2,2.68402E-2
1.74217E-2,2.72636E-2
1.66015E-2,2.72026E-2
1.53846E-2,2.74314E-2
1.33171E-2,2.78892E-2
1.07841E-2,2.94570E-2
0.92392E-2,3.24592E-2
0.93002E-2,3.55339E-2
1.03035E-2,3.76052E-2
1.04293E-2,3.82728E-2
0.96244E-2,3.95851E-2
0.88081E-2,4.19883E-2
0.85525E-2,4.46929E-2
0.93917E-2,4.76493E-2
1.04770E-2,4.92153E-2
1.02615E-2,5.10044E-2
1.00936E-2,5.32379E-2
1.07879E-2,5.63087E-2
1.19323E-2,5.89866E-2
1.33667E-2,6.11343E-2
1.47781E-2,6.27059E-2
1.58386E-2,6.39267E-2
1.61132E-2,6.54182E-2
1.69830E-2,6.70852E-2
1.72920E-2,6.85424E-2
1.79214E-2,7.08923E-2
1.99661E-2,7.31201E-2
2.24380E-2,7.38678E-2
2.35290E-2,7.37075E-2
2.43148E-2,7.49206E-2
2.59246E-2,7.56530E-2
2.76336E-2,7.58667E-2
2.89840E-2,7.64312E-2
3.08532E-2,7.57751E-2
3.15551E-2,7.54013E-2
3.24783E-2,7.55691E-2
3.38745E-2,7.54928E-2
3.48739E-2,7.47985E-2
3.45916E-2,7.42721E-2
3.46679E-2,7.51724E-2
3.49426E-2,7.60498E-2
3.59191E-2,7.80334E-2
3.85055E-2,7.90863E-2
4.05578E-2,7.86819E-2
4.12063E-2,7.80792E-2
4.12902E-2,7.85598E-2
4.22668E-2,7.92541E-2
4.30069E-2,7.98111E-2
4.37545E-2,8.08410E-2
4.49218E-2,8.13598E-2
4.56008E-2,8.13674E-2
4.54559E-2,8.20083E-2
4.60357E-2,8.37554E-2
4.77905E-2,8.49762E-2
4.99954E-2,8.51516E-2
5.13992E-2,8.42742E-2
5.15747E-2,8.29696E-2
5.13610E-2,8.26797E-2
5.11856E-2,8.30535E-2
5.12542E-2,8.31680E-2
5.15136E-2,8.34732E-2
5.16281E-2,8.33511E-2
5.15899E-2,8.37249E-2
5.18798E-2,8.43505E-2
5.23376E-2,8.46099E-2
5.22613E-2,8.43658E-2
5.22460E-2,8.52508E-2
5.31005E-2,8.63647E-2
5.30700E-2,8.73718E-2
5.25436E-2,8.94165E-2
5.41458E-2,9.19647E-2
5.71746E-2,9.39636E-2
5.95397E-2,9.47189E-2
6.10961E-2,9.57489E-2
6.27746E-2,9.75799E-2
6.52847E-2,9.90295E-2
6.73675E-2,9.97009E-2
6.93664E-2,1.00921E-1
7.12509E-2,1.03004E-1
7.43713E-2,1.05110E-1
7.86895E-2,1.05712E-1
8.10546E-2,1.05865E-1
8.40148E-2,1.07208E-1
8.87603E-2,1.08200E-1
9.26971E-2,1.07376E-1
9.64202E-2,1.05514E-1
9.95636E-2,1.03805E-1
1.02188E-1,1.02462E-1
1.0495E-1,1.01028E-1
1.08085E-1,9.84802E-2
1.10923E-1,9.62066E-2
1.13044E-1,9.33227E-2
1.15211E-1,9.02481E-2
1.16767E-1,8.71963E-2
1.18080E-1,8.40911E-2
1.19529E-1,8.14895E-2
1.20544E-1,7.81555E-2
1.21368E-1,7.50885E-2
1.22146E-1,7.11364E-2
1.21353E-1,6.71081E-2
1.19247E-1,6.51702E-2
1.18377E-1,6.49261E-2
1.19934E-1,6.39343E-2
1.21002E-1,6.15081E-2
1.20239E-1,5.83343E-2
1.18743E-1,5.71899E-2
1.18644E-1,5.68847E-2
1.19735E-1,5.58395E-2
1.19651E-1,5.37109E-2
1.19056E-1,5.16586E-2
1.18759E-1,4.93011E-2
1.18217E-1,4.67529E-2
1.15936E-1,4.46090E-2
1.13205E-1,4.28848E-2
1.10511E-1,4.17480E-2
1.07620E-1,4.19464E-2
1.05072E-1,4.23049E-2
1.03569E-1,4.27780E-2
1.02432E-1,4.27398E-2
1.00570E-1,4.19464E-2
9.74884E-2,4.17633E-2
9.54284E-2,4.29077E-2
9.38415E-2,4.37011E-2
9.11102E-2,4.43573E-2
8.89282E-2,4.60510E-2
8.70361E-2,4.89349E-2
8.70666E-2,5.22613E-2
8.83331E-2,5.37414E-2
9.00116E-2,5.46569E-2
9.05685E-2,5.46493E-2
8.99810E-2,5.32608E-2
8.77075E-2,5.39016E-2
8.60366E-2,5.65109E-2
8.65097E-2,5.87310E-2
8.72345E-2,6.11801E-2
8.78372E-2,6.27746E-2
8.85925E-2,6.49032E-2
9.02938E-2,6.66580E-2
9.20028E-2,6.69860E-2
9.28726E-2,6.65512E-2
9.19494E-2,6.62689E-2
9.10186E-2,6.84204E-2
9.12628E-2,7.12280E-2
9.30023E-2,7.32727E-2
9.40856E-2,7.42492E-2
9.53369E-2,7.64465E-2
9.75036E-2,7.76977E-2
9.88006E-2,7.76977E-2
1.00212E-1,7.85446E-2
1.01623E-1,7.87963E-2
1.02005E-1,7.91015E-2
1.03263E-1,8.10165E-2
1.04476E-1,8.11843E-2
1.05667E-1,8.24203E-2
1.07879E-1,8.40148E-2
1.11061E-1,8.43582E-2
1.13952E-1,8.39157E-2
1.16111E-1,8.23516E-2
1.17088E-1,8.09707E-2
1.17988E-1,7.95669E-2
1.18362E-1,7.80792E-2
1.17614E-1,7.81021E-2
1.18148E-1,7.81555E-2
1.17691E-1,7.82928E-2
1.18316E-1,7.88803E-2
1.18804E-1,7.91626E-2
1.19148E-1,7.95593E-2
1.18888E-1,7.99484E-2
1.19583E-1,8.16192E-2
1.20689E-1,8.27331E-2
1.21620E-1,8.32214E-2
1.22779E-1,8.32977E-2
1.22551E-1,8.30078E-2
1.22207E-1,8.36868E-2
1.21940E-1,8.55941E-2
1.23115E-1,8.72802E-2
1.24160E-1,8.86535E-2
1.24908E-1,8.93554E-2
1.25915E-1,0.90560E-1
1.26831E-1,0.92468E-1
1.27983E-1,0.94108E-1
1.29379E-1,0.95832E-1
1.31248E-1,0.97335E-1
1.32858E-1,0.98465E-1
1.35002E-1,1.00708E-1
1.38160E-1,1.03157E-1
1.41861E-1,1.03996E-1
1.45004E-1,1.05484E-1
1.48773E-1,1.06445E-1
1.53198E-1,1.07025E-1
1.57653E-1,1.06658E-1
1.61056E-1,1.06094E-1
1.64535E-1,1.06658E-1
1.68975E-1,1.06414E-1
1.73080E-1,1.05621E-1
1.77490E-1,1.05041E-1
1.81961E-1,1.04187E-1
1.86782E-1,1.02691E-1
1.91757E-1,1.00647E-1
1.96182E-1,0.97915E-1
2.00454E-1,0.95138E-1
2.03720E-1,0.91812E-1
2.05856E-1,0.88287E-1
2.09564E-1,0.86410E-1
2.12982E-1,0.83618E-1
2.16430E-1,0.81069E-1
2.20306E-1,0.77209E-1
2.23480E-1,0.72464E-1
2.26684E-1,0.68344E-1
2.28714E-1,0.63659E-1
2.30377E-1,0.58609E-1
2.31994E-1,0.54840E-1
2.34619E-1,0.51544E-1
2.37335E-1,0.45929E-1
2.38769E-1,0.40527E-1
2.40036E-1,0.35354E-1
2.41088E-1,0.29892E-1
2.41897E-1,0.24841E-1
2.42691E-1,0.19912E-1
2.43225E-1,0.14022E-1
2.43690E-1,0.09048E-1
2.44361E-1,0.03601E-1
2.43415E-1,-3.19671E-3
2.42111E-1,-8.94928E-3
2.40089E-1,-1.43890E-2
2.38395E-1,-1.87988E-2
2.37968E-1,-2.34451E-2
2.36251E-1,-2.95333E-2
2.34161E-1,-3.47671E-2
2.31262E-1,-4.12139E-2
2.27989E-1,-4.59899E-2
2.2435E-1,-5.12619E-2
2.20710E-1,-5.71746E-2
2.14912E-1,-6.12716E-2
2.09587E-1,-6.46820E-2
2.04910E-1,-6.76727E-2
1.99958E-1,-7.03659E-2
1.94717E-1,-7.37075E-2
1.88728E-1,-7.60345E-2
1.83319E-1,-7.72934E-2
1.78436E-1,-7.78579E-2
1.73919E-1,-7.89184E-2
1.68830E-1,-8.05587E-2
1.63749E-1,-8.14285E-2
1.58165E-1,-8.22143E-2
1.53251E-1,-8.21075E-2
1.47514E-1,-8.17565E-2
1.41494E-1,-8.11309E-2
1.35955E-1,-7.96356E-2
1.30706E-1,-7.77282E-2
1.24874E-1,-7.53097E-2
1.19640E-1,-7.2155E-2
1.15528E-1,-6.78291E-2
1.12510E-1,-6.38122E-2
1.09310E-1,-5.98526E-2
1.06567E-1,-5.65910E-2
1.04175E-1,-5.21431E-2
1.01554E-1,-4.84428E-2
9.93576E-2,-4.51316E-2
9.63287E-2,-4.13475E-2
9.38262E-2,-3.68766E-2
9.22851E-2,-3.15856E-2
9.17816E-2,-2.67601E-2
9.03396E-2,-2.17132E-2
9.00001E-2,-1.62277E-2
9.12971E-2,-1.05056E-2
9.26628E-2,-5.73730E-3
9.50393E-2,-1.35421E-3
9.71031E-2,0.19874E-2
9.82742E-2,0.53939E-2
1.00135E-1,0.96397E-2
1.03210E-1,1.39122E-2
1.07494E-1,1.67808E-2
1.11114E-1,1.81808E-2
1.13746E-1,1.93481E-2
1.15646E-1,2.15911E-2
1.17454E-1,2.43606E-2
1.21215E-1,2.73284E-2
1.25061E-1,0.29121E-1
1.29135E-1,0.30723E-1
1.33003E-1,0.31303E-1
1.35788E-1,0.32074E-1
1.38336E-1,0.33393E-1
1.41738E-1,0.34400E-1
1.44729E-1,0.35614E-1
1.49116E-1,0.35995E-1
1.52580E-1,0.35675E-1
1.55456E-1,0.36109E-1
1.58180E-1,0.36842E-1
1.61872E-1,0.36834E-1
1.65443E-1,0.36743E-1
1.69708E-1,0.35598E-1
1.72325E-1,0.33462E-1
1.75193E-1,0.32424E-1
1.77085E-1,0.31189E-1
1.79611E-1,0.30304E-1
1.81915E-1,0.28556E-1
1.84600E-1,0.26481E-1
1.86622E-1,0.2491E-1
1.87004E-1,0.23521E-1
1.88491E-1,0.23643E-1
1.90368E-1,0.22918E-1
1.93191E-1,0.22216E-1
1.96403E-1,0.20942E-1
1.98547E-1,0.18989E-1
2.00111E-1,0.18234E-1
2.02400E-1,0.17196E-1
2.04612E-1,0.16128E-1
2.07069E-1,0.14755E-1
2.09503E-1,0.13481E-1
2.10807E-1,0.12527E-1
2.12753E-1,0.11573E-1
2.14386E-1,0.10505E-1
2.16735E-1,0.10383E-1
2.19299E-1,0.09826E-1
2.22106E-1,0.09010E-1
2.25685E-1,0.07392E-1
2.28271E-1,0.05790E-1
2.30499E-1,0.04364E-1
2.32994E-1,0.02861E-1
2.36473E-1,0.01068E-1
2.39219E-1,-1.06048E-3
2.42446E-1,-4.23431E-3
2.45300E-1,-6.89697E-3
2.48176E-1,-1.01242E-2
2.50137E-1,-1.42211E-2
2.52487E-1,-1.74713E-2
2.53799E-1,-2.11334E-2
2.55554E-1,-2.52838E-2
2.57354E-1,-2.80456E-2
2.59079E-1,-3.17077E-2
2.60223E-1,-3.45459E-2
2.63122E-1,-3.77655E-2
2.66204E-1,-4.16259E-2
2.68661E-1,-4.70123E-2
2.70294E-1,-5.23986E-2
2.70431E-1,-5.83038E-2
2.70721E-1,-6.24389E-2
2.71698E-1,-6.67114E-2
2.72811E-1,-7.19757E-2
2.72430E-1,-7.72857E-2
2.72003E-1,-8.17108E-2
2.71774E-1,-8.55255E-2
2.72674E-1,-9.09271E-2
2.72567E-1,-9.61151E-2
2.71667E-1,-1.01821E-1
2.7005E-1,-1.07589E-1
2.67822E-1,-1.12670E-1
2.64175E-1,-1.16806E-1
2.61901E-1,-1.21154E-1
2.59674E-1,-1.25991E-1
2.56683E-1,-1.31073E-1
2.52960E-1,-1.35742E-1
2.48878E-1,-1.40152E-1
2.44903E-1,-1.43295E-1
2.42126E-1,-1.46797E-1
2.37846E-1,-1.50062E-1
2.33856E-1,-1.53999E-1
2.28683E-1,-1.56295E-1
2.24510E-1,-1.58004E-1
2.20497E-1,-1.60339E-1
2.16659E-1,-1.61911E-1
2.12959E-1,-1.63528E-1
2.09434E-1,-1.65412E-1
2.05490E-1,-1.66404E-1
2.01835E-1,-1.67686E-1
1.98379E-1,-1.68357E-1
1.95877E-1,-1.68022E-1
1.92489E-1,-1.68754E-1
1.90650E-1,-1.68693E-1
1.87873E-1,-1.68777E-1
1.85501E-1,-1.69128E-1
1.83334E-1,-1.69769E-1
1.80717E-1,-1.70311E-1
1.77627E-1,-1.69708E-1
1.74873E-1,-1.69914E-1
1.73324E-1,-1.69258E-1
1.71432E-1,-1.70234E-1
1.67915E-1,-1.70654E-1
1.64543E-1,-1.70257E-1
1.61331E-1,-1.68541E-1
1.59355E-1,-1.66900E-1
1.58493E-1,-1.65939E-1
1.57341E-1,-1.65809E-1
1.55891E-1,-1.66290E-1
1.53755E-1,-1.65252E-1
1.52496E-1,-1.64993E-1
1.51222E-1,-1.65641E-1
1.49528E-1,-1.66389E-1
1.47033E-1,-1.66770E-1
1.44744E-1,-1.66458E-1
1.43364E-1,-1.65840E-1
1.41639E-1,-1.65443E-1
1.40068E-1,-1.65161E-1
1.38694E-1,-1.64856E-1
1.38382E-1,-1.64329E-1
1.37184E-1,-1.63787E-1
1.36283E-1,-1.63009E-1
1.36352E-1,-1.62422E-1
1.36856E-1,-1.62620E-1
1.36779E-1,-1.63101E-1
1.36779E-1,-1.63711E-1
1.36604E-1,-1.64253E-1
1.36611E-1,-1.64947E-1
1.36138E-1,-1.66519E-1
1.34529E-1,-1.68121E-1
1.32804E-1,-1.68388E-1
1.31424E-1,-1.68418E-1
1.29890E-1,-1.68838E-1
1.28410E-1,-1.68815E-1
1.27288E-1,-1.68296E-1
1.26098E-1,-1.68685E-1
1.25007E-1,-1.69181E-1
1.23703E-1,-1.69578E-1
1.21734E-1,-1.70227E-1
1.20163E-1,-1.69784E-1
1.17981E-1,-1.70372E-1
1.15799E-1,-1.70753E-1
1.13090E-1,-1.70570E-1
1.10633E-1,-1.69334E-1
1.09108E-1,-1.68212E-1
1.07734E-1,-1.67465E-1
1.06338E-1,-1.66503E-1
1.05560E-1,-1.65924E-1
1.04553E-1,-1.65176E-1
1.03424E-1,-1.64917E-1
1.02439E-1,-1.64535E-1
1.01455E-1,-1.64352E-1
0.99884E-1,-1.63894E-1
0.98022E-1,-1.62857E-1
0.9655E-1,-1.61148E-1
0.95558E-1,-1.59042E-1
0.95497E-1,-1.56356E-1
0.96221E-1,-1.54556E-1
0.97045E-1,-1.53602E-1
0.97709E-1,-1.52351E-1
0.98259E-1,-1.51077E-1
0.98976E-1,-1.49696E-1
1.00555E-1,-1.48735E-1
1.01272E-1,-1.48323E-1
1.02233E-1,-1.47705E-1
1.02783E-1,-1.46843E-1
1.03599E-1,-1.46041E-1
1.05018E-1,-1.44912E-1
1.06422E-1,-1.44317E-1
1.07666E-1,-1.45240E-1
1.08169E-1,-1.45668E-1
1.08856E-1,-1.45355E-1
1.09680E-1,-1.45874E-1
1.09962E-1,-1.46492E-1
1.10427E-1,-1.46774E-1
1.10656E-1,-1.46698E-1
1.11885E-1,-1.47415E-1
1.11640E-1,-1.48643E-1
1.11785E-1,-1.49391E-1
1.11839E-1,-1.49513E-1
1.12106E-1,-1.49986E-1
1.13021E-1,-1.50764E-1
1.13487E-1,-1.51245E-1
1.12800E-1,-1.53030E-1
1.13243E-1,-1.54266E-1
1.14494E-1,-1.55609E-1
1.15608E-1,-1.57165E-1
1.15226E-1,-1.59828E-1
1.16828E-1,-1.61590E-1
1.17507E-1,-1.64283E-1
1.17202E-1,-1.67640E-1
1.15875E-1,-1.70227E-1
1.15501E-1,-1.72943E-1
1.14219E-1,-1.75910E-1
1.12175E-1,-1.77284E-1
1.10755E-1,-1.77841E-1
1.10107E-1,-1.79405E-1
1.09481E-1,-1.80732E-1
1.08436E-1,-1.82640E-1
1.07093E-1,-1.83731E-1
1.06803E-1,-1.85958E-1
1.06071E-1,-1.87591E-1
1.04339E-1,-1.90429E-1
1.01623E-1,-1.92009E-1
0.99456E-1,-1.92863E-1
0.97572E-1,-1.92932E-1
0.97007E-1,-1.95098E-1
0.94512E-1,-1.96258E-1
0.92002E-1,-1.96807E-1
0.90187E-1,-1.97303E-1
0.88180E-1,-1.97708E-1
0.87516E-1,-1.97471E-1
0.86639E-1,-1.98989E-1
0.85563E-1,-2.01194E-1
