CITIFILE A.01.00
#NA VERSION HP8720D.06.14
NAME DATA
VAR FREQ MAG 1601
DATA S[1,1] RI

SEG_LIST_BEGIN
SEG 1000000000 8000000000 1601
SEG_LIST_END
BEGIN
3.61221E-1,-3.88534E-1
3.47381E-1,-4.04693E-1
3.29376E-1,-4.22500E-1
3.08593E-1,-4.35333E-1
2.91168E-1,-4.48303E-1
2.70843E-1,-4.59686E-1
2.47741E-1,-4.70550E-1
2.27035E-1,-4.79858E-1
2.04864E-1,-4.86709E-1
1.83120E-1,-4.91577E-1
1.61743E-1,-4.97848E-1
1.39923E-1,-5.02380E-1
1.17279E-1,-5.05798E-1
0.96710E-1,-5.07293E-1
0.73638E-1,-5.10406E-1
0.50201E-1,-5.10711E-1
0.27282E-1,-5.08850E-1
0.03662E-1,-5.02655E-1
-1.74560E-2,-4.96063E-1
-3.50341E-2,-4.90142E-1
-5.09643E-2,-4.84008E-1
-6.75048E-2,-4.81445E-1
-8.91723E-2,-4.79003E-1
-1.12182E-1,-4.70397E-1
-1.30737E-1,-4.59259E-1
-1.46148E-1,-4.49005E-1
-1.61895E-1,-4.41925E-1
-1.82006E-1,-4.34936E-1
-2.01690E-1,-4.24591E-1
-2.21862E-1,-4.12414E-1
-2.41760E-1,-3.95446E-1
-2.58453E-1,-3.77105E-1
-2.72216E-1,-3.58642E-1
-2.85247E-1,-3.38958E-1
-2.94036E-1,-3.17596E-1
-2.98828E-1,-2.98767E-1
-3.03283E-1,-2.83142E-1
-3.08105E-1,-2.66723E-1
-3.12591E-1,-2.51464E-1
-3.14422E-1,-2.30712E-1
-3.13964E-1,-2.18414E-1
-3.15734E-1,-2.09014E-1
-3.20220E-1,-1.98669E-1
-3.23669E-1,-1.86706E-1
-3.25744E-1,-1.75537E-1
-3.28323E-1,-1.65359E-1
-3.32870E-1,-1.54434E-1
-3.36547E-1,-1.41861E-1
-3.39096E-1,-1.30416E-1
-3.41857E-1,-1.18087E-1
-3.45397E-1,-1.05102E-1
-3.46542E-1,-9.06372E-2
-3.45871E-1,-7.62939E-2
-3.45291E-1,-6.26983E-2
-3.43627E-1,-5.05523E-2
-3.40820E-1,-3.94744E-2
-3.38943E-1,-2.82135E-2
-3.36578E-1,-1.94397E-2
-3.3638E-1,-1.08184E-2
-3.37188E-1,-4.27246E-4
-3.37585E-1,0.11856E-1
-3.35861E-1,0.22888E-1
-3.34808E-1,0.32012E-1
-3.35388E-1,0.44891E-1
-3.32046E-1,0.58639E-1
-3.27148E-1,0.70114E-1
-3.21685E-1,0.80184E-1
-3.16589E-1,0.89019E-1
-3.11599E-1,0.98449E-1
-3.05267E-1,1.05682E-1
-3.00231E-1,1.11221E-1
-2.97943E-1,1.15524E-1
-2.97622E-1,1.21597E-1
-2.98324E-1,1.30676E-1
-2.96966E-1,1.40777E-1
-2.95043E-1,1.52755E-1
-2.91214E-1,1.64825E-1
-2.85995E-1,1.77612E-1
-2.77084E-1,1.89910E-1
-2.67303E-1,2.00363E-1
-2.55828E-1,2.07534E-1
-2.46566E-1,2.11257E-1
-2.38815E-1,2.14729E-1
-2.34733E-1,2.19795E-1
-2.30392E-1,2.24487E-1
-2.25517E-1,2.32391E-1
-2.2052E-1,2.39913E-1
-2.14096E-1,2.47543E-1
-2.06756E-1,2.55645E-1
-1.98593E-1,2.61947E-1
-1.90963E-1,2.68081E-1
-1.83517E-1,2.74231E-1
-1.75964E-1,2.80990E-1
-1.66702E-1,2.87948E-1
-1.54922E-1,2.92816E-1
-1.44744E-1,2.94342E-1
-1.36566E-1,2.96478E-1
-1.28646E-1,2.98111E-1
-1.21292E-1,3.00231E-1
-1.15753E-1,3.02673E-1
-1.09756E-1,3.07479E-1
-1.00631E-1,3.12530E-1
-9.08813E-2,3.15689E-1
-8.16650E-2,3.16787E-1
-7.31658E-2,3.18038E-1
-6.47735E-2,3.19427E-1
-5.77545E-2,3.20938E-1
-5.02471E-2,3.22341E-1
-4.41436E-2,3.24249E-1
-3.69415E-2,3.27545E-1
-2.91290E-2,3.31161E-1
-1.76849E-2,3.34686E-1
-7.79724E-3,3.34732E-1
0.00167E-1,3.34228E-1
0.07568E-1,3.35449E-1
0.15090E-1,3.38012E-1
0.23147E-1,3.40728E-1
0.32775E-1,3.44329E-1
0.43823E-1,3.47869E-1
0.56610E-1,3.48953E-1
0.69641E-1,3.50357E-1
0.83267E-1,3.49624E-1
0.97854E-1,3.46817E-1
1.10946E-1,3.43078E-1
1.22497E-1,3.38302E-1
1.33194E-1,3.33908E-1
1.44714E-1,3.29849E-1
1.56494E-1,3.24295E-1
1.66488E-1,3.17581E-1
1.76773E-1,3.11492E-1
1.86935E-1,3.05511E-1
1.97814E-1,2.98919E-1
2.08862E-1,2.91351E-1
2.17712E-1,2.82287E-1
2.26226E-1,2.74749E-1
2.32940E-1,2.65808E-1
2.43225E-1,2.58026E-1
2.52044E-1,2.47100E-1
2.59674E-1,2.36480E-1
2.67181E-1,2.26470E-1
2.73895E-1,2.16552E-1
2.80487E-1,2.05902E-1
2.86895E-1,1.94397E-1
2.93975E-1,1.82373E-1
2.99881E-1,1.70867E-1
3.05358E-1,1.57592E-1
3.10638E-1,1.42517E-1
3.12896E-1,1.26281E-1
3.12515E-1,1.11480E-1
3.12393E-1,0.98968E-1
3.12683E-1,0.85311E-1
3.11309E-1,0.71472E-1
3.08868E-1,0.59265E-1
3.07189E-1,0.48187E-1
3.05816E-1,0.35461E-1
3.02871E-1,0.22171E-1
2.99499E-1,0.09368E-1
2.94570E-1,-3.28064E-3
2.88269E-1,-1.58844E-2
2.80792E-1,-2.75878E-2
2.72934E-1,-3.82232E-2
2.64679E-1,-4.74700E-2
2.55523E-1,-5.67932E-2
2.44499E-1,-6.51321E-2
2.33192E-1,-7.04116E-2
2.23419E-1,-7.44705E-2
2.1418E-1,-7.74917E-2
2.05627E-1,-7.86590E-2
1.98654E-1,-8.14514E-2
1.90597E-1,-8.45489E-2
1.81732E-1,-8.60595E-2
1.73873E-1,-8.44192E-2
1.69105E-1,-8.2901E-2
1.66793E-1,-8.28018E-2
1.64352E-1,-8.53347E-2
1.59469E-1,-8.97445E-2
1.52458E-1,-9.19418E-2
1.46667E-1,-9.17892E-2
1.42662E-1,-9.29412E-2
1.37863E-1,-9.42764E-2
1.33575E-1,-9.42153E-2
1.29791E-1,-9.47876E-2
1.26815E-1,-9.54208E-2
1.24004E-1,-9.66301E-2
1.20765E-1,-9.77096E-2
1.17572E-1,-9.81941E-2
1.16798E-1,-9.97161E-2
1.14929E-1,-1.03069E-1
1.11831E-1,-1.06750E-1
1.09039E-1,-1.10565E-1
1.04847E-1,-1.15985E-1
9.84077E-2,-1.20712E-1
9.09767E-2,-1.23889E-1
0.83404E-1,-1.25862E-1
0.76484E-1,-1.26617E-1
0.69496E-1,-1.28234E-1
0.62355E-1,-1.28601E-1
0.55137E-1,-1.28227E-1
0.48515E-1,-1.27616E-1
0.42259E-1,-1.27540E-1
0.35438E-1,-1.27357E-1
0.27801E-1,-1.25595E-1
1.98288E-2,-1.24839E-1
1.24092E-2,-1.22509E-1
0.54359E-2,-1.19541E-1
-1.15966E-3,-1.16767E-1
-7.45391E-3,-1.14025E-1
-1.34849E-2,-1.10145E-1
-1.94091E-2,-1.05445E-1
-2.38494E-2,-1.01074E-1
-2.72865E-2,-9.69543E-2
-3.12881E-2,-9.39178E-2
-3.51219E-2,-9.03167E-2
-3.94058E-2,-8.62960E-2
-4.28504E-2,-8.26034E-2
-4.60166E-2,-7.89642E-2
-4.97169E-2,-7.53250E-2
-5.26161E-2,-7.10716E-2
-5.56602E-2,-6.79626E-2
-5.94329E-2,-6.44569E-2
-6.37321E-2,-6.02760E-2
-6.82334E-2,-5.50460E-2
-7.22160E-2,-4.84314E-2
-7.43866E-2,-4.13055E-2
-7.50694E-2,-3.48091E-2
-7.58705E-2,-2.95829E-2
-7.74116E-2,-2.47955E-2
-7.92007E-2,-1.93977E-2
-8.01391E-2,-1.31874E-2
-8.05320E-2,-7.95364E-3
-8.18786E-2,-3.54766E-3
-8.40454E-2,0.19798E-2
-8.53767E-2,0.95291E-2
-8.48617E-2,1.69792E-2
-8.26301E-2,2.38113E-2
-8.01010E-2,2.89726E-2
-7.75108E-2,3.29971E-2
-7.62062E-2,3.65524E-2
-7.47642E-2,4.08706E-2
-7.29599E-2,4.48379E-2
-7.14607E-2,4.87594E-2
-6.89811E-2,5.26351E-2
-6.67572E-2,5.55687E-2
-6.47506E-2,5.85250E-2
-6.30569E-2,6.12640E-2
-6.19773E-2,6.42700E-2
-6.09016E-2,6.80160E-2
-5.92346E-2,7.23877E-2
-5.65033E-2,7.71789E-2
-5.31997E-2,8.13217E-2
-4.93698E-2,8.49075E-2
-4.53224E-2,8.84780E-2
-4.13627E-2,9.05380E-2
-3.86276E-2,9.32922E-2
-3.51066E-2,9.66873E-2
-3.04565E-2,9.95025E-2
-2.60963E-2,1.01955E-1
-2.09236E-2,1.03927E-1
-1.54800E-2,1.04568E-1
-1.06010E-2,1.03851E-1
-7.54547E-3,1.02455E-1
-4.89044E-3,1.02333E-1
-1.92642E-3,1.02027E-1
0.10070E-2,1.00654E-1
0.31280E-2,9.91478E-2
0.47721E-2,9.74464E-2
0.54626E-2,9.59205E-2
0.58708E-2,9.50813E-2
0.64773E-2,9.47647E-2
0.70648E-2,9.39636E-2
0.73776E-2,9.33303E-2
0.69198E-2,9.30328E-2
0.66413E-2,9.41963E-2
0.76637E-2,9.53559E-2
0.85830E-2,9.58099E-2
0.93116E-2,9.64813E-2
0.95787E-2,9.78393E-2
1.10168E-2,1.00204E-1
1.32446E-2,1.01711E-1
1.52816E-2,1.03206E-1
1.78985E-2,1.04450E-1
2.06604E-2,1.04827E-1
2.14996E-2,1.05514E-1
2.31628E-2,1.07360E-1
2.52761E-2,1.0952E-1
2.80914E-2,1.12121E-1
3.19213E-2,1.14265E-1
3.60336E-2,1.15181E-1
3.94134E-2,1.15501E-1
4.24499E-2,1.16149E-1
4.56085E-2,1.17050E-1
4.93621E-2,1.18072E-1
5.35278E-2,1.18362E-1
5.74035E-2,1.18164E-1
6.20651E-2,1.18438E-1
6.76193E-2,1.17744E-1
7.32955E-2,1.14997E-1
7.77816E-2,1.11259E-1
8.19091E-2,1.07116E-1
8.54415E-2,1.02310E-1
8.73260E-2,9.70306E-2
8.82186E-2,9.23233E-2
8.83560E-2,8.86306E-2
9.01184E-2,8.47244E-2
9.01718E-2,8.12759E-2
9.08355E-2,7.67669E-2
9.00878E-2,7.35321E-2
9.03320E-2,7.03430E-2
9.04083E-2,6.69860E-2
9.00421E-2,6.31713E-2
8.82492E-2,5.98068E-2
8.60290E-2,5.75561E-2
8.3992E-2,5.58319E-2
8.27255E-2,5.45120E-2
8.03680E-2,5.31005E-2
7.83920E-2,5.27267E-2
7.67440E-2,5.21392E-2
7.44171E-2,5.18112E-2
7.14263E-2,5.18302E-2
6.85386E-2,5.30242E-2
6.58149E-2,5.56678E-2
6.47621E-2,5.90057E-2
6.53381E-2,6.17675E-2
6.57959E-2,6.34841E-2
6.62384E-2,6.48574E-2
6.68411E-2,6.61468E-2
6.67877E-2,6.64062E-2
6.55212E-2,6.79931E-2
6.52923E-2,7.13195E-2
6.64825E-2,7.46917E-2
6.97174E-2,7.82165E-2
7.38449E-2,7.95288E-2
7.70111E-2,7.94906E-2
7.93533E-2,8.09097E-2
8.35876E-2,8.21685E-2
8.84780E-2,8.22830E-2
9.33303E-2,8.18939E-2
9.89151E-2,8.04824E-2
1.03736E-1,7.79800E-2
1.08017E-1,7.53402E-2
1.12297E-1,7.28607E-2
1.16661E-1,6.96716E-2
1.21139E-1,6.54449E-2
1.23809E-1,6.13098E-2
1.26831E-1,0.58319E-1
1.30310E-1,0.54184E-1
1.33667E-1,0.49438E-1
1.36535E-1,0.43609E-1
1.37916E-1,0.38208E-1
1.38389E-1,0.32096E-1
1.38961E-1,0.26489E-1
1.39282E-1,0.20957E-1
1.39030E-1,0.14701E-1
1.37924E-1,0.08277E-1
1.35955E-1,0.02929E-1
1.32598E-1,-3.78418E-3
1.30935E-1,-9.36889E-3
1.28295E-1,-1.53045E-2
1.24641E-1,-2.12249E-2
1.20834E-1,-2.62298E-2
1.16981E-1,-3.11965E-2
1.12800E-1,-3.58657E-2
1.08669E-1,-4.00238E-2
1.03923E-1,-4.48112E-2
9.79309E-2,-4.98504E-2
9.15527E-2,-5.33103E-2
8.56170E-2,-5.61370E-2
7.84645E-2,-5.92384E-2
7.06634E-2,-6.02378E-2
6.44989E-2,-6.07147E-2
5.83858E-2,-6.08882E-2
5.23033E-2,-6.08863E-2
4.50649E-2,-6.09855E-2
3.78665E-2,-5.91907E-2
3.12099E-2,-5.7127E-2
2.44522E-2,-5.44071E-2
1.79328E-2,-5.07202E-2
1.26457E-2,-4.62112E-2
0.78907E-2,-4.20284E-2
0.29640E-2,-3.73706E-2
-6.38961E-4,-3.17859E-2
-3.01170E-3,-2.73504E-2
-5.64193E-3,-2.36873E-2
-8.88633E-3,-2.01559E-2
-1.23062E-2,-1.57642E-2
-1.50423E-2,-1.08146E-2
-1.68151E-2,-5.92422E-3
-1.83372E-2,-1.14631E-3
-1.88341E-2,0.35419E-2
-1.90200E-2,0.73051E-2
-1.93290E-2,1.09167E-2
-1.91841E-2,1.40323E-2
-1.91421E-2,1.68609E-2
-1.97067E-2,1.94625E-2
-2.06432E-2,2.27222E-2
-2.10113E-2,2.67543E-2
-2.01816E-2,3.12557E-2
-1.78222E-2,3.41930E-2
-1.67942E-2,3.53527E-2
-1.69601E-2,3.79447E-2
-1.68743E-2,4.06360E-2
-1.69544E-2,4.43153E-2
-1.55448E-2,4.84218E-2
-1.34525E-2,5.12657E-2
-1.22928E-2,5.30700E-2
-1.23119E-2,5.54065E-2
-1.16939E-2,5.93032E-2
-1.00212E-2,6.27479E-2
-8.09097E-3,6.58226E-2
-6.01196E-3,6.80809E-2
-4.41741E-3,6.98738E-2
-3.67355E-3,7.20748E-2
-2.47192E-3,7.48825E-2
-8.81195E-4,7.74459E-2
0.14457E-2,8.04443E-2
0.52948E-2,8.26568E-2
0.89416E-2,8.25424E-2
1.06124E-2,8.17642E-2
1.15890E-2,8.24127E-2
1.38168E-2,8.28247E-2
1.57394E-2,8.25500E-2
1.72576E-2,8.20694E-2
1.86386E-2,8.15353E-2
1.93328E-2,8.08868E-2
1.99279E-2,8.07266E-2
2.07443E-2,8.07991E-2
2.13699E-2,7.97958E-2
2.03323E-2,7.94181E-2
1.95083E-2,8.07685E-2
1.90773E-2,8.23097E-2
1.95045E-2,8.52127E-2
2.15377E-2,8.72421E-2
2.29034E-2,8.82568E-2
2.33230E-2,8.93554E-2
2.40325E-2,9.12933E-2
2.57263E-2,9.34295E-2
2.69470E-2,9.49935E-2
2.82745E-2,9.70153E-2
2.99072E-2,9.87243E-2
3.12194E-2,1.00036E-1
3.24401E-2,1.01638E-1
3.35845E-2,1.03866E-1
3.58581E-2,1.06437E-1
3.90243E-2,1.08039E-1
4.15954E-2,1.08261E-1
4.31366E-2,1.08169E-1
4.49600E-2,1.09184E-1
4.71878E-2,1.09748E-1
4.88433E-2,1.09802E-1
5.02548E-2,1.10168E-1
5.20095E-2,1.10923E-1
5.44738E-2,1.11831E-1
5.67627E-2,1.11908E-1
5.95245E-2,1.11434E-1
6.13555E-2,1.10900E-1
6.34765E-2,1.11373E-1
6.58416E-2,1.11038E-1
6.72149E-2,1.11068E-1
6.96334E-2,1.11991E-1
7.31353E-2,1.12731E-1
7.63168E-2,1.12251E-1
7.90176E-2,1.11679E-1
8.22906E-2,1.11694E-1
8.52279E-2,1.11518E-1
8.88519E-2,1.10572E-1
9.19036E-2,1.09069E-1
9.36431E-2,1.07543E-1
9.51080E-2,1.07116E-1
9.82055E-2,1.07955E-1
1.01898E-1,1.06216E-1
1.04019E-1,1.04400E-1
1.06353E-1,1.03668E-1
1.09512E-1,1.02462E-1
1.12808E-1,9.96093E-2
1.14349E-1,9.59930E-2
1.14456E-1,9.33837E-2
1.15325E-1,9.16214E-2
1.16310E-1,9.00116E-2
1.17698E-1,8.76464E-2
1.19110E-1,8.51059E-2
1.20285E-1,8.20236E-2
1.20552E-1,7.90939E-2
1.20605E-1,7.66601E-2
1.20567E-1,7.39135E-2
1.20842E-1,7.20596E-2
1.21505E-1,6.97403E-2
1.21589E-1,6.67648E-2
1.21620E-1,6.35452E-2
1.19628E-1,6.01501E-2
1.16790E-1,5.84869E-2
1.15890E-1,5.89447E-2
1.16394E-1,5.86090E-2
1.16752E-1,5.70983E-2
1.15768E-1,5.54275E-2
1.14402E-1,5.46417E-2
1.13990E-1,5.56716E-2
1.14997E-1,5.44891E-2
1.14547E-1,5.29251E-2
1.13784E-1,5.12161E-2
1.12777E-1,5.05523E-2
1.11030E-1,4.95452E-2
1.08985E-1,4.91485E-2
1.07597E-1,4.92248E-2
1.05796E-1,4.90951E-2
1.03706E-1,5.00640E-2
1.01722E-1,5.07125E-2
9.99832E-2,5.11322E-2
9.87091E-2,5.24749E-2
9.69238E-2,5.25970E-2
9.53064E-2,5.44128E-2
9.38644E-2,5.65795E-2
9.29260E-2,5.90667E-2
9.21783E-2,6.14929E-2
9.23919E-2,6.41784E-2
9.29107E-2,6.77490E-2
9.53979E-2,7.05719E-2
9.85565E-2,7.17163E-2
1.01394E-1,7.20672E-2
1.03698E-1,7.20672E-2
1.05621E-1,7.07778E-2
1.05949E-1,7.04498E-2
1.06216E-1,7.15866E-2
1.07948E-1,7.31735E-2
1.10633E-1,7.39288E-2
1.12876E-1,7.42492E-2
1.15318E-1,7.47451E-2
1.18881E-1,7.46994E-2
1.21871E-1,7.39059E-2
1.24755E-1,7.13195E-2
1.25122E-1,0.69030E-1
1.25091E-1,0.68878E-1
1.26617E-1,0.68405E-1
1.29165E-1,0.67901E-1
1.30203E-1,0.66482E-1
1.31988E-1,0.65612E-1
1.34048E-1,0.63186E-1
1.35421E-1,0.60363E-1
1.35826E-1,0.57647E-1
1.34796E-1,0.55694E-1
1.34925E-1,0.54306E-1
1.35543E-1,0.53108E-1
1.36177E-1,0.50163E-1
1.35078E-1,0.47729E-1
1.34750E-1,0.46310E-1
1.35215E-1,0.43663E-1
1.34109E-1,0.41275E-1
1.33682E-1,0.37620E-1
1.30348E-1,0.34767E-1
1.27006E-1,0.32394E-1
1.23626E-1,3.17153E-2
1.20651E-1,3.14178E-2
1.18263E-1,3.07464E-2
1.14646E-1,3.04489E-2
1.11259E-1,3.15322E-2
1.08039E-1,3.31649E-2
1.05903E-1,3.52554E-2
1.03408E-1,3.65676E-2
1.01173E-1,3.89251E-2
9.94949E-2,4.15039E-2
9.81597E-2,4.38995E-2
9.66262E-2,4.62417E-2
9.51614E-2,4.86908E-2
9.42535E-2,5.16204E-2
9.30099E-2,5.45959E-2
9.20028E-2,5.73501E-2
9.14154E-2,6.07605E-2
9.09957E-2,6.37512E-2
9.01107E-2,6.72531E-2
9.00192E-2,7.19375E-2
9.08966E-2,7.58132E-2
9.26742E-2,8.01315E-2
9.50927E-2,8.34121E-2
9.73587E-2,8.62579E-2
9.94567E-2,8.94241E-2
1.02127E-1,9.18197E-2
1.04347E-1,9.43679E-2
1.06674E-1,9.78851E-2
1.09893E-1,1.00662E-1
1.14242E-1,1.03698E-1
1.19033E-1,1.05560E-1
1.23046E-1,1.06376E-1
1.26480E-1,1.07513E-1
1.30325E-1,1.09001E-1
1.34262E-1,1.10206E-1
1.39267E-1,1.11801E-1
1.44744E-1,1.12472E-1
1.49261E-1,1.12365E-1
1.54617E-1,1.12304E-1
1.59133E-1,1.11496E-1
1.63818E-1,1.10076E-1
1.68167E-1,1.08367E-1
1.71508E-1,1.06750E-1
1.75216E-1,1.06597E-1
1.79916E-1,1.05758E-1
1.85012E-1,1.04370E-1
1.89819E-1,1.02035E-1
1.94335E-1,0.98938E-1
1.98898E-1,0.95871E-1
2.02880E-1,0.92453E-1
2.06085E-1,0.88546E-1
2.08663E-1,0.85113E-1
2.12783E-1,0.82321E-1
2.16445E-1,0.77362E-1
2.1875E-1,0.72753E-1
2.21023E-1,0.68435E-1
2.23312E-1,0.63903E-1
2.24731E-1,0.59310E-1
2.26455E-1,0.55679E-1
2.28698E-1,0.51666E-1
2.31460E-1,0.46814E-1
2.33169E-1,0.41900E-1
2.34054E-1,0.36285E-1
2.33398E-1,0.30227E-1
2.32833E-1,0.26184E-1
2.32864E-1,0.22140E-1
2.34207E-1,0.18478E-1
2.3423E-1,0.13389E-1
2.34405E-1,0.08621E-1
2.33917E-1,0.02906E-1
2.32139E-1,-2.12860E-3
2.31277E-1,-6.39343E-3
2.29476E-1,-1.19781E-2
2.27005E-1,-1.69830E-2
2.23991E-1,-1.99127E-2
2.21962E-1,-2.35519E-2
2.19169E-1,-2.74810E-2
2.16178E-1,-3.16848E-2
2.12219E-1,-3.45764E-2
2.07946E-1,-3.58581E-2
2.06466E-1,-3.73764E-2
2.04620E-1,-3.92837E-2
2.02133E-1,-4.21905E-2
1.99630E-1,-4.48989E-2
1.95922E-1,-4.64782E-2
1.93611E-1,-4.82864E-2
1.90162E-1,-5.02395E-2
1.86233E-1,-5.18951E-2
1.83029E-1,-5.21240E-2
1.79901E-1,-5.31158E-2
1.75842E-1,-5.34744E-2
1.72752E-1,-5.27496E-2
1.69685E-1,-5.19485E-2
1.67556E-1,-5.12847E-2
1.65672E-1,-5.07278E-2
1.63673E-1,-5.07507E-2
1.62132E-1,-5.07659E-2
1.59812E-1,-5.16357E-2
1.57096E-1,-5.22460E-2
1.52732E-1,-5.21469E-2
1.48979E-1,-5.10711E-2
1.45546E-1,-4.91256E-2
1.43783E-1,-4.66690E-2
1.40998E-1,-4.54330E-2
1.38900E-1,-4.26178E-2
1.37840E-1,-3.95736E-2
1.37268E-1,-3.71627E-2
1.37123E-1,-3.53775E-2
1.36535E-1,-3.43933E-2
1.34330E-1,-3.22189E-2
1.33667E-1,-2.88848E-2
1.34208E-1,-2.52227E-2
1.36901E-1,-2.34298E-2
1.38626E-1,-2.28500E-2
1.39091E-1,-2.28118E-2
1.38793E-1,-2.19574E-2
1.38649E-1,-1.90811E-2
1.40884E-1,-1.75247E-2
1.42387E-1,-1.69372E-2
1.43783E-1,-1.67465E-2
1.44065E-1,-1.63497E-2
1.44104E-1,-1.57623E-2
1.44500E-1,-1.43356E-2
1.45607E-1,-1.36718E-2
1.45736E-1,-1.23443E-2
1.47148E-1,-1.13601E-2
1.48109E-1,-1.12991E-2
1.48353E-1,-1.04293E-2
1.49467E-1,-9.55200E-3
1.50100E-1,-8.85772E-3
1.51237E-1,-8.04901E-3
1.52786E-1,-7.52258E-3
1.53694E-1,-8.20922E-3
1.53923E-1,-8.81958E-3
1.53366E-1,-8.11004E-3
1.53549E-1,-7.08007E-3
1.54365E-1,-6.08062E-3
1.55319E-1,-6.05011E-3
1.55944E-1,-5.66101E-3
1.56333E-1,-3.93676E-3
1.56692E-1,-2.67028E-3
1.58203E-1,-1.12915E-3
1.60621E-1,-1.52587E-5
1.62948E-1,0.00381E-1
1.64604E-1,0.00320E-1
1.64703E-1,0.01861E-1
1.67060E-1,0.02922E-1
1.69738E-1,0.04531E-1
1.72088E-1,0.05683E-1
1.75415E-1,0.06050E-1
1.76948E-1,0.06385E-1
1.79771E-1,0.07377E-1
1.82548E-1,0.07980E-1
1.84806E-1,0.08338E-1
1.87477E-1,0.08590E-1
1.90414E-1,0.09201E-1
1.93328E-1,0.09094E-1
1.95915E-1,0.09437E-1
1.99005E-1,0.09460E-1
2.03002E-1,0.10131E-1
2.06947E-1,0.09201E-1
2.11265E-1,0.08102E-1
2.14798E-1,0.06073E-1
2.18269E-1,0.04684E-1
2.22122E-1,0.02616E-1
2.25715E-1,-2.89917E-4
2.28958E-1,-2.66265E-3
2.31765E-1,-5.63049E-3
2.34390E-1,-8.68225E-3
2.37411E-1,-1.11694E-2
2.40463E-1,-1.40838E-2
2.43064E-1,-1.66015E-2
2.47024E-1,-2.01492E-2
2.50793E-1,-2.34375E-2
2.54562E-1,-2.86407E-2
2.56958E-1,-3.39813E-2
2.59094E-1,-3.93829E-2
2.59933E-1,-4.46014E-2
2.61795E-1,-4.84771E-2
2.63244E-1,-5.35278E-2
2.64633E-1,-5.86547E-2
2.64755E-1,-6.30798E-2
2.65655E-1,-6.81915E-2
2.66922E-1,-7.31964E-2
2.66616E-1,-7.85980E-2
2.67242E-1,-8.43658E-2
2.65716E-1,-9.00878E-2
2.63977E-1,-9.54895E-2
2.61444E-1,-1.00936E-1
2.59109E-1,-1.05178E-1
2.56866E-1,-1.09573E-1
2.54821E-1,-1.14929E-1
2.51068E-1,-1.19506E-1
2.47871E-1,-1.24664E-1
2.44087E-1,-1.27838E-1
2.41043E-1,-1.31492E-1
2.37114E-1,-1.34872E-1
2.33299E-1,-1.38847E-1
2.28401E-1,-1.41296E-1
2.24586E-1,-1.42761E-1
2.20916E-1,-1.45103E-1
2.17765E-1,-1.46431E-1
2.15484E-1,-1.47766E-1
2.11776E-1,-1.49826E-1
2.08480E-1,-1.51268E-1
2.05665E-1,-1.52229E-1
2.02705E-1,-1.53442E-1
1.99943E-1,-1.53739E-1
1.96945E-1,-1.53999E-1
1.95213E-1,-1.53938E-1
1.931E-1,-1.53816E-1
1.91658E-1,-1.54258E-1
1.90055E-1,-1.54663E-1
1.88049E-1,-1.55448E-1
1.86592E-1,-1.55632E-1
1.84280E-1,-1.55998E-1
1.83128E-1,-1.55807E-1
1.81510E-1,-1.57173E-1
1.78848E-1,-1.58226E-1
1.74736E-1,-1.58081E-1
1.72348E-1,-1.56440E-1
1.71104E-1,-1.54731E-1
1.71241E-1,-1.54495E-1
1.71081E-1,-1.54541E-1
1.70471E-1,-1.55159E-1
1.69624E-1,-1.55212E-1
1.68800E-1,-1.56204E-1
1.68495E-1,-1.57928E-1
1.67511E-1,-1.59965E-1
1.64611E-1,-1.62399E-1
1.62307E-1,-1.63589E-1
1.59233E-1,-1.63200E-1
1.57989E-1,-1.63627E-1
1.56791E-1,-1.64047E-1
1.55738E-1,-1.64138E-1
1.55075E-1,-1.65199E-1
1.53640E-1,-1.66008E-1
1.51840E-1,-1.65634E-1
1.51718E-1,-1.66084E-1
1.51710E-1,-1.67236E-1
1.50550E-1,-1.68541E-1
1.49368E-1,-1.69601E-1
1.48201E-1,-1.70074E-1
1.47735E-1,-1.70982E-1
1.46492E-1,-1.72401E-1
1.44386E-1,-1.73454E-1
1.42326E-1,-1.73751E-1
1.41113E-1,-1.73782E-1
1.39160E-1,-1.74308E-1
1.37100E-1,-1.74247E-1
1.35963E-1,-1.73843E-1
1.35093E-1,-1.74408E-1
1.33796E-1,-1.75003E-1
1.32019E-1,-1.75682E-1
1.28868E-1,-1.76315E-1
1.26838E-1,-1.76116E-1
1.25236E-1,-1.76002E-1
1.23634E-1,-1.76628E-1
1.21048E-1,-1.76994E-1
1.18087E-1,-1.76445E-1
1.16630E-1,-1.75819E-1
1.14601E-1,-1.74942E-1
1.13098E-1,-1.74476E-1
1.12083E-1,-1.74057E-1
1.10008E-1,-1.74163E-1
1.08924E-1,-1.73362E-1
1.08024E-1,-1.72737E-1
1.06712E-1,-1.72508E-1
1.05133E-1,-1.72401E-1
1.03355E-1,-1.72607E-1
1.01280E-1,-1.71150E-1
0.99807E-1,-1.69601E-1
0.98419E-1,-1.67213E-1
0.99021E-1,-1.65062E-1
0.99319E-1,-1.64375E-1
0.98938E-1,-1.63093E-1
0.98465E-1,-1.61552E-1
0.98999E-1,-1.59248E-1
1.00059E-1,-1.57768E-1
1.0112E-1,-1.56898E-1
1.01478E-1,-1.56166E-1
1.02050E-1,-1.54609E-1
1.02600E-1,-1.53579E-1
1.03813E-1,-1.52153E-1
1.05583E-1,-1.51481E-1
1.06910E-1,-1.51763E-1
1.07681E-1,-1.51229E-1
1.09268E-1,-1.50787E-1
1.10191E-1,-1.52351E-1
1.10771E-1,-1.53686E-1
1.10885E-1,-1.54525E-1
1.10443E-1,-1.54861E-1
1.10565E-1,-1.55586E-1
1.10183E-1,-1.56570E-1
1.1026E-1,-1.57127E-1
1.10038E-1,-1.56967E-1
1.09924E-1,-1.57257E-1
1.11007E-1,-1.57753E-1
1.12182E-1,-1.58813E-1
1.10832E-1,-1.60026E-1
1.11755E-1,-1.61476E-1
1.11900E-1,-1.64169E-1
1.12548E-1,-1.65916E-1
1.12648E-1,-1.67678E-1
1.13029E-1,-1.69708E-1
1.13212E-1,-1.71470E-1
1.12411E-1,-1.74720E-1
1.11427E-1,-1.78100E-1
1.10351E-1,-1.79603E-1
1.09466E-1,-1.82022E-1
1.08558E-1,-1.84005E-1
1.06781E-1,-1.86042E-1
1.05270E-1,-1.87995E-1
1.03874E-1,-1.89353E-1
1.02188E-1,-1.90216E-1
1.00296E-1,-1.91558E-1
0.98968E-1,-1.93229E-1
0.97724E-1,-1.94847E-1
0.95832E-1,-1.96472E-1
0.93383E-1,-1.97822E-1
0.91751E-1,-1.98494E-1
0.89813E-1,-1.98974E-1
0.88485E-1,-2.00798E-1
0.85762E-1,-2.02163E-1
0.83175E-1,-2.02911E-1
0.80650E-1,-2.02590E-1
0.77987E-1,-2.02842E-1
