CITIFILE A.01.00
#NA VERSION HP8720D.06.14
NAME DATA
VAR FREQ MAG 1601
DATA S[1,1] RI

SEG_LIST_BEGIN
SEG 1000000000 8000000000 1601
SEG_LIST_END
BEGIN
3.56323E-1,-4.39575E-1
3.35357E-1,-4.54559E-1
3.11172E-1,-4.67971E-1
2.86209E-1,-4.79187E-1
2.63488E-1,-4.87915E-1
2.39166E-1,-4.97345E-1
2.11639E-1,-5.03784E-1
1.87866E-1,-5.07141E-1
1.63604E-1,-5.09796E-1
1.40686E-1,-5.09338E-1
1.17553E-1,-5.12054E-1
0.94574E-1,-5.11962E-1
0.70678E-1,-5.10040E-1
0.49682E-1,-5.06286E-1
0.27526E-1,-5.03387E-1
0.04730E-1,-4.98275E-1
-1.55944E-2,-4.90081E-1
-3.45153E-2,-4.79126E-1
-4.95910E-2,-4.69329E-1
-6.29272E-2,-4.61944E-1
-7.54394E-2,-4.54772E-1
-8.88061E-2,-4.52392E-1
-1.07788E-1,-4.48608E-1
-1.28112E-1,-4.39941E-1
-1.44866E-1,-4.28222E-1
-1.58599E-1,-4.17511E-1
-1.71936E-1,-4.09881E-1
-1.89025E-1,-4.01001E-1
-2.06237E-1,-3.90014E-1
-2.23785E-1,-3.76861E-1
-2.39288E-1,-3.59497E-1
-2.51068E-1,-3.41491E-1
-2.62176E-1,-3.25347E-1
-2.73040E-1,-3.06274E-1
-2.77771E-1,-2.85553E-1
-2.79205E-1,-2.69104E-1
-2.80700E-1,-2.55004E-1
-2.82959E-1,-2.41210E-1
-2.84210E-1,-2.28027E-1
-2.82821E-1,-2.10998E-1
-2.79846E-1,-2.03628E-1
-2.79876E-1,-1.99249E-1
-2.83599E-1,-1.93649E-1
-2.87246E-1,-1.87728E-1
-2.91656E-1,-1.81945E-1
-2.98675E-1,-1.75918E-1
-3.06060E-1,-1.67694E-1
-3.12545E-1,-1.55792E-1
-3.17901E-1,-1.45126E-1
-3.22876E-1,-1.34201E-1
-3.29025E-1,-1.21505E-1
-3.32962E-1,-1.07162E-1
-3.33877E-1,-9.20715E-2
-3.33190E-1,-7.86743E-2
-3.32778E-1,-6.69860E-2
-3.31497E-1,-5.76019E-2
-3.31649E-1,-4.70123E-2
-3.31543E-1,-3.79638E-2
-3.33648E-1,-2.81829E-2
-3.36410E-1,-1.82342E-2
-3.36975E-1,-4.86755E-3
-3.36135E-1,0.06835E-1
-3.36822E-1,0.17837E-1
-3.37539E-1,0.31082E-1
-3.33786E-1,0.45059E-1
-3.29162E-1,0.55587E-1
-3.25546E-1,0.64804E-1
-3.23715E-1,0.74127E-1
-3.21395E-1,0.85403E-1
-3.16223E-1,0.95611E-1
-3.10531E-1,1.03546E-1
-3.08029E-1,1.08932E-1
-3.07830E-1,1.16958E-1
-3.06671E-1,1.28021E-1
-3.04809E-1,1.39251E-1
-3.01040E-1,1.50833E-1
-2.95379E-1,1.62872E-1
-2.89611E-1,1.75018E-1
-2.80685E-1,1.86187E-1
-2.71514E-1,1.96228E-1
-2.60559E-1,2.03094E-1
-2.51785E-1,2.08618E-1
-2.44354E-1,2.12829E-1
-2.38235E-1,2.16896E-1
-2.33909E-1,2.21328E-1
-2.28630E-1,2.28065E-1
-2.23365E-1,2.33703E-1
-2.17933E-1,2.40837E-1
-2.12295E-1,2.47894E-1
-2.05871E-1,2.54486E-1
-1.99447E-1,2.61047E-1
-1.92733E-1,2.67669E-1
-1.85562E-1,2.7388E-1
-1.77291E-1,2.80319E-1
-1.68472E-1,2.84912E-1
-1.60842E-1,2.88696E-1
-1.54083E-1,2.93212E-1
-1.46011E-1,2.97958E-1
-1.38519E-1,3.01132E-1
-1.32720E-1,3.04840E-1
-1.26998E-1,3.10440E-1
-1.19064E-1,3.16589E-1
-1.09664E-1,3.22601E-1
-9.96856E-2,3.27133E-1
-8.97369E-2,3.29879E-1
-8.11462E-2,3.32366E-1
-7.31201E-2,3.34320E-1
-6.47430E-2,3.37997E-1
-5.73577E-2,3.42224E-1
-4.83245E-2,3.46160E-1
-3.75061E-2,3.51059E-1
-2.63977E-2,3.54415E-1
-1.40533E-2,3.55941E-1
-3.60107E-3,3.57040E-1
0.06134E-1,3.57589E-1
0.15167E-1,3.60382E-1
0.25299E-1,3.63052E-1
0.37796E-1,3.66226E-1
0.51086E-1,3.67569E-1
0.63522E-1,3.67446E-1
0.75653E-1,3.68698E-1
0.90103E-1,3.69232E-1
1.06597E-1,3.67538E-1
1.21841E-1,3.63861E-1
1.35574E-1,3.58505E-1
1.49749E-1,3.53820E-1
1.63421E-1,3.47076E-1
1.76452E-1,3.38836E-1
1.87042E-1,3.30352E-1
1.97845E-1,3.23120E-1
2.08496E-1,3.14544E-1
2.19421E-1,3.07922E-1
2.31292E-1,2.99438E-1
2.41333E-1,2.89215E-1
2.51495E-1,2.80090E-1
2.60498E-1,2.70263E-1
2.71728E-1,2.59063E-1
2.81158E-1,2.44964E-1
2.88696E-1,2.31323E-1
2.94921E-1,2.17773E-1
3.01239E-1,2.05535E-1
3.07006E-1,1.91772E-1
3.13079E-1,1.76574E-1
3.17184E-1,1.63009E-1
3.20434E-1,1.48819E-1
3.23791E-1,1.33743E-1
3.26660E-1,1.16424E-1
3.25531E-1,0.99029E-1
3.21914E-1,0.83099E-1
3.17672E-1,0.70846E-1
3.14819E-1,0.58212E-1
3.10455E-1,0.45929E-1
3.06243E-1,0.34729E-1
3.03039E-1,0.24536E-1
2.99560E-1,0.12878E-1
2.9422E-1,0.01236E-1
2.89184E-1,-9.38415E-3
2.84729E-1,-2.00958E-2
2.77587E-1,-3.14941E-2
2.69851E-1,-4.12139E-2
2.60864E-1,-5.09643E-2
2.52319E-1,-5.83648E-2
2.43255E-1,-6.58416E-2
2.32582E-1,-7.29370E-2
2.21786E-1,-7.69882E-2
2.12219E-1,-7.99331E-2
2.03590E-1,-8.14285E-2
1.96044E-1,-8.26110E-2
1.89468E-1,-8.47930E-2
1.82708E-1,-8.67462E-2
1.74057E-1,-8.88214E-2
1.66503E-1,-8.74862E-2
1.61285E-1,-8.55178E-2
1.60003E-1,-8.37707E-2
1.58912E-1,-8.62426E-2
1.56059E-1,-9.12780E-2
1.49612E-1,-9.52224E-2
1.43608E-1,-9.68933E-2
1.39671E-1,-9.8526E-2
1.34193E-1,-1.01326E-1
1.28669E-1,-1.02394E-1
1.23874E-1,-1.03523E-1
1.19659E-1,-1.04446E-1
1.15432E-1,-1.05835E-1
1.10420E-1,-1.07158E-1
1.06273E-1,-1.07223E-1
1.03458E-1,-1.08039E-1
1.00853E-1,-1.10130E-1
9.68399E-2,-1.12922E-1
9.28955E-2,-1.14822E-1
8.82720E-2,-1.19079E-1
8.11309E-2,-1.22001E-1
7.40509E-2,-1.23912E-1
0.67153E-1,-1.25465E-1
0.59669E-1,-1.25953E-1
0.52452E-1,-1.26052E-1
0.44845E-1,-1.25526E-1
3.70216E-2,-1.23352E-1
3.08189E-2,-1.21177E-1
2.50549E-2,-1.19205E-1
1.91612E-2,-1.17744E-1
1.24549E-2,-1.15413E-1
0.52146E-2,-1.13712E-1
-2.03323E-3,-1.10355E-1
-8.43811E-3,-1.06674E-1
-1.47857E-2,-1.02466E-1
-1.98211E-2,-9.76944E-2
-2.48909E-2,-9.32731E-2
-2.92358E-2,-8.78982E-2
-3.27758E-2,-8.27522E-2
-3.52020E-2,-7.78236E-2
-3.76853E-2,-7.41653E-2
-4.06456E-2,-7.02095E-2
-4.3396E-2,-6.57539E-2
-4.53872E-2,-6.13250E-2
-4.70542E-2,-5.77011E-2
-4.95834E-2,-5.36460E-2
-5.09681E-2,-4.90036E-2
-5.22155E-2,-4.54216E-2
-5.36918E-2,-4.21142E-2
-5.62057E-2,-3.90739E-2
-5.95397E-2,-3.45878E-2
-6.24122E-2,-2.87208E-2
-6.33163E-2,-2.17590E-2
-6.22482E-2,-1.58462E-2
-6.13594E-2,-1.18331E-2
-6.16569E-2,-8.46481E-3
-6.27136E-2,-4.15802E-3
-6.31828E-2,0.10414E-2
-6.24408E-2,0.56076E-2
-6.23283E-2,0.91152E-2
-6.33392E-2,1.34887E-2
-6.35414E-2,1.92642E-2
-6.19144E-2,2.50282E-2
-5.88779E-2,2.95143E-2
-5.63068E-2,3.25374E-2
-5.39054E-2,3.47309E-2
-5.27515E-2,3.66687E-2
-5.15708E-2,3.91616E-2
-5.01136E-2,4.13112E-2
-4.90799E-2,4.35428E-2
-4.77008E-2,4.58450E-2
-4.60529E-2,4.79106E-2
-4.49371E-2,4.96063E-2
-4.37698E-2,5.15289E-2
-4.29515E-2,5.32684E-2
-4.23164E-2,5.58567E-2
-4.12063E-2,5.89027E-2
-3.93753E-2,6.17790E-2
-3.75518E-2,6.47049E-2
-3.50265E-2,6.70967E-2
-3.26499E-2,6.95648E-2
-2.98461E-2,7.10220E-2
-2.83355E-2,7.28263E-2
-2.62680E-2,7.55004E-2
-2.2995E-2,7.74345E-2
-2.04353E-2,7.90596E-2
-1.73530E-2,8.03031E-2
-1.43013E-2,8.08868E-2
-1.13105E-2,8.06388E-2
-9.63974E-3,7.93457E-2
-8.97979E-3,7.91893E-2
-7.98797E-3,7.90939E-2
-7.15637E-3,7.82775E-2
-7.02667E-3,7.76557E-2
-7.40814E-3,7.71331E-2
-8.73184E-3,7.73010E-2
-9.65881E-3,7.85331E-2
-9.62829E-3,8.00399E-2
-9.31549E-3,8.07724E-2
-9.45282E-3,8.11386E-2
-1.06658E-2,8.20312E-2
-1.15127E-2,8.45947E-2
-1.10588E-2,8.69827E-2
-1.01814E-2,8.88862E-2
-9.87243E-3,9.03854E-2
-1.03225E-2,9.28344E-2
-9.70077E-3,9.67445E-2
-7.54547E-3,1.00040E-1
-5.39016E-3,1.02909E-1
-3.18527E-3,1.05651E-1
-6.75201E-4,1.07906E-1
0.07057E-2,1.10408E-1
0.28114E-2,1.13956E-1
0.52375E-2,1.17450E-1
0.84304E-2,1.21620E-1
0.12764E-1,1.25457E-1
0.17921E-1,1.27868E-1
0.22056E-1,1.29737E-1
0.25985E-1,1.31912E-1
0.29953E-1,1.34384E-1
0.34896E-1,1.37252E-1
0.40786E-1,1.39373E-1
0.46798E-1,1.40686E-1
0.53794E-1,1.42196E-1
0.61592E-1,1.42005E-1
0.69435E-1,1.3974E-1
0.76522E-1,1.36413E-1
0.83190E-1,1.32110E-1
0.88501E-1,1.26960E-1
9.28039E-2,1.21612E-1
9.64889E-2,1.15966E-1
9.81750E-2,1.11213E-1
1.00723E-1,1.06163E-1
1.02920E-1,1.01669E-1
1.04034E-1,9.63134E-2
1.05178E-1,9.17816E-2
1.06582E-1,8.79974E-2
1.07742E-1,8.30993E-2
1.08482E-1,7.82547E-2
1.07635E-1,7.41424E-2
1.06323E-1,7.06024E-2
1.05674E-1,6.78100E-2
1.04881E-1,6.54144E-2
1.04042E-1,6.3797E-2
1.04110E-1,6.19659E-2
1.03904E-1,5.93109E-2
1.02973E-1,5.70373E-2
1.01318E-1,5.47485E-2
9.96627E-2,5.40084E-2
9.80300E-2,5.32608E-2
9.73358E-2,5.35430E-2
9.73815E-2,5.30700E-2
9.74960E-2,5.20477E-2
9.70382E-2,5.09872E-2
9.71374E-2,4.94842E-2
9.59625E-2,4.68139E-2
9.40094E-2,4.58984E-2
9.24377E-2,4.64935E-2
9.21936E-2,4.70733E-2
9.34982E-2,4.78973E-2
9.53674E-2,4.63485E-2
9.58633E-2,4.42276E-2
9.56039E-2,4.33273E-2
9.63287E-2,4.23889E-2
9.76562E-2,4.11987E-2
9.91287E-2,4.02679E-2
1.01387E-1,3.78341E-2
1.02920E-1,3.48968E-2
1.03225E-1,3.10211E-2
1.03378E-1,2.84118E-2
1.03378E-1,2.59246E-2
1.03576E-1,2.27661E-2
1.02943E-1,2.01416E-2
1.02340E-1,1.85012E-2
1.02161E-1,1.63230E-2
1.02104E-1,1.40304E-2
1.02802E-1,1.06658E-2
1.01421E-1,0.66528E-2
9.86862E-2,0.34523E-2
9.59739E-2,0.13771E-2
9.40856E-2,0.00152E-2
9.19189E-2,-2.30407E-3
8.97293E-2,-4.70733E-3
8.62884E-2,-6.32476E-3
8.28247E-2,-7.87353E-3
8.05587E-2,-9.17816E-3
7.82470E-2,-1.10244E-2
7.51419E-2,-1.27944E-2
7.25936E-2,-1.37405E-2
6.97403E-2,-1.51290E-2
6.71081E-2,-1.57623E-2
6.48460E-2,-1.71966E-2
6.16684E-2,-1.90734E-2
5.77926E-2,-2.04429E-2
5.36212E-2,-2.07195E-2
5.05542E-2,-2.07881E-2
4.60605E-2,-2.09465E-2
4.17900E-2,-1.90601E-2
3.92589E-2,-1.71032E-2
3.67279E-2,-1.59797E-2
3.41091E-2,-1.45664E-2
3.09019E-2,-1.32255E-2
2.76994E-2,-1.10292E-2
2.49538E-2,-8.63266E-3
2.19574E-2,-5.70392E-3
1.95093E-2,-1.95980E-3
1.81894E-2,0.17843E-2
1.72739E-2,0.51193E-2
1.63269E-2,0.83952E-2
1.62267E-2,1.18446E-2
1.69544E-2,1.40180E-2
1.71718E-2,1.53331E-2
1.66702E-2,1.63097E-2
1.56517E-2,1.75724E-2
1.42784E-2,1.91650E-2
1.334E-2,2.13813E-2
1.26915E-2,2.38304E-2
1.30806E-2,2.60582E-2
1.34201E-2,2.73513E-2
1.37443E-2,2.88429E-2
1.43699E-2,2.95486E-2
1.47285E-2,3.01208E-2
1.42993E-2,3.04260E-2
1.35269E-2,3.14083E-2
1.28192E-2,3.29780E-2
1.30386E-2,3.54900E-2
1.47914E-2,3.70292E-2
1.55029E-2,3.73840E-2
1.57051E-2,3.82385E-2
1.57489E-2,3.95851E-2
1.60388E-2,4.11682E-2
1.75933E-2,4.32796E-2
1.93176E-2,4.34799E-2
1.95617E-2,4.31556E-2
1.86805E-2,4.36286E-2
1.83486E-2,4.55169E-2
1.89056E-2,4.71801E-2
1.96380E-2,4.87365E-2
2.08816E-2,4.94842E-2
2.14462E-2,4.93316E-2
2.12097E-2,4.94995E-2
2.07748E-2,4.99343E-2
1.99394E-2,5.04379E-2
1.92871E-2,5.16738E-2
1.97868E-2,5.30014E-2
2.03628E-2,5.29136E-2
1.94244E-2,5.25283E-2
1.85089E-2,5.35545E-2
1.84974E-2,5.43861E-2
1.83525E-2,5.46493E-2
1.83029E-2,5.49011E-2
1.76467E-2,5.46646E-2
1.60827E-2,5.49850E-2
1.52893E-2,5.66406E-2
1.54113E-2,5.81283E-2
1.60751E-2,5.84564E-2
1.47857E-2,5.84945E-2
1.33438E-2,5.97915E-2
1.21688E-2,6.16989E-2
1.15356E-2,6.48040E-2
1.24664E-2,6.72607E-2
1.3237E-2,6.88934E-2
1.29776E-2,7.03811E-2
1.28402E-2,7.26165E-2
1.27868E-2,7.52029E-2
1.28707E-2,7.74307E-2
1.30462E-2,8.05511E-2
1.38015E-2,8.30841E-2
1.40991E-2,8.52737E-2
1.39236E-2,8.79135E-2
1.36871E-2,9.18579E-2
1.54571E-2,9.65499E-2
1.86996E-2,9.99450E-2
2.14309E-2,1.01242E-1
2.28500E-2,1.02348E-1
2.40402E-2,1.04095E-1
2.55050E-2,1.06315E-1
2.69622E-2,1.08291E-1
2.86102E-2,1.10160E-1
3.00903E-2,1.12724E-1
3.27606E-2,1.15676E-1
3.65219E-2,1.17599E-1
4.07714E-2,1.18652E-1
4.34417E-2,1.19049E-1
4.60662E-2,1.19873E-1
4.93927E-2,1.20849E-1
5.20324E-2,1.21917E-1
5.51834E-2,1.23764E-1
0.60020E-1,1.25289E-1
0.64498E-1,1.25556E-1
0.68924E-1,1.25846E-1
0.72486E-1,1.25541E-1
0.76561E-1,1.25030E-1
8.04901E-2,1.24794E-1
8.39843E-2,1.23703E-1
8.70132E-2,1.2323E-1
8.97598E-2,1.24031E-1
9.44366E-2,1.24816E-1
9.95025E-2,1.23504E-1
1.03469E-1,1.21765E-1
1.07254E-1,1.20086E-1
1.11633E-1,1.18331E-1
1.15707E-1,1.15066E-1
1.18896E-1,1.11175E-1
1.20559E-1,1.07772E-1
1.22192E-1,1.05438E-1
1.24176E-1,1.02684E-1
1.25885E-1,0.99723E-1
1.27899E-1,0.97053E-1
1.30317E-1,0.93093E-1
1.31965E-1,0.88699E-1
1.33201E-1,0.84648E-1
1.33415E-1,0.80276E-1
1.33453E-1,0.76332E-1
1.32942E-1,0.72868E-1
1.32782E-1,0.69519E-1
1.32614E-1,0.65643E-1
1.30691E-1,0.61523E-1
1.27990E-1,0.59631E-1
1.26617E-1,0.58792E-1
1.26647E-1,0.57968E-1
1.26541E-1,0.55847E-1
1.25366E-1,0.53680E-1
1.23199E-1,5.28488E-2
1.22657E-1,5.30242E-2
1.23069E-1,5.25741E-2
1.22520E-1,5.09109E-2
1.21841E-1,4.99801E-2
1.21757E-1,4.90646E-2
1.21177E-1,4.74929E-2
1.19491E-1,4.57992E-2
1.17721E-1,4.48837E-2
1.16287E-1,4.37088E-2
1.14021E-1,4.32357E-2
1.11671E-1,4.30831E-2
1.09817E-1,4.38232E-2
1.09527E-1,4.41436E-2
1.08017E-1,4.28314E-2
1.05140E-1,4.23889E-2
1.02363E-1,4.35943E-2
1.01135E-1,4.53949E-2
1.00814E-1,4.68902E-2
1.00128E-1,4.72106E-2
9.92279E-2,4.85992E-2
9.93042E-2,5.03997E-2
1.00357E-1,5.12085E-2
1.01486E-1,5.14068E-2
1.02470E-1,5.05523E-2
1.02218E-1,4.90036E-2
1.00257E-1,4.82254E-2
9.77935E-2,4.98962E-2
9.82971E-2,5.23223E-2
9.90524E-2,5.39169E-2
9.98764E-2,5.46417E-2
1.00700E-1,5.5336E-2
1.01966E-1,5.53817E-2
1.02760E-1,5.50689E-2
1.02798E-1,5.41153E-2
1.01272E-1,5.31921E-2
9.99908E-2,5.44128E-2
9.86022E-2,5.60302E-2
9.88922E-2,5.84106E-2
9.92889E-2,6.00280E-2
1.00235E-1,6.20422E-2
1.01379E-1,6.21032E-2
1.01455E-1,6.20880E-2
1.01547E-1,6.24160E-2
1.00814E-1,6.34079E-2
1.01219E-1,6.55059E-2
1.02462E-1,6.67266E-2
1.03141E-1,6.76879E-2
1.03416E-1,6.88400E-2
1.05140E-1,7.04040E-2
1.07833E-1,7.10144E-2
1.10244E-1,7.02056E-2
1.11015E-1,6.86569E-2
1.10473E-1,6.80084E-2
1.10252E-1,6.80618E-2
1.10450E-1,6.83975E-2
1.10626E-1,6.91528E-2
1.11618E-1,6.89621E-2
1.11282E-1,6.94274E-2
1.11129E-1,7.04345E-2
1.11625E-1,7.18536E-2
1.12403E-1,7.28378E-2
1.13426E-1,7.36084E-2
1.13853E-1,7.45315E-2
1.14608E-1,7.55691E-2
1.16058E-1,7.65457E-2
1.17202E-1,7.66067E-2
1.18011E-1,7.66525E-2
1.17828E-1,7.68051E-2
1.17218E-1,7.76519E-2
1.17462E-1,7.94525E-2
1.17698E-1,8.09860E-2
1.18949E-1,8.19091E-2
1.19110E-1,8.35723E-2
1.20277E-1,8.49990E-2
1.2117E-1,8.65478E-2
1.22283E-1,8.80661E-2
1.23672E-1,8.95309E-2
1.25465E-1,0.91545E-1
1.27533E-1,0.92865E-1
1.29814E-1,0.94520E-1
1.31942E-1,0.95840E-1
1.34086E-1,0.97740E-1
1.36932E-1,0.99334E-1
1.4151E-1,1.01379E-1
1.45668E-1,1.01684E-1
1.48811E-1,1.01371E-1
1.52206E-1,1.01455E-1
1.56356E-1,1.01760E-1
1.59927E-1,1.01486E-1
1.64230E-1,1.01928E-1
1.68518E-1,1.01257E-1
1.73965E-1,1.00143E-1
1.77413E-1,0.98678E-1
1.81778E-1,0.96969E-1
1.85913E-1,0.94574E-1
1.89285E-1,0.91354E-1
1.92184E-1,0.89340E-1
1.95953E-1,0.87875E-1
1.99920E-1,0.85189E-1
2.03537E-1,0.82397E-1
2.07153E-1,0.78765E-1
2.10586E-1,0.74813E-1
2.13897E-1,0.70602E-1
2.15972E-1,0.65399E-1
2.17392E-1,0.60989E-1
2.18856E-1,0.56701E-1
2.21221E-1,0.53054E-1
2.23403E-1,0.47988E-1
2.24212E-1,0.4245E-1
2.24075E-1,0.37628E-1
2.23548E-1,0.33096E-1
2.23678E-1,0.29136E-1
2.24189E-1,0.25505E-1
2.25051E-1,0.20591E-1
2.25006E-1,0.15884E-1
2.24365E-1,0.11390E-1
2.23075E-1,0.06500E-1
2.21244E-1,0.02105E-1
2.18528E-1,-6.63757E-4
2.17460E-1,-3.29589E-3
2.17407E-1,-6.71386E-3
2.16423E-1,-1.05056E-2
2.15164E-1,-1.46408E-2
2.13272E-1,-1.89285E-2
2.10594E-1,-2.22702E-2
2.08450E-1,-2.55889E-2
2.06474E-1,-2.98996E-2
2.02087E-1,-3.38745E-2
1.98059E-1,-3.62014E-2
1.94534E-1,-3.84826E-2
1.90887E-1,-3.98483E-2
1.87316E-1,-4.23202E-2
1.82983E-1,-4.29306E-2
1.78924E-1,-4.29229E-2
1.76200E-1,-4.31366E-2
1.73996E-1,-4.27703E-2
1.71394E-1,-4.43725E-2
1.68403E-1,-4.52957E-2
1.64718E-1,-4.52652E-2
1.61529E-1,-4.53491E-2
1.57890E-1,-4.49218E-2
1.54037E-1,-4.35867E-2
1.50695E-1,-4.16107E-2
1.48368E-1,-3.99627E-2
1.46186E-1,-3.73840E-2
1.44172E-1,-3.47747E-2
1.43241E-1,-3.2341E-2
1.41975E-1,-2.98156E-2
1.42341E-1,-2.67868E-2
1.42906E-1,-2.55127E-2
1.43180E-1,-2.44064E-2
1.42860E-1,-2.40631E-2
1.41754E-1,-2.31170E-2
1.40640E-1,-2.15454E-2
1.39656E-1,-1.99813E-2
1.39602E-1,-1.79367E-2
1.39450E-1,-1.64184E-2
1.38725E-1,-1.50909E-2
1.38900E-1,-1.22680E-2
1.40083E-1,-9.68170E-3
1.41822E-1,-7.70568E-3
1.43592E-1,-6.98852E-3
1.44966E-1,-7.29370E-3
1.45187E-1,-6.65283E-3
1.46141E-1,-5.74493E-3
1.48284E-1,-3.98254E-3
1.50932E-1,-3.41033E-3
1.52732E-1,-4.13513E-3
1.54274E-1,-4.62341E-3
1.54884E-1,-4.36401E-3
1.55952E-1,-3.54766E-3
1.58615E-1,-3.08990E-3
1.6082E-1,-4.11987E-3
1.62933E-1,-5.02014E-3
1.64146E-1,-6.06536E-3
1.64672E-1,-7.28607E-3
1.64772E-1,-7.86590E-3
1.65550E-1,-8.15582E-3
1.66336E-1,-8.28552E-3
1.67083E-1,-9.05609E-3
1.67999E-1,-1.01470E-2
1.68067E-1,-1.06887E-2
1.68746E-1,-1.09176E-2
1.69250E-1,-1.12304E-2
1.69677E-1,-1.24435E-2
1.69937E-1,-1.35955E-2
1.69532E-1,-1.47857E-2
1.69578E-1,-1.47781E-2
1.68647E-1,-1.51596E-2
1.68556E-1,-1.53350E-2
1.68533E-1,-1.57775E-2
1.68640E-1,-1.64566E-2
1.68762E-1,-1.68228E-2
1.67892E-1,-1.68914E-2
1.67038E-1,-1.57012E-2
1.67198E-1,-1.46102E-2
1.68113E-1,-1.36871E-2
1.69059E-1,-1.44805E-2
1.69540E-1,-1.36413E-2
1.69982E-1,-1.28860E-2
1.70417E-1,-1.23291E-2
1.71470E-1,-1.13678E-2
1.72393E-1,-1.05209E-2
1.73522E-1,-9.18579E-3
1.74858E-1,-7.8125E-3
1.75910E-1,-6.24084E-3
1.77398E-1,-5.93566E-3
1.79107E-1,-4.18090E-3
1.81259E-1,-2.6474E-3
1.83425E-1,-1.31988E-3
1.86256E-1,-7.55310E-4
1.88362E-1,-5.34057E-5
1.90948E-1,0.01060E-1
1.93603E-1,0.01922E-1
1.97410E-1,0.02067E-1
2.01644E-1,0.02349E-1
2.05307E-1,0.01510E-1
2.09114E-1,0.00457E-1
2.12562E-1,-1.06811E-3
2.15675E-1,-3.35693E-3
2.18795E-1,-5.47790E-3
2.21900E-1,-7.84301E-3
2.24189E-1,-1.03607E-2
2.26936E-1,-1.24282E-2
2.29995E-1,-1.45034E-2
2.32589E-1,-1.63650E-2
2.36724E-1,-1.88064E-2
2.41127E-1,-2.19802E-2
2.44644E-1,-2.69546E-2
2.46849E-1,-3.18298E-2
2.48405E-1,-3.65753E-2
2.49908E-1,-4.01611E-2
2.51617E-1,-4.37316E-2
2.53479E-1,-4.79888E-2
2.54486E-1,-5.25665E-2
2.55584E-1,-5.67932E-2
2.56546E-1,-6.04705E-2
2.57949E-1,-6.47277E-2
2.58590E-1,-6.96411E-2
2.58667E-1,-7.42797E-2
2.57812E-1,-7.99102E-2
2.56256E-1,-8.47930E-2
2.54318E-1,-8.88519E-2
2.52380E-1,-9.14459E-2
2.51968E-1,-9.51385E-2
2.50839E-1,-9.88616E-2
2.48703E-1,-1.03073E-1
2.47169E-1,-1.06964E-1
2.44949E-1,-1.10893E-1
2.42950E-1,-1.14051E-1
2.40554E-1,-1.17607E-1
2.38136E-1,-1.21009E-1
2.34909E-1,-1.23909E-1
2.32666E-1,-1.26068E-1
2.30407E-1,-1.28646E-1
2.28668E-1,-1.31088E-1
2.27188E-1,-1.33232E-1
2.25059E-1,-1.35437E-1
2.23701E-1,-1.38076E-1
2.21397E-1,-1.40571E-1
2.19276E-1,-1.42433E-1
2.17376E-1,-1.43646E-1
2.15431E-1,-1.45729E-1
2.14317E-1,-1.47438E-1
2.12959E-1,-1.48674E-1
2.11692E-1,-1.50405E-1
2.10662E-1,-1.52618E-1
2.09007E-1,-1.54914E-1
2.06832E-1,-1.56433E-1
2.05032E-1,-1.57791E-1
2.03605E-1,-1.59561E-1
2.02064E-1,-1.62315E-1
1.99119E-1,-1.64901E-1
1.95396E-1,-1.65924E-1
1.92436E-1,-1.66168E-1
1.90307E-1,-1.66015E-1
1.89353E-1,-1.66923E-1
1.88720E-1,-1.68541E-1
1.86569E-1,-1.70707E-1
1.83250E-1,-1.72699E-1
1.82151E-1,-1.73317E-1
1.79534E-1,-1.75323E-1
1.77375E-1,-1.78131E-1
1.74255E-1,-1.79817E-1
1.70455E-1,-1.81671E-1
1.67419E-1,-1.82167E-1
1.64901E-1,-1.82800E-1
1.62468E-1,-1.84196E-1
1.59706E-1,-1.84623E-1
1.57211E-1,-1.85005E-1
1.55105E-1,-1.85958E-1
1.52648E-1,-1.86187E-1
1.51405E-1,-1.86538E-1
1.50390E-1,-1.87385E-1
1.48185E-1,-1.88674E-1
1.45828E-1,-1.89323E-1
1.43699E-1,-1.89643E-1
1.42417E-1,-1.90330E-1
1.40029E-1,-1.91848E-1
1.37107E-1,-1.92718E-1
1.33804E-1,-1.93107E-1
1.30683E-1,-1.92878E-1
1.27784E-1,-1.92894E-1
1.25129E-1,-1.92283E-1
1.22825E-1,-1.91490E-1
1.20506E-1,-1.91749E-1
1.17401E-1,-1.91589E-1
1.14250E-1,-1.90773E-1
1.10626E-1,-1.90650E-1
1.07551E-1,-1.89285E-1
1.04766E-1,-1.87866E-1
1.01333E-1,-1.86927E-1
0.97976E-1,-1.85585E-1
0.94543E-1,-1.82457E-1
0.92071E-1,-1.79534E-1
0.91156E-1,-1.77749E-1
0.89866E-1,-1.75460E-1
0.87936E-1,-1.73851E-1
0.86692E-1,-1.71463E-1
0.86349E-1,-1.68891E-1
0.86212E-1,-1.67411E-1
0.85540E-1,-1.66023E-1
0.84793E-1,-1.64756E-1
0.83786E-1,-1.62826E-1
0.83084E-1,-1.60987E-1
0.82527E-1,-1.58645E-1
0.82572E-1,-1.55891E-1
0.83190E-1,-1.52954E-1
0.84022E-1,-1.50848E-1
0.85029E-1,-1.49002E-1
0.86479E-1,-1.46499E-1
0.88089E-1,-1.44020E-1
0.89889E-1,-1.42921E-1
0.91392E-1,-1.41975E-1
0.92964E-1,-1.40518E-1
0.94650E-1,-1.38893E-1
0.96344E-1,-1.37664E-1
0.98403E-1,-1.36718E-1
1.00822E-1,-1.35994E-1
1.02806E-1,-1.3591E-1
1.04278E-1,-1.35917E-1
1.06201E-1,-1.362E-1
1.07658E-1,-1.36650E-1
1.09252E-1,-1.37962E-1
1.09581E-1,-1.38855E-1
1.10412E-1,-1.38870E-1
1.11480E-1,-1.39251E-1
1.12571E-1,-1.40152E-1
1.13739E-1,-1.41326E-1
1.14746E-1,-1.42410E-1
1.15448E-1,-1.43554E-1
1.17042E-1,-1.44149E-1
1.18499E-1,-1.45538E-1
1.18217E-1,-1.48727E-1
1.19232E-1,-1.50947E-1
1.20559E-1,-1.53747E-1
1.20437E-1,-1.56448E-1
1.21208E-1,-1.58340E-1
1.21330E-1,-1.60720E-1
1.22886E-1,-1.63658E-1
1.23443E-1,-1.67633E-1
1.21849E-1,-1.71028E-1
1.20971E-1,-1.74301E-1
1.20071E-1,-1.76834E-1
1.18423E-1,-1.79779E-1
1.16821E-1,-1.81945E-1
1.15074E-1,-1.84524E-1
1.13632E-1,-1.86561E-1
1.11518E-1,-1.88087E-1
1.09672E-1,-1.89811E-1
1.08123E-1,-1.91612E-1
1.07345E-1,-1.93428E-1
1.05255E-1,-1.95686E-1
1.03019E-1,-1.97662E-1
1.00441E-1,-1.99432E-1
0.98312E-1,-2.00004E-1
0.96809E-1,-2.01988E-1
0.93292E-1,-2.03041E-1
0.90576E-1,-2.04078E-1
0.88325E-1,-2.03926E-1
0.86601E-1,-2.04635E-1
