CITIFILE A.01.00
#NA VERSION HP8720D.06.14
NAME DATA
VAR FREQ MAG 1601
DATA S[1,1] RI

SEG_LIST_BEGIN
SEG 1000000000 8000000000 1601
SEG_LIST_END
BEGIN
3.13629E-1,-4.65286E-1
2.88543E-1,-4.74060E-1
2.61016E-1,-4.81048E-1
2.35076E-1,-4.83612E-1
2.12646E-1,-4.84588E-1
1.90856E-1,-4.87152E-1
1.68151E-1,-4.86236E-1
1.48483E-1,-4.85977E-1
1.29852E-1,-4.86633E-1
1.10305E-1,-4.86496E-1
0.89202E-1,-4.88052E-1
0.67855E-1,-4.86373E-1
0.46386E-1,-4.82269E-1
0.28823E-1,-4.77798E-1
0.07827E-1,-4.74929E-1
-1.36413E-2,-4.68063E-1
-3.19671E-2,-4.58343E-1
-4.8172E-2,-4.46517E-1
-6.21337E-2,-4.36767E-1
-7.40966E-2,-4.27825E-1
-8.53576E-2,-4.19769E-1
-9.74731E-2,-4.13513E-1
-1.11938E-1,-4.08264E-1
-1.26861E-1,-3.96270E-1
-1.38488E-1,-3.84429E-1
-1.48315E-1,-3.74084E-1
-1.58050E-1,-3.65112E-1
-1.69342E-1,-3.56781E-1
-1.80450E-1,-3.47137E-1
-1.92779E-1,-3.36883E-1
-2.03643E-1,-3.21563E-1
-2.09686E-1,-3.07525E-1
-2.15057E-1,-2.96295E-1
-2.20825E-1,-2.84454E-1
-2.23968E-1,-2.72262E-1
-2.25723E-1,-2.63641E-1
-2.28241E-1,-2.56179E-1
-2.32635E-1,-2.49176E-1
-2.36434E-1,-2.41348E-1
-2.38205E-1,-2.30835E-1
-2.39303E-1,-2.27767E-1
-2.43911E-1,-2.26669E-1
-2.52471E-1,-2.23892E-1
-2.61215E-1,-2.20184E-1
-2.71423E-1,-2.15637E-1
-2.83691E-1,-2.08221E-1
-2.95288E-1,-1.97555E-1
-3.04748E-1,-1.83349E-1
-3.10943E-1,-1.71340E-1
-3.17413E-1,-1.58935E-1
-3.24035E-1,-1.45431E-1
-3.28292E-1,-1.30340E-1
-3.29559E-1,-1.14852E-1
-3.30337E-1,-1.02478E-1
-3.30062E-1,-9.05304E-2
-3.30688E-1,-8.15734E-2
-3.33297E-1,-7.18231E-2
-3.35601E-1,-6.1203E-2
-3.38882E-1,-5.01861E-2
-3.42361E-1,-3.75366E-2
-3.42559E-1,-2.40783E-2
-3.41629E-1,-1.20086E-2
-3.41583E-1,-2.36511E-3
-3.42849E-1,0.09384E-1
-3.42468E-1,0.21575E-1
-3.40927E-1,0.32135E-1
-3.41018E-1,0.42373E-1
-3.41171E-1,0.54336E-1
-3.39370E-1,0.67779E-1
-3.34793E-1,0.79315E-1
-3.30917E-1,0.88607E-1
-3.28796E-1,0.96664E-1
-3.28231E-1,1.06079E-1
-3.27606E-1,1.17477E-1
-3.25897E-1,1.29547E-1
-3.22845E-1,1.42349E-1
-3.18252E-1,1.55807E-1
-3.13873E-1,1.68762E-1
-3.05633E-1,1.81442E-1
-2.97241E-1,1.93069E-1
-2.87429E-1,2.01995E-1
-2.78076E-1,2.09228E-1
-2.71698E-1,2.14111E-1
-2.67990E-1,2.20840E-1
-2.63565E-1,2.29812E-1
-2.57812E-1,2.39822E-1
-2.51449E-1,2.49832E-1
-2.44247E-1,2.58911E-1
-2.36297E-1,2.68753E-1
-2.27233E-1,2.77679E-1
-2.18383E-1,2.85614E-1
-2.09640E-1,2.93808E-1
-2.00531E-1,3.02581E-1
-1.89071E-1,3.10562E-1
-1.76055E-1,3.16696E-1
-1.64825E-1,3.20220E-1
-1.54495E-1,3.23898E-1
-1.43981E-1,3.26644E-1
-1.35162E-1,3.29391E-1
-1.27197E-1,3.32901E-1
-1.18789E-1,3.38333E-1
-1.07971E-1,3.43811E-1
-9.48791E-2,3.4758E-1
-8.26721E-2,3.48617E-1
-7.28454E-2,3.49273E-1
-6.38732E-2,3.50326E-1
-5.50689E-2,3.51882E-1
-4.50897E-2,3.53805E-1
-3.56903E-2,3.55728E-1
-2.60467E-2,3.57391E-1
-1.65557E-2,3.60076E-1
-3.98254E-3,3.62121E-1
0.07309E-1,3.62609E-1
0.17379E-1,3.61679E-1
0.26855E-1,3.61709E-1
0.37567E-1,3.62457E-1
0.47821E-1,3.63723E-1
0.59707E-1,3.64685E-1
0.72189E-1,3.65188E-1
0.84137E-1,3.64212E-1
0.96694E-1,3.65219E-1
1.12670E-1,3.64669E-1
1.30218E-1,3.59985E-1
1.45752E-1,3.52935E-1
1.58874E-1,3.44299E-1
1.70013E-1,3.35845E-1
1.80450E-1,3.27728E-1
1.91162E-1,3.19915E-1
2.01110E-1,3.10760E-1
2.10388E-1,3.02246E-1
2.19116E-1,2.92205E-1
2.27844E-1,2.84362E-1
2.37701E-1,2.75787E-1
2.45849E-1,2.64709E-1
2.55127E-1,2.54638E-1
2.61138E-1,2.44384E-1
2.69775E-1,2.31414E-1
2.75573E-1,2.18353E-1
2.80334E-1,2.04437E-1
2.82836E-1,1.92657E-1
2.86163E-1,1.81518E-1
2.89794E-1,1.70562E-1
2.93121E-1,1.58325E-1
2.95929E-1,1.47766E-1
2.98751E-1,1.35604E-1
3.01361E-1,1.22772E-1
3.02581E-1,1.08062E-1
3.013E-1,0.93841E-1
2.98248E-1,0.80902E-1
2.94799E-1,0.70266E-1
2.92205E-1,0.59677E-1
2.88818E-1,0.49316E-1
2.85308E-1,0.40588E-1
2.83294E-1,0.32257E-1
2.81127E-1,0.22064E-1
2.77511E-1,0.12100E-1
2.7388E-1,0.02105E-1
2.69790E-1,-7.14111E-3
2.64343E-1,-1.70898E-2
2.59048E-1,-2.54821E-2
2.52594E-1,-3.43475E-2
2.45964E-1,-4.25415E-2
2.38739E-1,-5.056E-2
2.29057E-1,-5.74874E-2
2.20375E-1,-6.20727E-2
2.11860E-1,-6.52923E-2
2.03460E-1,-6.88095E-2
1.97357E-1,-6.93969E-2
1.92489E-1,-7.16705E-2
1.86935E-1,-7.49511E-2
1.79534E-1,-7.80334E-2
1.72966E-1,-7.80944E-2
1.68090E-1,-7.71102E-2
1.66755E-1,-7.75985E-2
1.66236E-1,-8.15353E-2
1.62475E-1,-8.81500E-2
1.55105E-1,-9.25216E-2
1.48986E-1,-9.45510E-2
1.43699E-1,-9.70764E-2
1.37695E-1,-9.98306E-2
1.31454E-1,-1.01112E-1
1.25885E-1,-1.01890E-1
1.21196E-1,-1.02901E-1
1.15963E-1,-1.03736E-1
1.10817E-1,-1.04038E-1
1.06582E-1,-1.03691E-1
1.04042E-1,-1.03546E-1
1.02256E-1,-1.0569E-1
9.86328E-2,-1.08100E-1
9.49173E-2,-1.10893E-1
9.03549E-2,-1.15024E-1
8.35952E-2,-1.18068E-1
7.63664E-2,-1.20052E-1
6.90002E-2,-1.20964E-1
6.17561E-2,-1.21009E-1
5.45158E-2,-1.21303E-1
4.67186E-2,-1.20208E-1
3.97224E-2,-1.17519E-1
3.34587E-2,-1.15345E-1
2.80380E-2,-1.12621E-1
2.25486E-2,-1.10687E-1
1.60598E-2,-1.07799E-1
1.03302E-2,-1.05468E-1
0.49057E-2,-1.02157E-1
-2.40325E-4,-9.88807E-2
-4.86755E-3,-9.55352E-2
-1.02233E-2,-9.12666E-2
-1.44157E-2,-8.77571E-2
-1.78146E-2,-8.26873E-2
-2.04353E-2,-7.80868E-2
-2.21023E-2,-7.37495E-2
-2.37312E-2,-7.11479E-2
-2.60810E-2,-6.82754E-2
-2.81639E-2,-6.51245E-2
-2.98919E-2,-6.18743E-2
-3.13644E-2,-5.92193E-2
-3.32298E-2,-5.62477E-2
-3.41339E-2,-5.32760E-2
-3.51066E-2,-5.15289E-2
-3.69377E-2,-5.02471E-2
-4.04892E-2,-4.88700E-2
-4.45327E-2,-4.53071E-2
-4.78782E-2,-4.01382E-2
-4.90074E-2,-3.45993E-2
-4.87785E-2,-3.01742E-2
-4.88395E-2,-2.74276E-2
-5.02777E-2,-2.51121E-2
-5.21240E-2,-2.20069E-2
-5.34133E-2,-1.79824E-2
-5.40733E-2,-1.49383E-2
-5.56488E-2,-1.26037E-2
-5.85327E-2,-9.44519E-3
-6.06651E-2,-4.23431E-3
-6.07376E-2,0.07076E-2
-6.02779E-2,0.43354E-2
-6.03122E-2,0.737E-2
-6.04572E-2,0.98953E-2
-6.13651E-2,1.22718E-2
-6.24275E-2,1.55563E-2
-6.32400E-2,1.87988E-2
-6.42967E-2,2.22206E-2
-6.47087E-2,2.59857E-2
-6.51741E-2,2.98538E-2
-6.50634E-2,3.39546E-2
-6.45370E-2,3.78074E-2
-6.40373E-2,4.10690E-2
-6.39915E-2,4.46815E-2
-6.39686E-2,4.92782E-2
-6.23550E-2,5.37490E-2
-6.11457E-2,5.80673E-2
-5.96313E-2,6.19049E-2
-5.78193E-2,6.60896E-2
-5.55687E-2,6.97708E-2
-5.42984E-2,7.35054E-2
-5.24063E-2,7.81822E-2
-4.92744E-2,8.24317E-2
-4.61425E-2,8.64601E-2
-4.23774E-2,8.98399E-2
-3.83186E-2,9.20486E-2
-3.48167E-2,9.35707E-2
-3.23982E-2,9.43679E-2
-3.07960E-2,9.63668E-2
-2.82096E-2,9.85679E-2
-2.55088E-2,9.98687E-2
-2.32772E-2,1.00784E-1
-2.13241E-2,1.01600E-1
-2.03132E-2,1.02741E-1
-1.86576E-2,1.04900E-1
-1.59835E-2,1.06658E-1
-1.32522E-2,1.07139E-1
-1.15814E-2,1.07330E-1
-1.06964E-2,1.08032E-1
-9.61303E-3,1.09947E-1
-7.45391E-3,1.11839E-1
-5.61904E-3,1.13071E-1
-3.95584E-3,1.15104E-1
-2.40707E-3,1.17874E-1
0.07705E-2,1.21048E-1
0.50201E-2,1.23054E-1
0.87661E-2,1.24969E-1
0.12558E-1,1.27082E-1
0.17227E-1,1.28578E-1
0.21194E-1,1.29608E-1
0.25405E-1,1.30813E-1
0.29319E-1,1.32293E-1
0.33554E-1,1.33758E-1
0.38612E-1,1.35986E-1
0.44799E-1,1.36207E-1
0.50262E-1,1.35421E-1
0.54504E-1,1.34689E-1
0.58654E-1,1.34201E-1
0.63095E-1,1.34475E-1
0.68786E-1,1.34552E-1
0.74401E-1,1.33209E-1
0.80703E-1,1.32034E-1
0.87036E-1,1.28837E-1
9.34219E-2,1.24877E-1
9.84649E-2,1.19422E-1
1.04049E-1,1.13922E-1
1.07353E-1,1.07101E-1
1.10183E-1,1.00189E-1
1.11526E-1,9.33151E-2
1.11778E-1,8.68988E-2
1.12663E-1,8.11157E-2
1.12472E-1,7.52105E-2
1.11740E-1,6.87713E-2
1.10153E-1,6.35070E-2
1.09191E-1,5.94329E-2
1.07635E-1,5.43212E-2
1.06643E-1,4.91943E-2
1.02767E-1,4.42428E-2
9.88464E-2,4.10919E-2
9.54818E-2,3.89862E-2
9.26666E-2,3.76892E-2
8.97140E-2,3.57551E-2
8.64677E-2,3.43780E-2
8.29963E-2,3.28941E-2
7.85369E-2,3.26652E-2
7.40661E-2,3.32717E-2
7.01103E-2,3.45115E-2
6.61315E-2,3.67736E-2
6.37168E-2,4.04052E-2
6.27632E-2,4.33425E-2
6.21299E-2,4.55055E-2
6.12525E-2,4.72908E-2
6.09016E-2,4.89616E-2
5.96466E-2,4.96139E-2
5.72509E-2,5.1651E-2
5.57251E-2,5.5336E-2
5.56488E-2,5.92117E-2
5.73043E-2,6.34918E-2
6.01501E-2,6.58569E-2
6.19583E-2,6.71005E-2
6.33773E-2,7.00759E-2
6.66351E-2,7.26013E-2
7.03659E-2,7.46841E-2
7.49816E-2,7.65609E-2
8.08410E-2,7.65991E-2
8.54568E-2,7.50961E-2
8.89587E-2,7.37152E-2
9.33380E-2,7.34176E-2
9.80377E-2,7.22198E-2
1.02455E-1,6.97326E-2
1.06582E-1,6.74896E-2
1.10458E-1,6.53381E-2
1.15081E-1,6.17065E-2
1.19628E-1,5.80902E-2
1.23352E-1,5.28411E-2
1.25282E-1,0.47279E-1
1.25915E-1,0.43037E-1
1.27922E-1,0.38726E-1
1.29516E-1,0.33523E-1
1.30226E-1,0.27893E-1
1.30035E-1,0.21789E-1
1.28295E-1,0.17272E-1
1.27044E-1,0.11596E-1
1.26922E-1,0.06561E-1
1.25991E-1,0.00213E-1
1.23474E-1,-5.83648E-3
1.2117E-1,-1.07040E-2
1.17881E-1,-1.63345E-2
1.14769E-1,-2.11639E-2
1.12064E-1,-2.64663E-2
1.07730E-1,-3.16848E-2
1.02356E-1,-3.62167E-2
9.75647E-2,-3.94058E-2
9.26475E-2,-4.32777E-2
8.69178E-2,-4.65812E-2
8.04443E-2,-4.76722E-2
7.55119E-2,-4.91104E-2
7.07206E-2,-5.06362E-2
6.58912E-2,-5.25703E-2
5.92365E-2,-5.42774E-2
5.21621E-2,-5.40733E-2
4.59232E-2,-5.36117E-2
3.92818E-2,-5.25493E-2
3.23066E-2,-5.03826E-2
2.65159E-2,-4.71534E-2
2.14080E-2,-4.38270E-2
1.64623E-2,-4.02622E-2
1.25618E-2,-3.62682E-2
0.95806E-2,-3.28598E-2
0.69379E-2,-3.07197E-2
0.29869E-2,-2.92854E-2
-2.35080E-3,-2.70834E-2
-7.55119E-3,-2.32029E-2
-1.18179E-2,-1.83343E-2
-1.53360E-2,-1.31521E-2
-1.76668E-2,-7.84015E-3
-1.89762E-2,-3.16047E-3
-1.99480E-2,0.11119E-2
-2.06127E-2,0.43373E-2
-2.19707E-2,0.73146E-2
-2.38857E-2,1.07536E-2
-2.60601E-2,1.49421E-2
-2.77023E-2,2.04525E-2
-2.70748E-2,2.68058E-2
-2.50892E-2,3.14331E-2
-2.33802E-2,3.45115E-2
-2.27489E-2,3.77521E-2
-2.25162E-2,4.14333E-2
-2.17628E-2,4.61425E-2
-1.95350E-2,5.07202E-2
-1.68342E-2,5.40351E-2
-1.48925E-2,5.67588E-2
-1.334E-2,5.93528E-2
-1.18103E-2,6.28509E-2
-9.49859E-3,6.64825E-2
-6.36291E-3,6.92977E-2
-3.19290E-3,7.11784E-2
-6.10351E-4,7.20176E-2
0.08163E-2,7.31086E-2
0.23613E-2,7.48138E-2
0.39405E-2,7.61108E-2
0.59356E-2,7.77397E-2
0.86593E-2,7.90939E-2
1.13143E-2,7.87353E-2
1.25579E-2,7.80487E-2
1.34086E-2,7.81135E-2
1.46598E-2,7.81478E-2
1.56784E-2,7.77435E-2
1.61666E-2,7.76519E-2
1.66015E-2,7.75146E-2
1.70822E-2,7.75833E-2
1.75933E-2,7.81173E-2
1.83792E-2,7.82241E-2
1.90048E-2,7.77816E-2
1.77307E-2,7.78198E-2
1.74026E-2,7.97348E-2
1.73416E-2,8.12225E-2
1.75857E-2,8.38241E-2
1.92718E-2,8.58459E-2
2.04238E-2,8.74481E-2
2.16827E-2,8.89434E-2
2.27279E-2,9.09271E-2
2.42538E-2,9.26437E-2
2.55279E-2,9.38949E-2
2.63137E-2,9.58023E-2
2.78015E-2,9.76715E-2
2.89917E-2,9.89990E-2
2.97927E-2,1.00532E-1
3.02658E-2,1.03218E-1
3.21273E-2,1.06330E-1
3.55224E-2,1.08726E-1
3.87115E-2,1.09672E-1
4.06799E-2,1.09771E-1
4.26483E-2,1.10549E-1
4.47158E-2,1.11366E-1
4.63943E-2,1.11999E-1
4.84237E-2,1.12793E-1
5.07354E-2,1.13548E-1
5.33752E-2,1.14265E-1
5.58471E-2,1.14280E-1
5.86242E-2,1.14425E-1
6.14318E-2,1.13906E-1
6.38885E-2,1.13983E-1
6.62536E-2,1.13632E-1
6.86340E-2,1.13555E-1
7.03811E-2,1.13784E-1
7.37457E-2,1.14860E-1
7.80487E-2,1.15409E-1
8.23745E-2,1.13433E-1
8.50219E-2,1.12190E-1
8.73947E-2,1.11747E-1
9.08966E-2,1.10595E-1
9.35516E-2,1.08383E-1
9.53903E-2,1.07444E-1
9.71679E-2,1.07589E-1
1.00669E-1,1.07597E-1
1.04270E-1,1.05667E-1
1.06819E-1,1.03164E-1
1.08657E-1,1.01547E-1
1.10656E-1,9.94873E-2
1.12716E-1,9.70916E-2
1.14318E-1,9.48181E-2
1.15020E-1,9.20105E-2
1.15753E-1,8.98742E-2
1.16371E-1,8.78219E-2
1.17378E-1,8.61740E-2
1.19796E-1,8.43124E-2
1.21398E-1,8.06808E-2
1.21818E-1,7.66525E-2
1.21025E-1,7.29064E-2
1.19987E-1,7.07016E-2
1.19567E-1,6.84204E-2
1.19613E-1,6.64215E-2
1.19506E-1,6.35223E-2
1.19110E-1,6.00280E-2
1.16394E-1,5.70068E-2
1.13220E-1,5.61676E-2
1.11953E-1,5.69458E-2
1.12289E-1,5.66253E-2
1.12228E-1,5.49163E-2
1.10130E-1,5.33905E-2
1.07986E-1,5.32836E-2
1.06636E-1,5.48858E-2
1.06964E-1,5.56869E-2
1.06651E-1,5.53131E-2
1.05682E-1,5.513E-2
1.04911E-1,5.58166E-2
1.04118E-1,5.61142E-2
1.02851E-1,5.70755E-2
1.02623E-1,5.78079E-2
1.0186E-1,5.82733E-2
1.00624E-1,5.96542E-2
9.95559E-2,6.13708E-2
1.00608E-1,6.3797E-2
1.01333E-1,6.41479E-2
1.01287E-1,6.38732E-2
9.98535E-2,6.48651E-2
9.95636E-2,6.76727E-2
1.00921E-1,7.03430E-2
1.03271E-1,7.11212E-2
1.04797E-1,7.14569E-2
1.05285E-1,7.25555E-2
1.07833E-1,7.37304E-2
1.11358E-1,7.39746E-2
1.14578E-1,7.28836E-2
1.16577E-1,7.15560E-2
1.18736E-1,6.85806E-2
1.18461E-1,6.69555E-2
1.17950E-1,6.69860E-2
1.19323E-1,6.72226E-2
1.21513E-1,6.69479E-2
1.23222E-1,6.58950E-2
1.24832E-1,6.50405E-2
1.27265E-1,0.63797E-1
1.2883E-1,0.61874E-1
1.29402E-1,0.58593E-1
1.28280E-1,0.56503E-1
1.27029E-1,0.56167E-1
1.27136E-1,0.55877E-1
1.2883E-1,0.56259E-1
1.29562E-1,0.54885E-1
1.30401E-1,0.52993E-1
1.30462E-1,0.513E-1
1.29928E-1,0.49560E-1
1.29852E-1,0.47561E-1
1.29074E-1,0.46386E-1
1.28387E-1,0.44693E-1
1.27845E-1,0.43388E-1
1.27227E-1,0.41832E-1
1.25396E-1,0.40771E-1
1.25808E-1,0.39894E-1
1.25122E-1,0.37414E-1
1.23626E-1,3.46603E-2
1.21284E-1,3.2547E-2
1.17691E-1,3.18145E-2
1.15257E-1,3.12347E-2
1.11953E-1,3.06625E-2
1.09275E-1,3.06396E-2
1.06178E-1,3.05938E-2
1.02211E-1,3.17688E-2
9.90295E-2,3.39584E-2
9.71756E-2,3.63693E-2
9.48715E-2,3.87573E-2
9.29107E-2,4.05120E-2
9.03549E-2,4.34036E-2
8.83178E-2,4.67910E-2
8.70208E-2,5.04531E-2
8.57772E-2,5.37643E-2
8.47778E-2,5.70602E-2
8.34198E-2,6.08444E-2
8.26034E-2,6.50634E-2
8.19473E-2,6.96334E-2
8.22372E-2,7.47680E-2
8.33740E-2,7.98187E-2
8.49914E-2,8.43200E-2
8.70056E-2,8.88214E-2
8.94546E-2,9.29412E-2
9.25903E-2,9.70840E-2
9.64660E-2,1.00517E-1
1.00135E-1,1.02455E-1
1.03164E-1,1.04965E-1
1.06834E-1,1.07749E-1
1.09870E-1,1.10206E-1
1.13502E-1,1.13418E-1
1.18408E-1,1.16882E-1
1.25015E-1,1.19339E-1
1.31980E-1,1.19751E-1
1.36901E-1,1.19293E-1
1.41906E-1,1.18911E-1
1.46087E-1,1.18774E-1
1.51321E-1,1.18286E-1
1.56127E-1,1.18713E-1
1.61636E-1,1.17599E-1
1.67404E-1,1.16638E-1
1.72256E-1,1.14776E-1
1.7659E-1,1.12976E-1
1.82067E-1,1.11175E-1
1.86325E-1,1.08032E-1
1.89453E-1,1.04736E-1
1.93496E-1,1.02417E-1
1.97494E-1,1.01013E-1
2.01889E-1,0.98739E-1
2.07321E-1,0.95275E-1
2.11883E-1,0.90271E-1
2.15194E-1,0.85815E-1
2.17956E-1,0.81054E-1
2.20962E-1,0.76705E-1
2.23068E-1,0.71975E-1
2.25524E-1,0.67581E-1
2.28393E-1,0.61950E-1
2.29919E-1,0.56579E-1
2.30987E-1,0.51330E-1
2.32513E-1,0.46096E-1
2.33612E-1,0.40893E-1
2.34176E-1,0.35949E-1
2.35199E-1,0.30258E-1
2.35137E-1,0.25451E-1
2.35183E-1,0.19317E-1
2.34146E-1,0.13839E-1
2.3246E-1,0.08529E-1
2.30247E-1,0.04577E-1
2.28927E-1,0.00900E-1
2.28988E-1,-3.60870E-3
2.27096E-1,-8.82720E-3
2.25219E-1,-1.36947E-2
2.22473E-1,-1.84402E-2
2.18513E-1,-2.24838E-2
2.16346E-1,-2.65579E-2
2.13172E-1,-3.03726E-2
2.08862E-1,-3.43475E-2
2.03750E-1,-3.63006E-2
2.00103E-1,-3.82537E-2
1.96220E-1,-3.96575E-2
1.92199E-1,-4.19082E-2
1.88003E-1,-4.30984E-2
1.83631E-1,-4.30526E-2
1.81182E-1,-4.31671E-2
1.78154E-1,-4.27551E-2
1.75796E-1,-4.36401E-2
1.72111E-1,-4.38690E-2
1.68701E-1,-4.39529E-2
1.66206E-1,-4.36477E-2
1.62757E-1,-4.30374E-2
1.59767E-1,-4.13970E-2
1.57074E-1,-3.93219E-2
1.55174E-1,-3.75595E-2
1.53358E-1,-3.55224E-2
1.52046E-1,-3.34396E-2
1.51191E-1,-3.15094E-2
1.51336E-1,-2.95562E-2
1.51123E-1,-2.78472E-2
1.51641E-1,-2.69317E-2
1.51474E-1,-2.64892E-2
1.51130E-1,-2.69165E-2
1.50016E-1,-2.69775E-2
1.48345E-1,-2.61917E-2
1.46957E-1,-2.42385E-2
1.46652E-1,-2.30102E-2
1.46667E-1,-2.21939E-2
1.45294E-1,-2.11486E-2
1.45019E-1,-1.931E-2
1.45454E-1,-1.71737E-2
1.46667E-1,-1.53350E-2
1.48170E-1,-1.45874E-2
1.48559E-1,-1.51138E-2
1.47995E-1,-1.53732E-2
1.48254E-1,-1.26953E-2
1.49498E-1,-1.07803E-2
1.52946E-1,-9.84191E-3
1.54495E-1,-1.09710E-2
1.54624E-1,-1.16272E-2
1.54403E-1,-1.12991E-2
1.55120E-1,-9.97161E-3
1.57798E-1,-9.42230E-3
1.60011E-1,-1.02386E-2
1.60453E-1,-1.07345E-2
1.61392E-1,-1.13830E-2
1.61972E-1,-1.194E-2
1.61956E-1,-1.26647E-2
1.62109E-1,-1.24893E-2
1.62574E-1,-1.12762E-2
1.63673E-1,-1.07955E-2
1.65176E-1,-1.12609E-2
1.66030E-1,-1.18179E-2
1.67076E-1,-1.20468E-2
1.67335E-1,-1.26266E-2
1.67778E-1,-1.34658E-2
1.68457E-1,-1.45721E-2
1.68701E-1,-1.49993E-2
1.68914E-1,-1.58691E-2
1.68121E-1,-1.56860E-2
1.68312E-1,-1.61132E-2
1.68144E-1,-1.67083E-2
1.68174E-1,-1.66702E-2
1.68479E-1,-1.73797E-2
1.68121E-1,-1.71203E-2
1.67137E-1,-1.66015E-2
1.67541E-1,-1.51062E-2
1.69258E-1,-1.45645E-2
1.70448E-1,-1.47705E-2
1.71012E-1,-1.44577E-2
1.71340E-1,-1.42822E-2
1.71989E-1,-1.34429E-2
1.73469E-1,-1.21307E-2
1.74041E-1,-1.194E-2
1.75521E-1,-1.05209E-2
1.76734E-1,-1.00479E-2
1.78237E-1,-8.60595E-3
1.80481E-1,-8.04138E-3
1.81678E-1,-6.71386E-3
1.84112E-1,-6.09588E-3
1.85661E-1,-4.76074E-3
1.88476E-1,-4.66156E-3
1.90383E-1,-4.43267E-3
1.92787E-1,-3.57818E-3
1.95671E-1,-2.96020E-3
1.98478E-1,-3.00598E-3
2.02560E-1,-2.97546E-3
2.05932E-1,-3.95202E-3
2.09281E-1,-4.97436E-3
2.13066E-1,-6.80542E-3
2.15538E-1,-9.68933E-3
2.18277E-1,-1.13220E-2
2.20932E-1,-1.40991E-2
2.23068E-1,-1.62048E-2
2.25952E-1,-1.86309E-2
2.28645E-1,-2.11715E-2
2.30667E-1,-2.29415E-2
2.33963E-1,-2.56118E-2
2.37419E-1,-2.80075E-2
2.41500E-1,-3.25241E-2
2.43965E-1,-3.77273E-2
2.45063E-1,-4.25262E-2
2.45788E-1,-4.62341E-2
2.47360E-1,-4.93927E-2
2.49321E-1,-5.32226E-2
2.50457E-1,-5.80749E-2
2.51052E-1,-6.17828E-2
2.52090E-1,-6.66809E-2
2.52838E-1,-7.15942E-2
2.52471E-1,-7.63092E-2
2.5177E-1,-8.07800E-2
2.50900E-1,-8.64715E-2
2.49313E-1,-9.13238E-2
2.46025E-1,-9.50851E-2
2.43774E-1,-9.74578E-2
2.42294E-1,-1.00578E-1
2.41134E-1,-1.04087E-1
2.38220E-1,-1.07971E-1
2.35611E-1,-1.11091E-1
2.33032E-1,-1.13700E-1
2.30270E-1,-1.16302E-1
2.27340E-1,-1.18568E-1
2.24510E-1,-1.21513E-1
2.22053E-1,-1.23024E-1
2.19642E-1,-1.24519E-1
2.16896E-1,-1.26495E-1
2.14721E-1,-1.27693E-1
2.13348E-1,-1.28364E-1
2.11624E-1,-1.29509E-1
2.10998E-1,-1.31141E-1
2.09426E-1,-1.33468E-1
2.07710E-1,-1.34857E-1
2.06291E-1,-1.35009E-1
2.04711E-1,-1.35925E-1
2.0401E-1,-1.36360E-1
2.04002E-1,-1.37443E-1
2.03704E-1,-1.38572E-1
2.03147E-1,-1.40502E-1
2.02278E-1,-1.42402E-1
2.01080E-1,-1.43775E-1
2.00141E-1,-1.45111E-1
1.99111E-1,-1.46858E-1
1.97898E-1,-1.48849E-1
1.95694E-1,-1.50817E-1
1.93939E-1,-1.52290E-1
1.91978E-1,-1.52954E-1
1.90780E-1,-1.53007E-1
1.89933E-1,-1.53961E-1
1.89575E-1,-1.55723E-1
1.88003E-1,-1.57928E-1
1.86027E-1,-1.59874E-1
1.85157E-1,-1.61949E-1
1.83273E-1,-1.64176E-1
1.81396E-1,-1.65985E-1
1.78810E-1,-1.68838E-1
1.75636E-1,-1.70661E-1
1.72813E-1,-1.72065E-1
1.69883E-1,-1.72203E-1
1.69036E-1,-1.73431E-1
1.67053E-1,-1.75186E-1
1.64955E-1,-1.76231E-1
1.62719E-1,-1.77246E-1
1.60858E-1,-1.77642E-1
1.60339E-1,-1.78733E-1
1.59332E-1,-1.80595E-1
1.57264E-1,-1.82663E-1
1.55082E-1,-1.83975E-1
1.52565E-1,-1.84822E-1
1.51237E-1,-1.85508E-1
1.49231E-1,-1.87233E-1
1.46682E-1,-1.88819E-1
1.43547E-1,-1.89720E-1
1.40747E-1,-1.89682E-1
1.38176E-1,-1.90261E-1
1.35566E-1,-1.90444E-1
1.33033E-1,-1.90704E-1
1.29982E-1,-1.91185E-1
1.26693E-1,-1.91383E-1
1.22764E-1,-1.91055E-1
1.19590E-1,-1.90261E-1
1.16561E-1,-1.90094E-1
1.13868E-1,-1.89392E-1
1.10176E-1,-1.88659E-1
1.06109E-1,-1.88049E-1
1.02729E-1,-1.85386E-1
1.00463E-1,-1.82678E-1
0.99060E-1,-1.80763E-1
0.97053E-1,-1.79245E-1
0.95153E-1,-1.78466E-1
0.92872E-1,-1.75964E-1
0.92010E-1,-1.73728E-1
0.91217E-1,-1.71897E-1
0.90148E-1,-1.70249E-1
0.89630E-1,-1.68563E-1
0.88424E-1,-1.67152E-1
0.86891E-1,-1.64955E-1
0.86090E-1,-1.62231E-1
0.86044E-1,-1.59126E-1
0.87219E-1,-1.56082E-1
0.88020E-1,-1.54205E-1
0.89134E-1,-1.52221E-1
0.90370E-1,-1.49681E-1
0.92262E-1,-1.47514E-1
0.94497E-1,-1.46186E-1
0.95764E-1,-1.45469E-1
0.97000E-1,-1.44409E-1
0.98419E-1,-1.43142E-1
1.00463E-1,-1.41914E-1
1.02371E-1,-1.40976E-1
1.04003E-1,-1.40853E-1
1.05644E-1,-1.40403E-1
1.07231E-1,-1.40182E-1
1.09199E-1,-1.40022E-1
1.10778E-1,-1.40632E-1
1.12098E-1,-1.41502E-1
1.13403E-1,-1.42578E-1
1.14059E-1,-1.43135E-1
1.15440E-1,-1.44012E-1
1.16447E-1,-1.45622E-1
1.17309E-1,-1.46919E-1
1.17813E-1,-1.48368E-1
1.18164E-1,-1.49223E-1
1.19483E-1,-1.50184E-1
1.2117E-1,-1.51863E-1
1.20002E-1,-1.54579E-1
1.20597E-1,-1.57356E-1
1.21131E-1,-1.60491E-1
1.21856E-1,-1.62315E-1
1.21986E-1,-1.64962E-1
1.21856E-1,-1.66893E-1
1.22924E-1,-1.70082E-1
1.23336E-1,-1.73904E-1
1.21315E-1,-1.76612E-1
1.19911E-1,-1.79908E-1
1.18934E-1,-1.82205E-1
1.17713E-1,-1.85180E-1
1.16241E-1,-1.87614E-1
1.14402E-1,-1.90071E-1
1.13121E-1,-1.91932E-1
1.11129E-1,-1.93702E-1
1.09611E-1,-1.95701E-1
1.08017E-1,-1.97845E-1
1.06895E-1,-2.00363E-1
1.04446E-1,-2.02713E-1
1.01623E-1,-2.05429E-1
0.98609E-1,-2.07092E-1
0.95695E-1,-2.07641E-1
0.93147E-1,-2.09526E-1
0.89721E-1,-2.10731E-1
0.86982E-1,-2.11509E-1
0.83450E-1,-2.11326E-1
