CITIFILE A.01.00
#NA VERSION HP8720D.06.14
NAME DATA
VAR FREQ MAG 1601
DATA S[1,1] RI

SEG_LIST_BEGIN
SEG 1000000000 8000000000 1601
SEG_LIST_END
BEGIN
2.74597E-1,-4.65896E-1
2.50335E-1,-4.67651E-1
2.24136E-1,-4.66659E-1
2.01599E-1,-4.64508E-1
1.83013E-1,-4.61578E-1
1.65008E-1,-4.60479E-1
1.46820E-1,-4.56878E-1
1.32324E-1,-4.55810E-1
1.17279E-1,-4.56268E-1
1.00677E-1,-4.56100E-1
0.82412E-1,-4.56527E-1
0.64025E-1,-4.54299E-1
0.45425E-1,-4.50225E-1
0.30929E-1,-4.45251E-1
0.13855E-1,-4.41680E-1
-2.85339E-3,-4.35104E-1
-1.60369E-2,-4.27337E-1
-2.84118E-2,-4.18258E-1
-3.86505E-2,-4.11636E-1
-4.76532E-2,-4.07165E-1
-5.81207E-2,-4.03442E-1
-6.87255E-2,-4.00634E-1
-8.38012E-2,-3.98651E-1
-9.98535E-2,-3.90747E-1
-1.13342E-1,-3.806E-1
-1.23458E-1,-3.71139E-1
-1.31485E-1,-3.64852E-1
-1.41815E-1,-3.59970E-1
-1.54418E-1,-3.53790E-1
-1.67984E-1,-3.46450E-1
-1.81579E-1,-3.34167E-1
-1.90460E-1,-3.22143E-1
-1.987E-1,-3.11859E-1
-2.06390E-1,-3.00598E-1
-2.10845E-1,-2.88757E-1
-2.14263E-1,-2.81189E-1
-2.20108E-1,-2.74810E-1
-2.26837E-1,-2.66357E-1
-2.31308E-1,-2.57766E-1
-2.34558E-1,-2.46475E-1
-2.36663E-1,-2.43911E-1
-2.43988E-1,-2.44262E-1
-2.55813E-1,-2.40509E-1
-2.66265E-1,-2.34680E-1
-2.77343E-1,-2.27752E-1
-2.89245E-1,-2.18292E-1
-3.00506E-1,-2.06726E-1
-3.08807E-1,-1.93145E-1
-3.16482E-1,-1.81381E-1
-3.23837E-1,-1.68289E-1
-3.30978E-1,-1.53579E-1
-3.36837E-1,-1.37603E-1
-3.37204E-1,-1.19812E-1
-3.37799E-1,-1.06674E-1
-3.37219E-1,-9.44976E-2
-3.38424E-1,-8.44879E-2
-3.41415E-1,-7.29675E-2
-3.41201E-1,-6.05316E-2
-3.41934E-1,-4.99725E-2
-3.43673E-1,-3.95507E-2
-3.43444E-1,-2.74658E-2
-3.42758E-1,-1.73645E-2
-3.45321E-1,-9.79614E-3
-3.49792E-1,0.02090E-1
-3.51043E-1,0.16967E-1
-3.49838E-1,0.29830E-1
-3.48571E-1,0.41397E-1
-3.48129E-1,0.52871E-1
-3.47396E-1,0.66177E-1
-3.43811E-1,0.79116E-1
-3.39035E-1,0.89981E-1
-3.36090E-1,0.98571E-1
-3.34549E-1,1.07605E-1
-3.34137E-1,1.18118E-1
-3.32977E-1,1.30828E-1
-3.30093E-1,1.44012E-1
-3.26461E-1,1.57226E-1
-3.22601E-1,1.70593E-1
-3.15673E-1,1.84677E-1
-3.08197E-1,1.99020E-1
-2.96234E-1,2.10571E-1
-2.86621E-1,2.17453E-1
-2.77816E-1,2.24334E-1
-2.73086E-1,2.31399E-1
-2.67593E-1,2.40753E-1
-2.60711E-1,2.50656E-1
-2.53601E-1,2.61138E-1
-2.44796E-1,2.71316E-1
-2.35107E-1,2.81555E-1
-2.24975E-1,2.88757E-1
-2.15042E-1,2.96478E-1
-2.05673E-1,3.04794E-1
-1.94625E-1,3.13980E-1
-1.81625E-1,3.20938E-1
-1.68121E-1,3.25988E-1
-1.55120E-1,3.28628E-1
-1.43966E-1,3.30795E-1
-1.33300E-1,3.32168E-1
-1.24496E-1,3.34304E-1
-1.15875E-1,3.36578E-1
-1.06979E-1,3.40927E-1
-9.58099E-2,3.45535E-1
-8.32977E-2,3.48465E-1
-7.13958E-2,3.48770E-1
-6.09283E-2,3.48388E-1
-5.10864E-2,3.48342E-1
-4.23431E-2,3.48037E-1
-3.35235E-2,3.48953E-1
-2.39868E-2,3.49258E-1
-1.53656E-2,3.50219E-1
-6.27136E-3,3.52142E-1
0.05325E-1,3.53530E-1
0.16342E-1,3.52706E-1
0.26245E-1,3.51272E-1
0.35659E-1,3.49197E-1
0.43670E-1,3.48312E-1
0.52200E-1,3.49548E-1
0.63354E-1,3.51394E-1
0.74737E-1,3.51608E-1
0.87265E-1,3.50830E-1
1.00357E-1,3.49838E-1
1.15432E-1,3.46618E-1
1.30340E-1,3.40286E-1
1.42623E-1,3.31848E-1
1.52450E-1,3.23242E-1
1.60354E-1,3.15719E-1
1.68380E-1,3.09555E-1
1.77841E-1,3.03100E-1
1.86676E-1,2.94769E-1
1.94061E-1,2.86377E-1
2.00347E-1,2.78839E-1
2.07382E-1,2.71698E-1
2.15240E-1,2.65411E-1
2.22091E-1,2.57095E-1
2.30865E-1,2.48733E-1
2.35641E-1,2.39868E-1
2.42218E-1,2.29538E-1
2.47421E-1,2.20199E-1
2.52166E-1,2.11822E-1
2.56774E-1,2.02819E-1
2.61474E-1,1.93634E-1
2.66601E-1,1.85394E-1
2.70446E-1,1.75628E-1
2.74932E-1,1.66503E-1
2.79876E-1,1.57135E-1
2.84606E-1,1.46209E-1
2.88879E-1,1.33728E-1
2.90466E-1,1.21124E-1
2.90939E-1,1.09436E-1
2.90649E-1,0.99014E-1
2.91412E-1,0.88104E-1
2.90435E-1,0.77392E-1
2.89459E-1,0.68267E-1
2.90008E-1,0.59387E-1
2.90283E-1,0.48156E-1
2.89627E-1,0.36788E-1
2.88818E-1,0.24871E-1
2.85766E-1,0.13412E-1
2.81692E-1,0.01953E-1
2.78228E-1,-8.36181E-3
2.73056E-1,-1.88598E-2
2.67654E-1,-2.86102E-2
2.61383E-1,-3.90167E-2
2.54180E-1,-4.80957E-2
2.46124E-1,-5.60989E-2
2.37808E-1,-6.28509E-2
2.29515E-1,-6.84127E-2
2.22030E-1,-7.28759E-2
2.15713E-1,-7.74231E-2
2.08618E-1,-8.34045E-2
1.99722E-1,-8.81042E-2
1.90803E-1,-8.98208E-2
1.84356E-1,-8.99353E-2
1.81434E-1,-9.12475E-2
1.78939E-1,-9.64736E-2
1.73065E-1,-1.04095E-1
1.63688E-1,-1.09283E-1
1.54792E-1,-1.1203E-1
1.47338E-1,-1.14540E-1
1.38061E-1,-1.16363E-1
1.29821E-1,-1.16218E-1
1.22791E-1,-1.16432E-1
1.16294E-1,-1.15654E-1
1.10088E-1,-1.14902E-1
1.04522E-1,-1.13948E-1
9.96589E-2,-1.12152E-1
9.63325E-2,-1.10824E-1
9.32006E-2,-1.11183E-1
8.91189E-2,-1.11259E-1
8.63494E-2,-1.11137E-1
8.28361E-2,-1.13224E-1
7.79724E-2,-1.15715E-1
7.20367E-2,-1.17023E-1
6.59217E-2,-1.18141E-1
5.87768E-2,-1.17462E-1
5.26504E-2,-1.16561E-1
4.68711E-2,-1.14776E-1
4.14352E-2,-1.13067E-1
3.68423E-2,-1.11335E-1
3.20777E-2,-1.1026E-1
2.67295E-2,-1.09680E-1
2.03437E-2,-1.07303E-1
1.40800E-2,-1.05201E-1
0.83694E-2,-1.02016E-1
0.36010E-2,-9.85221E-2
-7.74383E-4,-9.48829E-2
-4.66918E-3,-9.12246E-2
-8.49151E-3,-8.83789E-2
-1.16043E-2,-8.48541E-2
-1.44119E-2,-8.18634E-2
-1.72538E-2,-7.82852E-2
-1.91993E-2,-7.52983E-2
-2.13813E-2,-7.26051E-2
-2.35786E-2,-6.98890E-2
-2.51197E-2,-6.73332E-2
-2.65197E-2,-6.56051E-2
-2.90412E-2,-6.39228E-2
-3.09982E-2,-6.15425E-2
-3.30009E-2,-6.02226E-2
-3.55911E-2,-5.91011E-2
-3.96652E-2,-5.78079E-2
-4.45709E-2,-5.46073E-2
-4.83589E-2,-4.99534E-2
-5.04989E-2,-4.49104E-2
-5.18837E-2,-4.07905E-2
-5.34668E-2,-3.75785E-2
-5.61485E-2,-3.43742E-2
-5.88417E-2,-3.00827E-2
-6.05011E-2,-2.55622E-2
-6.16035E-2,-2.18315E-2
-6.37130E-2,-1.90658E-2
-6.75048E-2,-1.55487E-2
-7.07206E-2,-9.53674E-3
-7.19261E-2,-3.24630E-3
-7.19947E-2,0.24223E-2
-7.19184E-2,0.70343E-2
-7.15332E-2,1.11770E-2
-7.20329E-2,1.51596E-2
-7.20863E-2,1.97677E-2
-7.19032E-2,2.36816E-2
-7.21511E-2,2.80876E-2
-7.10983E-2,3.28941E-2
-6.98471E-2,3.69796E-2
-6.80618E-2,4.05578E-2
-6.67572E-2,4.34532E-2
-6.62651E-2,4.62417E-2
-6.60362E-2,5.01670E-2
-6.52198E-2,5.47561E-2
-6.33926E-2,5.89523E-2
-6.17981E-2,6.32476E-2
-5.96046E-2,6.70700E-2
-5.72624E-2,7.10830E-2
-5.47218E-2,7.44857E-2
-5.28831E-2,7.84225E-2
-5.01251E-2,8.29772E-2
-4.65087E-2,8.64181E-2
-4.31060E-2,9.00230E-2
-3.86123E-2,9.30442E-2
-3.42979E-2,9.51728E-2
-3.01170E-2,9.61151E-2
-2.73780E-2,9.63897E-2
-2.51541E-2,9.77439E-2
-2.18467E-2,9.90753E-2
-1.87110E-2,9.87091E-2
-1.69830E-2,9.83924E-2
-1.55944E-2,9.82360E-2
-1.48239E-2,9.86747E-2
-1.39312E-2,9.99336E-2
-1.17721E-2,1.00814E-1
-1.00250E-2,1.01043E-1
-8.52966E-3,1.00990E-1
-8.47625E-3,1.01020E-1
-7.92694E-3,1.02729E-1
-6.08062E-3,1.04236E-1
-4.92477E-3,1.04995E-1
-3.67355E-3,1.06086E-1
-2.86102E-3,1.08100E-1
-7.20977E-4,1.10672E-1
0.17738E-2,1.11827E-1
0.36773E-2,1.14128E-1
0.65574E-2,1.16710E-1
1.01470E-2,1.18301E-1
1.21994E-2,1.19468E-1
1.47628E-2,1.21681E-1
1.77154E-2,1.23878E-1
0.21003E-1,1.26663E-1
0.25260E-1,1.29165E-1
0.30365E-1,1.30355E-1
0.34545E-1,1.30783E-1
0.37735E-1,1.31607E-1
0.41229E-1,1.32965E-1
0.45471E-1,1.34811E-1
0.50399E-1,1.36215E-1
0.55557E-1,1.36856E-1
0.61843E-1,1.37565E-1
0.68725E-1,1.37130E-1
0.75515E-1,1.34590E-1
0.81382E-1,1.31141E-1
0.87608E-1,1.26899E-1
9.26895E-2,1.21826E-1
9.66491E-2,1.16294E-1
9.90219E-2,1.09993E-1
1.00830E-1,1.05217E-1
1.03805E-1,1.00593E-1
1.05361E-1,9.50317E-2
1.05590E-1,8.85925E-2
1.04858E-1,8.44268E-2
1.05255E-1,8.06121E-2
1.05987E-1,7.60192E-2
1.06498E-1,7.14416E-2
1.0466E-1,6.73294E-2
1.03065E-1,6.39648E-2
1.01463E-1,6.12869E-2
1.00235E-1,5.80215E-2
9.77401E-2,5.61370E-2
9.64431E-2,5.39932E-2
9.47418E-2,5.19409E-2
9.17587E-2,5.00946E-2
8.83255E-2,4.93545E-2
8.50982E-2,4.95376E-2
8.19778E-2,5.09109E-2
8.02307E-2,5.33752E-2
8.03985E-2,5.52825E-2
8.04443E-2,5.58548E-2
8.00323E-2,5.62667E-2
7.96661E-2,5.6427E-2
7.85751E-2,5.61142E-2
7.64465E-2,5.70220E-2
7.49359E-2,5.95397E-2
7.48748E-2,6.28051E-2
7.72705E-2,6.59027E-2
8.02536E-2,6.66503E-2
8.14895E-2,6.66351E-2
8.25653E-2,6.86035E-2
8.61358E-2,7.02285E-2
9.04007E-2,7.06481E-2
9.45205E-2,7.10296E-2
9.89685E-2,6.97403E-2
1.03065E-1,6.78634E-2
1.06750E-1,6.61163E-2
1.10534E-1,6.42089E-2
1.15173E-1,6.18896E-2
1.19247E-1,5.79071E-2
1.22131E-1,5.43060E-2
1.25488E-1,0.51040E-1
1.28570E-1,0.46432E-1
1.30874E-1,0.41885E-1
1.33117E-1,0.36979E-1
1.34475E-1,0.30830E-1
1.33995E-1,0.26161E-1
1.34773E-1,0.21637E-1
1.35337E-1,0.16098E-1
1.34841E-1,0.10276E-1
1.33094E-1,0.04509E-1
1.30424E-1,-1.22070E-4
1.27868E-1,-5.2948E-3
1.26541E-1,-1.03302E-2
1.24893E-1,-1.59759E-2
1.21498E-1,-2.17971E-2
1.17858E-1,-2.59933E-2
1.14265E-1,-3.07006E-2
1.11053E-1,-3.49922E-2
1.07723E-1,-3.98521E-2
1.03015E-1,-4.50973E-2
9.70802E-2,-4.94689E-2
9.16786E-2,-5.31616E-2
8.64257E-2,-5.59768E-2
7.94067E-2,-5.94711E-2
7.21664E-2,-6.03904E-2
6.70509E-2,-6.10542E-2
6.16264E-2,-6.22634E-2
5.56869E-2,-6.36825E-2
4.80537E-2,-6.4888E-2
3.99665E-2,-6.36024E-2
3.30448E-2,-6.16626E-2
2.59456E-2,-5.94883E-2
1.89991E-2,-5.60016E-2
1.31797E-2,-5.15556E-2
0.84457E-2,-4.72431E-2
0.37193E-2,-4.31957E-2
-3.83377E-4,-3.85265E-2
-3.63922E-3,-3.41968E-2
-6.46781E-3,-3.06205E-2
-9.82856E-3,-2.76660E-2
-1.43737E-2,-2.44274E-2
-1.86862E-2,-1.94072E-2
-2.14557E-2,-1.42250E-2
-2.37617E-2,-9.18197E-3
-2.55413E-2,-4.24480E-3
-2.68220E-2,0.03995E-2
-2.76832E-2,0.47826E-2
-2.82545E-2,0.84447E-2
-2.92253E-2,1.20163E-2
-3.05900E-2,1.57928E-2
-3.21312E-2,2.02217E-2
-3.29246E-2,2.60696E-2
-3.16124E-2,3.21121E-2
-2.89039E-2,3.64189E-2
-2.72979E-2,3.90625E-2
-2.6474E-2,4.23240E-2
-2.57110E-2,4.59671E-2
-2.49176E-2,5.01403E-2
-2.29415E-2,5.50155E-2
-1.97792E-2,5.83877E-2
-1.76506E-2,6.09054E-2
-1.62124E-2,6.33621E-2
-1.47857E-2,6.72378E-2
-1.21536E-2,7.0961E-2
-8.56781E-3,7.39707E-2
-5.05828E-3,7.57637E-2
-2.59399E-3,7.65647E-2
-1.20163E-3,7.79113E-2
0.05493E-2,7.98988E-2
0.25825E-2,8.16650E-2
0.49209E-2,8.33816E-2
0.82244E-2,8.49723E-2
1.16920E-2,8.46366E-2
1.36337E-2,8.37974E-2
1.51214E-2,8.35762E-2
1.67694E-2,8.33358E-2
1.83792E-2,8.25424E-2
1.95388E-2,8.25195E-2
2.12707E-2,8.15811E-2
2.20260E-2,8.04824E-2
2.23846E-2,7.96661E-2
2.27050E-2,7.95517E-2
2.35672E-2,7.81173E-2
2.20108E-2,7.78045E-2
2.19497E-2,7.95440E-2
2.22091E-2,8.04748E-2
2.22091E-2,8.18634E-2
2.35366E-2,8.30154E-2
2.41851E-2,8.39843E-2
2.46276E-2,8.48617E-2
2.52456E-2,8.66546E-2
2.64968E-2,8.79592E-2
2.71987E-2,8.86993E-2
2.74810E-2,9.02862E-2
2.87780E-2,9.15832E-2
2.89459E-2,9.22851E-2
2.86483E-2,9.34600E-2
2.84500E-2,9.61303E-2
2.97241E-2,9.91668E-2
3.21121E-2,1.01059E-1
3.42788E-2,1.01646E-1
3.50799E-2,1.01799E-1
3.56597E-2,1.02638E-1
3.63540E-2,1.03759E-1
3.67507E-2,1.04866E-1
3.74603E-2,1.06178E-1
3.84445E-2,1.07765E-1
3.95965E-2,1.09405E-1
4.09011E-2,1.11267E-1
4.35333E-2,1.13220E-1
4.59442E-2,1.13693E-1
4.72869E-2,1.14837E-1
4.95452E-2,1.15692E-1
5.08422E-2,1.17294E-1
5.2948E-2,1.19873E-1
5.64193E-2,1.22840E-1
6.03942E-2,1.24092E-1
0.63819E-1,1.25373E-1
0.67901E-1,1.26594E-1
0.71891E-1,1.26792E-1
0.75973E-1,1.27876E-1
0.80001E-1,1.27868E-1
0.83465E-1,1.27784E-1
0.86555E-1,1.28768E-1
0.91285E-1,1.29913E-1
0.96130E-1,1.2957E-1
1.00128E-1,1.28585E-1
1.03653E-1,1.27441E-1
1.08261E-1,1.27410E-1
1.12838E-1,1.26342E-1
1.17889E-1,1.23580E-1
1.21139E-1,1.20178E-1
1.23947E-1,1.17385E-1
1.25877E-1,1.14891E-1
1.29257E-1,1.12953E-1
1.33552E-1,1.10450E-1
1.37161E-1,1.05865E-1
1.39694E-1,1.00616E-1
1.40876E-1,0.95703E-1
1.40670E-1,0.91918E-1
1.41937E-1,0.89004E-1
1.43554E-1,0.85739E-1
1.45149E-1,0.82138E-1
1.46225E-1,0.77179E-1
1.45797E-1,0.72189E-1
1.43920E-1,0.69397E-1
1.43585E-1,0.68069E-1
1.45706E-1,0.65811E-1
1.46408E-1,0.61500E-1
1.45378E-1,0.57914E-1
1.43325E-1,0.55366E-1
1.43173E-1,0.54283E-1
1.43501E-1,0.52299E-1
1.43447E-1,0.48812E-1
1.41853E-1,0.46455E-1
1.40739E-1,0.43945E-1
1.39198E-1,0.41519E-1
1.37336E-1,0.39482E-1
1.35765E-1,0.37551E-1
1.33514E-1,0.35202E-1
1.30844E-1,0.33584E-1
1.26892E-1,0.33332E-1
1.25961E-1,0.33645E-1
1.24877E-1,3.22113E-2
1.22268E-1,3.01818E-2
1.18835E-1,2.93273E-2
1.15295E-1,2.98309E-2
1.13235E-1,3.04260E-2
1.11908E-1,3.09448E-2
1.09649E-1,3.07922E-2
1.06750E-1,3.21655E-2
1.06063E-1,3.42559E-2
1.06552E-1,3.52935E-2
1.07231E-1,3.57666E-2
1.07109E-1,3.45916E-2
1.05575E-1,3.28674E-2
1.02798E-1,3.2547E-2
1.00219E-1,3.50570E-2
1.00410E-1,3.72924E-2
1.00830E-1,3.87725E-2
1.00662E-1,3.93753E-2
1.00669E-1,4.07943E-2
1.01127E-1,4.13360E-2
1.01722E-1,4.17938E-2
1.02081E-1,4.11758E-2
1.00494E-1,4.06799E-2
9.81445E-2,4.17327E-2
9.74578E-2,4.46929E-2
9.82666E-2,4.76684E-2
9.98077E-2,4.86450E-2
1.01013E-1,4.89349E-2
1.01562E-1,4.91333E-2
1.01715E-1,4.90417E-2
1.02241E-1,4.85839E-2
1.0186E-1,4.87976E-2
1.00891E-1,4.85611E-2
1.00616E-1,4.92858E-2
1.00288E-1,5.04226E-2
1.00441E-1,5.13763E-2
1.02180E-1,5.25283E-2
1.03096E-1,5.14984E-2
1.02851E-1,5.056E-2
1.02249E-1,4.96521E-2
1.00563E-1,4.87976E-2
9.96246E-2,4.92095E-2
9.85183E-2,4.96063E-2
9.69848E-2,5.02929E-2
9.55886E-2,5.10253E-2
9.38644E-2,5.19180E-2
9.23538E-2,5.47103E-2
9.15756E-2,5.70602E-2
9.17587E-2,5.90972E-2
9.08050E-2,6.08139E-2
8.98666E-2,6.37512E-2
8.97827E-2,6.74362E-2
9.08432E-2,7.02896E-2
9.18197E-2,7.20291E-2
9.21402E-2,7.37533E-2
9.20333E-2,7.59506E-2
9.18121E-2,7.85903E-2
9.20486E-2,8.17184E-2
9.29412E-2,8.56475E-2
9.47265E-2,8.92028E-2
9.66033E-2,9.20791E-2
9.84954E-2,9.51080E-2
1.01539E-1,9.85641E-2
1.04713E-1,1.00860E-1
1.08177E-1,1.02859E-1
1.10481E-1,1.03775E-1
1.13777E-1,1.06353E-1
1.17279E-1,1.08238E-1
1.20414E-1,1.09214E-1
1.24221E-1,1.11724E-1
1.28692E-1,1.13357E-1
1.34231E-1,1.14517E-1
1.40350E-1,1.13403E-1
1.43966E-1,1.12121E-1
1.46789E-1,1.11892E-1
1.51123E-1,1.11816E-1
1.55395E-1,1.11038E-1
1.59881E-1,1.10321E-1
1.64077E-1,1.09832E-1
1.68228E-1,1.08123E-1
1.72821E-1,1.06155E-1
1.76086E-1,1.03851E-1
1.79580E-1,1.02615E-1
1.83456E-1,0.99945E-1
1.86554E-1,0.96984E-1
1.89590E-1,0.94802E-1
1.92810E-1,0.93322E-1
1.96502E-1,0.91079E-1
2.00744E-1,0.88043E-1
2.04132E-1,0.84121E-1
2.06848E-1,0.79666E-1
2.08450E-1,0.75485E-1
2.10830E-1,0.72021E-1
2.12371E-1,0.68512E-1
2.14630E-1,0.65277E-1
2.17392E-1,0.59951E-1
2.17941E-1,0.55007E-1
2.18002E-1,0.51132E-1
2.19284E-1,0.47470E-1
2.20031E-1,0.43502E-1
2.20565E-1,0.39444E-1
2.21298E-1,0.35697E-1
2.21702E-1,0.31524E-1
2.22396E-1,0.27404E-1
2.21870E-1,0.22468E-1
2.20260E-1,0.18119E-1
2.17849E-1,0.15312E-1
2.17109E-1,0.12931E-1
2.17712E-1,0.10154E-1
2.16941E-1,0.06675E-1
2.16629E-1,0.02677E-1
2.15538E-1,-1.68609E-3
2.13104E-1,-4.68444E-3
2.12005E-1,-7.42340E-3
2.09938E-1,-1.13067E-2
2.07099E-1,-1.40991E-2
2.04101E-1,-1.62963E-2
2.01522E-1,-1.78985E-2
1.98944E-1,-1.98059E-2
1.97044E-1,-2.13546E-2
1.94137E-1,-2.23465E-2
1.92161E-1,-2.31857E-2
1.90094E-1,-2.31323E-2
1.89468E-1,-2.41012E-2
1.87889E-1,-2.55203E-2
1.86294E-1,-2.66037E-2
1.84295E-1,-2.74124E-2
1.82724E-1,-2.80914E-2
1.81045E-1,-2.88925E-2
1.78985E-1,-2.92663E-2
1.77238E-1,-2.94876E-2
1.75849E-1,-2.94189E-2
1.74202E-1,-2.91595E-2
1.72920E-1,-2.84347E-2
1.71646E-1,-2.73742E-2
1.71661E-1,-2.64053E-2
1.72027E-1,-2.63214E-2
1.72195E-1,-2.70080E-2
1.7202E-1,-2.76489E-2
1.71249E-1,-2.94036E-2
1.69876E-1,-3.00903E-2
1.67633E-1,-3.06930E-2
1.65679E-1,-3.02734E-2
1.64726E-1,-2.93655E-2
1.64306E-1,-2.93960E-2
1.62788E-1,-2.89764E-2
1.61560E-1,-2.83203E-2
1.61926E-1,-2.66723E-2
1.62422E-1,-2.57797E-2
1.63284E-1,-2.64663E-2
1.62757E-1,-2.75573E-2
1.61582E-1,-2.75344E-2
1.61041E-1,-2.61535E-2
1.61598E-1,-2.38723E-2
1.64131E-1,-2.46505E-2
1.65565E-1,-2.62298E-2
1.64367E-1,-2.74810E-2
1.63978E-1,-2.70690E-2
1.63406E-1,-2.65579E-2
1.64627E-1,-2.62146E-2
1.65939E-1,-2.75421E-2
1.66305E-1,-2.79922E-2
1.66404E-1,-2.89154E-2
1.65275E-1,-2.98156E-2
1.64848E-1,-3.04031E-2
1.63795E-1,-3.01895E-2
1.63627E-1,-2.97012E-2
1.64009E-1,-2.98233E-2
1.64321E-1,-3.10974E-2
1.63436E-1,-3.15856E-2
1.62803E-1,-3.22876E-2
1.61499E-1,-3.24096E-2
1.60202E-1,-3.24401E-2
1.59484E-1,-3.20129E-2
1.58233E-1,-3.19442E-2
1.57600E-1,-3.11889E-2
1.56242E-1,-3.05023E-2
1.55166E-1,-2.9953E-2
1.54411E-1,-2.91366E-2
1.53823E-1,-2.79922E-2
1.53602E-1,-2.65426E-2
1.52916E-1,-2.56958E-2
1.51771E-1,-2.37121E-2
1.51817E-1,-2.02713E-2
1.53892E-1,-1.82647E-2
1.56044E-1,-1.70517E-2
1.56845E-1,-1.67846E-2
1.57890E-1,-1.49154E-2
1.58981E-1,-1.36642E-2
1.61048E-1,-1.20010E-2
1.62208E-1,-1.09710E-2
1.63787E-1,-9.71984E-3
1.65100E-1,-8.09478E-3
1.67434E-1,-6.00433E-3
1.69624E-1,-4.95147E-3
1.71966E-1,-3.29589E-3
1.74652E-1,-2.11334E-3
1.77665E-1,-5.0354E-4
1.81274E-1,-3.81469E-4
1.83990E-1,0.00030E-1
1.86798E-1,0.00129E-1
1.89888E-1,0.00572E-1
1.93038E-1,0.01113E-1
1.97425E-1,0.01098E-1
2.00676E-1,0.00152E-1
2.05223E-1,-1.18255E-3
2.08816E-1,-3.19671E-3
2.11769E-1,-6.30188E-3
2.14904E-1,-8.43048E-3
2.17460E-1,-1.11084E-2
2.20062E-1,-1.38626E-2
2.22946E-1,-1.63955E-2
2.2509E-1,-1.92031E-2
2.27081E-1,-2.10876E-2
2.30018E-1,-2.36511E-2
2.34085E-1,-2.60391E-2
2.37510E-1,-3.03573E-2
2.40043E-1,-3.50418E-2
2.41081E-1,-4.02679E-2
2.41561E-1,-4.35714E-2
2.42950E-1,-4.66918E-2
2.44796E-1,-5.06286E-2
2.46093E-1,-5.46875E-2
2.46864E-1,-5.82656E-2
2.47863E-1,-6.18820E-2
2.48764E-1,-6.66198E-2
2.49008E-1,-7.09381E-2
2.49214E-1,-7.55081E-2
2.48680E-1,-8.10852E-2
2.46994E-1,-8.61129E-2
2.44819E-1,-8.94470E-2
2.42935E-1,-9.20181E-2
2.41912E-1,-9.56420E-2
2.41073E-1,-9.86785E-2
2.39250E-1,-1.03241E-1
2.36511E-1,-1.06948E-1
2.34298E-1,-1.10199E-1
2.32132E-1,-1.13227E-1
2.29736E-1,-1.16279E-1
2.27157E-1,-1.20025E-1
2.23426E-1,-1.22444E-1
2.21176E-1,-1.24008E-1
2.18574E-1,-1.26411E-1
2.16140E-1,-1.28059E-1
2.14233E-1,-1.30058E-1
2.11860E-1,-1.31744E-1
2.10006E-1,-1.33537E-1
2.08358E-1,-1.35437E-1
2.06176E-1,-1.36749E-1
2.04818E-1,-1.37542E-1
2.02339E-1,-1.38687E-1
2.00782E-1,-1.39419E-1
1.99249E-1,-1.39770E-1
1.98455E-1,-1.40884E-1
1.97418E-1,-1.42501E-1
1.96014E-1,-1.43646E-1
1.94084E-1,-1.44371E-1
1.92298E-1,-1.45217E-1
1.91551E-1,-1.46095E-1
1.90216E-1,-1.48056E-1
1.87400E-1,-1.49070E-1
1.84417E-1,-1.50184E-1
1.81022E-1,-1.49139E-1
1.79916E-1,-1.47369E-1
1.79657E-1,-1.47140E-1
1.79740E-1,-1.47918E-1
1.79412E-1,-1.49299E-1
1.78131E-1,-1.50322E-1
1.76986E-1,-1.51222E-1
1.75262E-1,-1.52481E-1
1.74186E-1,-1.54296E-1
1.72599E-1,-1.56616E-1
1.69776E-1,-1.57363E-1
1.68014E-1,-1.57913E-1
1.66435E-1,-1.57363E-1
1.65962E-1,-1.57112E-1
1.65657E-1,-1.58607E-1
1.65618E-1,-1.60491E-1
1.64817E-1,-1.61766E-1
1.62971E-1,-1.62422E-1
1.62674E-1,-1.63169E-1
1.62681E-1,-1.65229E-1
1.61644E-1,-1.66534E-1
1.60697E-1,-1.67991E-1
1.59843E-1,-1.69357E-1
1.58943E-1,-1.70433E-1
1.57600E-1,-1.72782E-1
1.55311E-1,-1.74652E-1
1.53419E-1,-1.75712E-1
1.51779E-1,-1.76635E-1
1.49330E-1,-1.77795E-1
1.47064E-1,-1.77764E-1
1.45484E-1,-1.78260E-1
1.43585E-1,-1.79115E-1
1.41021E-1,-1.79786E-1
1.39007E-1,-1.80374E-1
1.35765E-1,-1.81045E-1
1.32995E-1,-1.80717E-1
1.30691E-1,-1.80389E-1
1.27792E-1,-1.80641E-1
1.24900E-1,-1.80793E-1
1.22306E-1,-1.78886E-1
1.20155E-1,-1.77497E-1
1.19453E-1,-1.76681E-1
1.18782E-1,-1.75712E-1
1.17149E-1,-1.75689E-1
1.15669E-1,-1.75254E-1
1.14807E-1,-1.74522E-1
1.14624E-1,-1.74049E-1
1.13662E-1,-1.74011E-1
1.12876E-1,-1.74743E-1
1.11114E-1,-1.74881E-1
1.08932E-1,-1.74224E-1
1.07116E-1,-1.72996E-1
1.06414E-1,-1.70730E-1
1.06987E-1,-1.68998E-1
1.07521E-1,-1.68243E-1
1.07513E-1,-1.67320E-1
1.07803E-1,-1.66297E-1
1.08764E-1,-1.64909E-1
1.09726E-1,-1.64672E-1
1.10458E-1,-1.64833E-1
1.10130E-1,-1.64733E-1
1.10305E-1,-1.63780E-1
1.10824E-1,-1.62948E-1
1.11564E-1,-1.62445E-1
1.12197E-1,-1.62742E-1
1.13014E-1,-1.62963E-1
1.13197E-1,-1.63108E-1
1.13853E-1,-1.63215E-1
1.14006E-1,-1.64703E-1
1.14028E-1,-1.65077E-1
1.13525E-1,-1.66145E-1
1.13426E-1,-1.66511E-1
1.13243E-1,-1.67358E-1
1.13029E-1,-1.68113E-1
1.12587E-1,-1.69334E-1
1.12411E-1,-1.70471E-1
1.11389E-1,-1.71302E-1
1.11877E-1,-1.71798E-1
1.11976E-1,-1.72935E-1
1.09237E-1,-1.74804E-1
1.09344E-1,-1.75910E-1
1.09138E-1,-1.77970E-1
1.08573E-1,-1.79420E-1
1.08062E-1,-1.82014E-1
1.07383E-1,-1.83311E-1
1.07315E-1,-1.85798E-1
1.06529E-1,-1.88201E-1
1.04126E-1,-1.90841E-1
1.02760E-1,-1.92512E-1
0.99754E-1,-1.93801E-1
0.99067E-1,-1.94938E-1
0.97251E-1,-1.96266E-1
0.94619E-1,-1.97990E-1
0.93292E-1,-1.98646E-1
0.91186E-1,-1.99127E-1
0.89668E-1,-1.99668E-1
0.88111E-1,-2.01339E-1
0.86708E-1,-2.01850E-1
0.84869E-1,-2.03712E-1
0.82313E-1,-2.04155E-1
0.80192E-1,-2.05284E-1
0.77163E-1,-2.05207E-1
0.75462E-1,-2.06008E-1
0.72685E-1,-2.06550E-1
0.70549E-1,-2.06794E-1
