CITIFILE A.01.00
#NA VERSION HP8720D.06.14
NAME DATA
VAR FREQ MAG 1601
DATA S[1,1] RI

SEG_LIST_BEGIN
SEG 1000000000 8000000000 1601
SEG_LIST_END
BEGIN
2.28607E-1,-4.14474E-1
2.10327E-1,-4.17892E-1
1.89361E-1,-4.19754E-1
1.69616E-1,-4.18884E-1
1.52923E-1,-4.15802E-1
1.38305E-1,-4.13970E-1
1.22314E-1,-4.14306E-1
1.05285E-1,-4.13452E-1
0.88592E-1,-4.10705E-1
0.71319E-1,-4.05441E-1
0.54595E-1,-3.98956E-1
0.42053E-1,-3.89816E-1
0.32714E-1,-3.82186E-1
0.26062E-1,-3.76968E-1
0.16754E-1,-3.74084E-1
0.06622E-1,-3.70239E-1
-1.34277E-3,-3.66241E-1
-1.01165E-2,-3.63159E-1
-2.04772E-2,-3.60290E-1
-3.05633E-2,-3.56323E-1
-3.97796E-2,-3.50708E-1
-4.72106E-2,-3.46313E-1
-5.66406E-2,-3.43811E-1
-6.76269E-2,-3.38134E-1
-7.39593E-2,-3.29498E-1
-7.83386E-2,-3.24813E-1
-8.41674E-2,-3.22814E-1
-9.25598E-2,-3.23516E-1
-1.03302E-1,-3.21685E-1
-1.13998E-1,-3.18359E-1
-1.26144E-1,-3.12957E-1
-1.36627E-1,-3.0513E-1
-1.44516E-1,-2.98217E-1
-1.52633E-1,-2.90954E-1
-1.58386E-1,-2.82440E-1
-1.62155E-1,-2.78320E-1
-1.68899E-1,-2.75787E-1
-1.77185E-1,-2.71423E-1
-1.86004E-1,-2.65655E-1
-1.92550E-1,-2.53662E-1
-1.94549E-1,-2.50595E-1
-2.01141E-1,-2.51068E-1
-2.1138E-1,-2.49008E-1
-2.22518E-1,-2.46261E-1
-2.33551E-1,-2.41256E-1
-2.46154E-1,-2.33871E-1
-2.57858E-1,-2.24304E-1
-2.66769E-1,-2.13012E-1
-2.73254E-1,-2.02331E-1
-2.79632E-1,-1.93130E-1
-2.87139E-1,-1.83364E-1
-2.93869E-1,-1.73400E-1
-2.99835E-1,-1.63085E-1
-3.05389E-1,-1.52114E-1
-3.11386E-1,-1.41601E-1
-3.17977E-1,-1.31805E-1
-3.25882E-1,-1.20483E-1
-3.31695E-1,-1.06414E-1
-3.36349E-1,-9.32312E-2
-3.39538E-1,-7.97119E-2
-3.41674E-1,-6.57348E-2
-3.42086E-1,-5.31616E-2
-3.44467E-1,-4.28466E-2
-3.48114E-1,-3.07922E-2
-3.50662E-1,-1.62963E-2
-3.50585E-1,-1.92260E-3
-3.49960E-1,0.11657E-1
-3.47488E-1,0.24490E-1
-3.44467E-1,0.37490E-1
-3.39752E-1,0.48111E-1
-3.34808E-1,0.56167E-1
-3.32931E-1,0.61096E-1
-3.35556E-1,0.68878E-1
-3.37951E-1,0.79193E-1
-3.39508E-1,0.92437E-1
-3.37860E-1,1.06781E-1
-3.34365E-1,1.20239E-1
-3.30917E-1,1.32522E-1
-3.25271E-1,1.45675E-1
-3.19366E-1,1.57028E-1
-3.12866E-1,1.66793E-1
-3.06182E-1,1.75689E-1
-3.00216E-1,1.83288E-1
-2.97103E-1,1.90200E-1
-2.94387E-1,1.97448E-1
-2.93228E-1,2.08084E-1
-2.91091E-1,2.20108E-1
-2.85736E-1,2.33337E-1
-2.79312E-1,2.47268E-1
-2.70767E-1,2.58056E-1
-2.63565E-1,2.68463E-1
-2.55233E-1,2.79953E-1
-2.45803E-1,2.90176E-1
-2.36175E-1,2.99636E-1
-2.25204E-1,3.09371E-1
-2.13195E-1,3.16253E-1
-2.02896E-1,3.22311E-1
-1.92169E-1,3.28064E-1
-1.82922E-1,3.33313E-1
-1.74621E-1,3.39172E-1
-1.65924E-1,3.46237E-1
-1.55639E-1,3.53378E-1
-1.44012E-1,3.61129E-1
-1.32461E-1,3.65615E-1
-1.21032E-1,3.70300E-1
-1.10992E-1,3.74557E-1
-9.98992E-2,3.80004E-1
-8.79058E-2,3.85147E-1
-7.60040E-2,3.90731E-1
-6.32324E-2,3.94302E-1
-4.99115E-2,3.99765E-1
-3.56140E-2,4.03747E-1
-1.95465E-2,4.05715E-1
-4.42504E-3,4.05532E-1
0.09353E-1,4.04937E-1
0.22186E-1,4.05319E-1
0.34622E-1,4.04983E-1
0.48889E-1,4.06723E-1
0.63964E-1,4.06845E-1
0.79635E-1,4.04693E-1
0.95001E-1,4.02557E-1
1.11694E-1,3.98468E-1
1.27990E-1,3.91784E-1
1.41784E-1,3.84063E-1
1.53045E-1,3.75915E-1
1.64093E-1,3.69232E-1
1.75323E-1,3.63189E-1
1.88018E-1,3.56506E-1
2.00042E-1,3.47930E-1
2.09930E-1,3.39599E-1
2.20672E-1,3.31115E-1
2.30926E-1,3.23211E-1
2.42981E-1,3.14971E-1
2.53753E-1,3.04077E-1
2.64495E-1,2.93792E-1
2.72735E-1,2.82806E-1
2.83905E-1,2.69775E-1
2.91595E-1,2.55035E-1
2.96447E-1,2.41272E-1
3.00781E-1,2.28149E-1
3.05542E-1,2.16857E-1
3.09936E-1,2.04834E-1
3.13842E-1,1.92230E-1
3.17199E-1,1.81274E-1
3.21594E-1,1.69784E-1
3.26293E-1,1.57684E-1
3.31085E-1,1.42517E-1
3.31634E-1,1.25946E-1
3.29452E-1,1.12152E-1
3.27392E-1,1.02493E-1
3.27606E-1,0.91842E-1
3.27362E-1,0.80230E-1
3.26751E-1,0.69885E-1
3.27026E-1,0.59509E-1
3.26965E-1,0.46814E-1
3.25592E-1,0.34957E-1
3.24585E-1,0.23605E-1
3.22921E-1,0.10437E-1
3.20556E-1,-2.24304E-3
3.16528E-1,-1.56860E-2
3.11370E-1,-2.83203E-2
3.05160E-1,-4.02984E-2
2.97363E-1,-5.26733E-2
2.88681E-1,-6.28509E-2
2.80044E-1,-7.15484E-2
2.71362E-1,-7.94067E-2
2.61917E-1,-8.58306E-2
2.52807E-1,-9.12170E-2
2.45681E-1,-9.56268E-2
2.38937E-1,-1.02142E-1
2.30300E-1,-1.07162E-1
2.21923E-1,-1.09550E-1
2.16232E-1,-1.11732E-1
2.13272E-1,-1.15112E-1
2.09693E-1,-1.21803E-1
2.02804E-1,-1.30508E-1
1.93794E-1,-1.37504E-1
1.84394E-1,-1.40708E-1
1.77406E-1,-1.44195E-1
1.69181E-1,-1.48735E-1
1.61407E-1,-1.51809E-1
1.54213E-1,-1.55143E-1
1.46858E-1,-1.59095E-1
1.37908E-1,-1.62735E-1
1.28364E-1,-1.64985E-1
1.19751E-1,-1.65748E-1
1.12243E-1,-1.66557E-1
1.04995E-1,-1.68121E-1
0.98037E-1,-1.68853E-1
0.92788E-1,-1.70326E-1
0.85258E-1,-1.74766E-1
0.74958E-1,-1.78443E-1
0.63842E-1,-1.79176E-1
0.52528E-1,-1.78398E-1
0.42244E-1,-1.76162E-1
0.33676E-1,-1.74209E-1
0.24116E-1,-1.71897E-1
0.14915E-1,-1.68937E-1
0.06576E-1,-1.65596E-1
-8.69751E-4,-1.61567E-1
-8.26263E-3,-1.58630E-1
-1.70211E-2,-1.54335E-1
-2.54592E-2,-1.50703E-1
-3.39050E-2,-1.46232E-1
-4.15649E-2,-1.40922E-1
-4.90341E-2,-1.35803E-1
-5.59692E-2,-1.29638E-1
-6.26144E-2,-1.22947E-1
-6.8573E-2,-1.15753E-1
-7.35473E-2,-1.09161E-1
-7.72171E-2,-1.02073E-1
-8.05435E-2,-9.55505E-2
-8.43353E-2,-8.92868E-2
-8.77456E-2,-8.30383E-2
-9.00497E-2,-7.64770E-2
-9.32235E-2,-7.07931E-2
-9.69772E-2,-6.44302E-2
-9.89761E-2,-5.65414E-2
-9.97009E-2,-4.95834E-2
-9.99755E-2,-4.40902E-2
-1.02088E-1,-3.94287E-2
-1.05102E-1,-3.31573E-2
-1.07421E-1,-2.55661E-2
-1.07955E-1,-1.76467E-2
-1.07730E-1,-1.05361E-2
-1.07627E-1,-4.37927E-3
-1.08554E-1,0.20027E-2
-1.08509E-1,0.94642E-2
-1.07498E-1,1.69563E-2
-1.05957E-1,2.31933E-2
-1.04881E-1,2.88887E-2
-1.04541E-1,3.43170E-2
-1.04545E-1,4.15878E-2
-1.02661E-1,4.95452E-2
-9.90867E-2,5.67321E-2
-9.50965E-2,6.28852E-2
-9.03701E-2,6.74247E-2
-8.69026E-2,7.07588E-2
-8.37059E-2,7.43980E-2
-8.10394E-2,7.76786E-2
-7.89108E-2,8.19129E-2
-7.53860E-2,8.64067E-2
-7.11784E-2,9.01222E-2
-6.69555E-2,9.30671E-2
-6.32209E-2,9.50813E-2
-6.02760E-2,9.75456E-2
-5.73501E-2,1.00345E-1
-5.41534E-2,1.0289E-1
-5.08041E-2,1.05278E-1
-4.83245E-2,1.08245E-1
-4.49028E-2,1.12102E-1
-4.00161E-2,1.15440E-1
-3.57551E-2,1.16455E-1
-3.33519E-2,1.18629E-1
-3.01437E-2,1.22146E-1
-2.60162E-2,1.25457E-1
-2.12631E-2,1.28707E-1
-1.55715E-2,1.31195E-1
-9.49859E-3,1.32446E-1
-3.92913E-3,1.32530E-1
0.00404E-1,1.31935E-1
0.04310E-1,1.31881E-1
0.08621E-1,1.31729E-1
0.12474E-1,1.30828E-1
0.16021E-1,1.29806E-1
0.18867E-1,1.28547E-1
0.21148E-1,1.27761E-1
0.23407E-1,1.27471E-1
0.26504E-1,1.27319E-1
0.29525E-1,1.26510E-1
0.32547E-1,1.25320E-1
3.43017E-2,1.23855E-1
3.59497E-2,1.23886E-1
3.89938E-2,1.24061E-1
4.13208E-2,1.23542E-1
4.35104E-2,1.23825E-1
4.61578E-2,1.24992E-1
0.50727E-1,1.26800E-1
0.56503E-1,1.26831E-1
0.62225E-1,1.25701E-1
6.87332E-2,1.2397E-1
7.39212E-2,1.19453E-1
7.63549E-2,1.15051E-1
7.79876E-2,1.12724E-1
7.94677E-2,1.10595E-1
8.17565E-2,1.10061E-1
8.55560E-2,1.08795E-1
8.88061E-2,1.0672E-1
9.28344E-2,1.04522E-1
9.55963E-2,1.01821E-1
9.81750E-2,9.86633E-2
1.00708E-1,9.51843E-2
1.02294E-1,9.19189E-2
1.03775E-1,8.88519E-2
1.06338E-1,8.71963E-2
1.09252E-1,8.44726E-2
1.12808E-1,7.95135E-2
1.15089E-1,7.40661E-2
1.16317E-1,6.81610E-2
1.17858E-1,6.23474E-2
1.18400E-1,5.54962E-2
1.16699E-1,4.79049E-2
1.13586E-1,4.32891E-2
1.11953E-1,3.96575E-2
1.10595E-1,3.57666E-2
1.08856E-1,3.03344E-2
1.05697E-1,2.66113E-2
1.04492E-1,2.38037E-2
1.03298E-1,1.93824E-2
1.00807E-1,1.42707E-2
9.63859E-2,0.99716E-2
9.11140E-2,0.71487E-2
8.67424E-2,0.57449E-2
8.33549E-2,0.46806E-2
7.89184E-2,0.33302E-2
7.53555E-2,0.25672E-2
7.18345E-2,0.15678E-2
6.77413E-2,0.04234E-2
6.24294E-2,-8.25882E-4
5.60188E-2,-8.25882E-4
4.90398E-2,0.12283E-2
4.34455E-2,0.55007E-2
4.07295E-2,1.02386E-2
3.87802E-2,1.30271E-2
3.56750E-2,1.52511E-2
3.27205E-2,1.86138E-2
3.03077E-2,2.17227E-2
2.74143E-2,2.52437E-2
2.48680E-2,2.97126E-2
2.37197E-2,3.53851E-2
2.50854E-2,4.04434E-2
2.66342E-2,4.33731E-2
2.65960E-2,4.61502E-2
2.72102E-2,5.09414E-2
3.02505E-2,5.48782E-2
3.35845E-2,5.74150E-2
3.72123E-2,5.97000E-2
4.1008E-2,6.00967E-2
4.37011E-2,6.03065E-2
4.57458E-2,6.04744E-2
4.74929E-2,6.12640E-2
5.02204E-2,6.22901E-2
5.30853E-2,6.21070E-2
5.47218E-2,6.23245E-2
5.72471E-2,6.34574E-2
6.00814E-2,6.31790E-2
6.26678E-2,6.28051E-2
6.56127E-2,6.17218E-2
6.65435E-2,5.97534E-2
6.62536E-2,5.96313E-2
6.75811E-2,6.08825E-2
7.04040E-2,6.08673E-2
7.19146E-2,5.91888E-2
7.21435E-2,5.84564E-2
7.22503E-2,5.94177E-2
7.81402E-2,6.05163E-2
8.07952E-2,5.92956E-2
8.35113E-2,5.77545E-2
8.55560E-2,5.52978E-2
8.74023E-2,5.32074E-2
8.96759E-2,5.05218E-2
9.14611E-2,4.71801E-2
9.24377E-2,4.35943E-2
9.28039E-2,4.08172E-2
9.27124E-2,3.80096E-2
9.33532E-2,3.61022E-2
9.45434E-2,3.38745E-2
9.50698E-2,3.10058E-2
9.54971E-2,2.92244E-2
9.77325E-2,2.69813E-2
1.00017E-1,2.2789E-2
1.00711E-1,1.74751E-2
9.90333E-2,1.20620E-2
9.66873E-2,0.87242E-2
9.55963E-2,0.56724E-2
9.38415E-2,0.16975E-2
9.08851E-2,-1.65939E-3
8.82072E-2,-4.22287E-3
8.54835E-2,-7.11441E-3
8.18252E-2,-9.88006E-3
7.84225E-2,-1.14898E-2
7.54547E-2,-1.34162E-2
7.25975E-2,-1.62391E-2
6.79817E-2,-1.92794E-2
6.21585E-2,-2.09655E-2
5.70716E-2,-2.11772E-2
5.26657E-2,-2.11753E-2
4.83207E-2,-2.12211E-2
4.41532E-2,-2.06394E-2
4.09622E-2,-2.01835E-2
3.80210E-2,-2.05078E-2
3.42674E-2,-2.15377E-2
2.94494E-2,-2.18477E-2
2.42986E-2,-2.11162E-2
1.95045E-2,-1.98583E-2
1.43070E-2,-1.75561E-2
1.03950E-2,-1.39055E-2
7.96985E-3,-1.09062E-2
5.32960E-3,-8.50248E-3
2.31719E-3,-5.78284E-3
-1.00493E-3,-2.64346E-3
-3.98802E-3,1.57165E-3
-5.15055E-3,6.10995E-3
-6.41250E-3,9.22489E-3
-8.76331E-3,1.27534E-2
-1.11446E-2,1.74274E-2
-1.19838E-2,2.28252E-2
-1.21383E-2,2.80723E-2
-1.13811E-2,3.30696E-2
-9.74082E-3,3.74126E-2
-7.83920E-3,3.99036E-2
-7.47108E-3,4.24270E-2
-6.90841E-3,4.51412E-2
-6.51359E-3,4.77218E-2
-5.76591E-3,5.09624E-2
-3.66401E-3,5.38444E-2
-1.52206E-3,5.50346E-2
-6.37054E-4,5.55419E-2
-1.37329E-4,5.68370E-2
0.04596E-2,5.76801E-2
0.09002E-2,5.89027E-2
0.16040E-2,6.04362E-2
0.26588E-2,6.11648E-2
0.31700E-2,6.19049E-2
0.37994E-2,6.28547E-2
0.44441E-2,6.33049E-2
0.48065E-2,6.30226E-2
0.31433E-2,6.33697E-2
0.18234E-2,6.59027E-2
0.13122E-2,6.84585E-2
0.17013E-2,7.21130E-2
0.32501E-2,7.45849E-2
0.46463E-2,7.67059E-2
0.54855E-2,7.85064E-2
0.61721E-2,8.07952E-2
0.75073E-2,8.32366E-2
0.86288E-2,8.48236E-2
0.93460E-2,8.72650E-2
1.16119E-2,8.94622E-2
1.27182E-2,9.01870E-2
1.27563E-2,9.13467E-2
1.28173E-2,9.39254E-2
1.37786E-2,9.65423E-2
1.49574E-2,9.87205E-2
1.59034E-2,1.00826E-1
1.67236E-2,1.03130E-1
1.84860E-2,1.05636E-1
2.01721E-2,1.07490E-1
2.1698E-2,1.09306E-1
2.33383E-2,1.10893E-1
2.47116E-2,1.12739E-1
2.65350E-2,1.14952E-1
2.86254E-2,1.17118E-1
3.15017E-2,1.18934E-1
3.43322E-2,1.19842E-1
3.60717E-2,1.21139E-1
3.83300E-2,1.22390E-1
4.05426E-2,1.24877E-1
0.43991E-1,1.27899E-1
0.48416E-1,1.29875E-1
0.53009E-1,1.31233E-1
0.57182E-1,1.31736E-1
0.61737E-1,1.31652E-1
0.64704E-1,1.31324E-1
0.67947E-1,1.31958E-1
0.70571E-1,1.32995E-1
0.74020E-1,1.34216E-1
0.77735E-1,1.35940E-1
0.82885E-1,1.36955E-1
0.87516E-1,1.36970E-1
0.92285E-1,1.36955E-1
0.9758E-1,1.36154E-1
1.02584E-1,1.34964E-1
1.07162E-1,1.33468E-1
1.12106E-1,1.30188E-1
1.15203E-1,1.26541E-1
1.17477E-1,1.24282E-1
1.19766E-1,1.21933E-1
1.22764E-1,1.19758E-1
1.25961E-1,1.16867E-1
1.28982E-1,1.13563E-1
1.31660E-1,1.09565E-1
1.33201E-1,1.05865E-1
1.34429E-1,1.02073E-1
1.35360E-1,0.99533E-1
1.37085E-1,0.96923E-1
1.38595E-1,0.93887E-1
1.39877E-1,0.89889E-1
1.39984E-1,0.85907E-1
1.39617E-1,0.84152E-1
1.40396E-1,0.82962E-1
1.42959E-1,0.80825E-1
1.44699E-1,0.76820E-1
1.44462E-1,0.73066E-1
1.43524E-1,0.70541E-1
1.43821E-1,0.68718E-1
1.44378E-1,0.65704E-1
1.44058E-1,0.63629E-1
1.43577E-1,0.61363E-1
1.43348E-1,0.58692E-1
1.42036E-1,0.55892E-1
1.40586E-1,0.54115E-1
1.39457E-1,0.52413E-1
1.37954E-1,0.50132E-1
1.35536E-1,0.48698E-1
1.32606E-1,0.48843E-1
1.31706E-1,0.49568E-1
1.31286E-1,0.48828E-1
1.29608E-1,0.47637E-1
1.28036E-1,0.47378E-1
1.27227E-1,0.48385E-1
1.26785E-1,0.48812E-1
1.27334E-1,0.49133E-1
1.28418E-1,0.48156E-1
1.28265E-1,0.46371E-1
1.27517E-1,0.45669E-1
1.27510E-1,0.45265E-1
1.28456E-1,0.44860E-1
1.29341E-1,0.43106E-1
1.28860E-1,0.40382E-1
1.26739E-1,0.38932E-1
1.24885E-1,3.92074E-2
1.25297E-1,0.39672E-1
1.26251E-1,0.39550E-1
1.26403E-1,0.38436E-1
1.26632E-1,0.37773E-1
1.27403E-1,0.37109E-1
1.28311E-1,0.34988E-1
1.28433E-1,0.32318E-1
1.26510E-1,0.29098E-1
1.23779E-1,2.77099E-2
1.20971E-1,2.73132E-2
1.19415E-1,2.83355E-2
1.18179E-1,2.87475E-2
1.18362E-1,2.78320E-2
1.17370E-1,2.65655E-2
1.15593E-1,2.58026E-2
1.13357E-1,2.48260E-2
1.11381E-1,2.53448E-2
1.09985E-1,2.53372E-2
1.08306E-1,2.43454E-2
1.05621E-1,2.39334E-2
1.02851E-1,2.55050E-2
1.02470E-1,2.76794E-2
1.02500E-1,2.70614E-2
1.00669E-1,2.61764E-2
9.84802E-2,2.57415E-2
9.51919E-2,2.66037E-2
9.33151E-2,2.81829E-2
9.21936E-2,2.92167E-2
8.99086E-2,2.96134E-2
8.77952E-2,3.00941E-2
8.48045E-2,3.20854E-2
8.19358E-2,3.43589E-2
7.96699E-2,3.74794E-2
7.83119E-2,4.05235E-2
7.74231E-2,4.34379E-2
7.66143E-2,4.57267E-2
7.47871E-2,4.83665E-2
7.34787E-2,5.14564E-2
7.17926E-2,5.45654E-2
6.99310E-2,5.85708E-2
6.90231E-2,6.29653E-2
6.83136E-2,6.75964E-2
6.82220E-2,7.21893E-2
6.8573E-2,7.68966E-2
6.92901E-2,8.17031E-2
7.02743E-2,8.65783E-2
7.19757E-2,9.13772E-2
7.40814E-2,9.59549E-2
7.68737E-2,1.00524E-1
8.01773E-2,1.05056E-1
8.36944E-2,1.08169E-1
8.66470E-2,1.11663E-1
9.04541E-2,1.15387E-1
9.43298E-2,1.18652E-1
9.79461E-2,1.22436E-1
1.03012E-1,1.26449E-1
1.09863E-1,1.29928E-1
1.16851E-1,1.30508E-1
1.22009E-1,1.30432E-1
1.26037E-1,1.30920E-1
1.30950E-1,1.32995E-1
1.36810E-1,1.34674E-1
1.43798E-1,1.35360E-1
1.50207E-1,1.35421E-1
1.56326E-1,1.33865E-1
1.61590E-1,1.32675E-1
1.67083E-1,1.31668E-1
1.72348E-1,1.30355E-1
1.77383E-1,1.27777E-1
1.81991E-1,1.25778E-1
1.87240E-1,1.24755E-1
1.93695E-1,1.23397E-1
1.99340E-1,1.20651E-1
2.05764E-1,1.17752E-1
2.11746E-1,1.12854E-1
2.16491E-1,1.07818E-1
2.20321E-1,1.02233E-1
2.23587E-1,0.97000E-1
2.26745E-1,0.92453E-1
2.30407E-1,0.87890E-1
2.33963E-1,0.81588E-1
2.35824E-1,0.75729E-1
2.37319E-1,0.70358E-1
2.3909E-1,0.65750E-1
2.40875E-1,0.61172E-1
2.43881E-1,0.55923E-1
2.46017E-1,0.49652E-1
2.47497E-1,0.43426E-1
2.48092E-1,0.36911E-1
2.47573E-1,0.29754E-1
2.46398E-1,0.23025E-1
2.43530E-1,0.18096E-1
2.42065E-1,0.14709E-1
2.42462E-1,0.10116E-1
2.42126E-1,0.04844E-1
2.40608E-1,-2.36511E-4
2.38525E-1,-6.11877E-3
2.35412E-1,-1.08184E-2
2.32856E-1,-1.50451E-2
2.30148E-1,-1.95999E-2
2.26326E-1,-2.35214E-2
2.22320E-1,-2.60620E-2
2.19017E-1,-2.87399E-2
2.15026E-1,-3.09524E-2
2.11631E-1,-3.27453E-2
2.08961E-1,-3.36608E-2
2.06657E-1,-3.47061E-2
2.03971E-1,-3.62854E-2
2.01782E-1,-3.75366E-2
1.9944E-1,-3.92684E-2
1.97181E-1,-4.09622E-2
1.94252E-1,-4.18319E-2
1.91825E-1,-4.29840E-2
1.88980E-1,-4.31823E-2
1.86698E-1,-4.40444E-2
1.8396E-1,-4.36935E-2
1.82106E-1,-4.39453E-2
1.80473E-1,-4.35257E-2
1.79061E-1,-4.36325E-2
1.77307E-1,-4.37622E-2
1.75582E-1,-4.30679E-2
1.75018E-1,-4.22439E-2
1.74636E-1,-4.29000E-2
1.73988E-1,-4.40750E-2
1.72493E-1,-4.53262E-2
1.70379E-1,-4.64782E-2
1.67945E-1,-4.66461E-2
1.66091E-1,-4.68902E-2
1.64238E-1,-4.66156E-2
1.62193E-1,-4.67453E-2
1.59759E-1,-4.61120E-2
1.58073E-1,-4.47158E-2
1.57539E-1,-4.39224E-2
1.57226E-1,-4.27856E-2
1.56829E-1,-4.36477E-2
1.56326E-1,-4.40292E-2
1.54266E-1,-4.45709E-2
1.52793E-1,-4.26864E-2
1.52977E-1,-4.14276E-2
1.54464E-1,-4.17251E-2
1.53755E-1,-4.37698E-2
1.51161E-1,-4.46548E-2
1.48544E-1,-4.39605E-2
1.47056E-1,-4.22821E-2
1.47316E-1,-4.12521E-2
1.46408E-1,-4.15267E-2
1.45027E-1,-4.09317E-2
1.44195E-1,-4.01382E-2
1.42700E-1,-3.94134E-2
1.41365E-1,-3.81240E-2
1.40075E-1,-3.69110E-2
1.38793E-1,-3.55758E-2
1.37756E-1,-3.40728E-2
1.37046E-1,-3.19137E-2
1.36489E-1,-3.04718E-2
1.36436E-1,-2.79846E-2
1.35986E-1,-2.64053E-2
1.36375E-1,-2.49939E-2
1.35833E-1,-2.36511E-2
1.35681E-1,-2.22091E-2
1.35498E-1,-1.93328E-2
1.35765E-1,-1.78299E-2
1.35978E-1,-1.65557E-2
1.35246E-1,-1.53198E-2
1.35345E-1,-1.26190E-2
1.36291E-1,-1.02462E-2
1.36810E-1,-8.06427E-3
1.37161E-1,-5.37109E-3
1.38198E-1,-1.93786E-3
1.41212E-1,0.00625E-1
1.43798E-1,0.02075E-1
1.45500E-1,0.03356E-1
1.46957E-1,0.05950E-1
1.49696E-1,0.09643E-1
1.54052E-1,0.11184E-1
1.57249E-1,0.11390E-1
1.59408E-1,0.12680E-1
1.61605E-1,0.15014E-1
1.65367E-1,0.17570E-1
1.69509E-1,0.17555E-1
1.73179E-1,0.18913E-1
1.76757E-1,0.20240E-1
1.81419E-1,0.21377E-1
1.85562E-1,0.21522E-1
1.89193E-1,0.21400E-1
1.93718E-1,0.21827E-1
1.99241E-1,0.21064E-1
2.03422E-1,0.19828E-1
2.06886E-1,0.17921E-1
2.11303E-1,0.16914E-1
2.16461E-1,0.15449E-1
2.21252E-1,0.12191E-1
2.24647E-1,0.08247E-1
2.27981E-1,0.05188E-1
2.30819E-1,0.02265E-1
2.33596E-1,-9.15527E-4
2.37365E-1,-3.98254E-3
2.40875E-1,-7.97271E-3
2.43240E-1,-1.15890E-2
2.46154E-1,-1.51596E-2
2.49397E-1,-1.83944E-2
2.53250E-1,-2.37426E-2
2.55310E-1,-2.92358E-2
2.56866E-1,-3.51867E-2
2.57278E-1,-3.93066E-2
2.57934E-1,-4.33654E-2
2.59384E-1,-4.75158E-2
2.59994E-1,-5.27191E-2
2.59704E-1,-5.60455E-2
2.60467E-1,-6.00738E-2
2.61703E-1,-6.48040E-2
2.61673E-1,-6.98394E-2
2.60757E-1,-7.43866E-2
2.60467E-1,-7.90557E-2
2.59353E-1,-8.39538E-2
2.57400E-1,-8.79211E-2
2.55279E-1,-9.06982E-2
2.54592E-1,-9.52148E-2
2.53967E-1,-9.84039E-2
2.51953E-1,-1.02996E-1
2.49816E-1,-1.06895E-1
2.48130E-1,-1.10214E-1
2.45689E-1,-1.14143E-1
2.43362E-1,-1.16851E-1
2.41409E-1,-1.20002E-1
2.38685E-1,-1.22947E-1
2.36503E-1,-1.25907E-1
2.34176E-1,-1.28440E-1
2.32353E-1,-1.30722E-1
2.31567E-1,-1.32995E-1
2.30155E-1,-1.36230E-1
2.28187E-1,-1.39541E-1
2.24960E-1,-1.42730E-1
2.22045E-1,-1.44477E-1
2.20436E-1,-1.45729E-1
2.18200E-1,-1.47644E-1
2.16758E-1,-1.48834E-1
2.15057E-1,-1.51237E-1
2.13623E-1,-1.52374E-1
2.12501E-1,-1.54586E-1
2.10662E-1,-1.56524E-1
2.09289E-1,-1.58134E-1
2.07267E-1,-1.60461E-1
2.05589E-1,-1.62635E-1
2.03376E-1,-1.65344E-1
2.00500E-1,-1.67114E-1
1.96991E-1,-1.69143E-1
1.94191E-1,-1.70127E-1
1.91223E-1,-1.70684E-1
1.88903E-1,-1.71569E-1
1.87904E-1,-1.72805E-1
1.86073E-1,-1.75094E-1
1.82754E-1,-1.77238E-1
1.80030E-1,-1.79176E-1
1.76979E-1,-1.81167E-1
1.73683E-1,-1.82373E-1
1.70745E-1,-1.84692E-1
1.66976E-1,-1.85966E-1
1.63513E-1,-1.86615E-1
1.59797E-1,-1.87759E-1
1.56288E-1,-1.88743E-1
1.52885E-1,-1.87721E-1
1.50703E-1,-1.87995E-1
1.47956E-1,-1.88682E-1
1.44653E-1,-1.88873E-1
1.42585E-1,-1.88087E-1
1.40335E-1,-1.88369E-1
1.37687E-1,-1.88247E-1
1.35932E-1,-1.87767E-1
1.33506E-1,-1.88064E-1
1.31530E-1,-1.87957E-1
1.28768E-1,-1.88369E-1
1.25602E-1,-1.88293E-1
1.22520E-1,-1.86889E-1
1.20056E-1,-1.86157E-1
1.17660E-1,-1.85089E-1
1.14753E-1,-1.83204E-1
1.12808E-1,-1.81762E-1
1.10244E-1,-1.80320E-1
1.08924E-1,-1.78657E-1
1.07200E-1,-1.76681E-1
1.05125E-1,-1.75643E-1
1.03607E-1,-1.74591E-1
1.00921E-1,-1.74003E-1
0.98304E-1,-1.72607E-1
0.94711E-1,-1.70181E-1
0.92826E-1,-1.66763E-1
0.91621E-1,-1.63314E-1
0.91117E-1,-1.59996E-1
0.91629E-1,-1.57867E-1
0.91293E-1,-1.55693E-1
0.91514E-1,-1.53663E-1
0.92376E-1,-1.50924E-1
0.93200E-1,-1.49276E-1
0.94062E-1,-1.48613E-1
0.94093E-1,-1.47781E-1
0.93986E-1,-1.46194E-1
0.93803E-1,-1.44004E-1
0.94940E-1,-1.41021E-1
0.96885E-1,-1.38305E-1
1.00158E-1,-1.36642E-1
1.02577E-1,-1.36573E-1
1.05148E-1,-1.35620E-1
1.06987E-1,-1.35246E-1
1.09718E-1,-1.34704E-1
1.12190E-1,-1.34780E-1
1.14036E-1,-1.35574E-1
1.15928E-1,-1.35833E-1
1.17309E-1,-1.36123E-1
1.18957E-1,-1.36474E-1
1.21093E-1,-1.36970E-1
1.22963E-1,-1.38084E-1
1.24588E-1,-1.39556E-1
1.25335E-1,-1.40747E-1
1.26823E-1,-1.41410E-1
1.27975E-1,-1.42952E-1
1.28952E-1,-1.45164E-1
1.29264E-1,-1.47132E-1
1.29669E-1,-1.48361E-1
1.30638E-1,-1.50283E-1
1.30722E-1,-1.52755E-1
1.30722E-1,-1.54594E-1
1.30950E-1,-1.55960E-1
1.30264E-1,-1.58096E-1
1.30500E-1,-1.59240E-1
1.30592E-1,-1.61048E-1
1.28639E-1,-1.6362E-1
1.28547E-1,-1.64566E-1
1.28768E-1,-1.67106E-1
1.30188E-1,-1.69975E-1
1.29554E-1,-1.73233E-1
1.29707E-1,-1.75155E-1
1.29638E-1,-1.78321E-1
1.28860E-1,-1.82067E-1
1.27311E-1,-1.86111E-1
1.25404E-1,-1.89476E-1
1.23298E-1,-1.91398E-1
1.21299E-1,-1.93405E-1
1.19697E-1,-1.95053E-1
1.18454E-1,-1.97502E-1
1.16981E-1,-1.99432E-1
1.14723E-1,-2.00805E-1
1.13586E-1,-2.03155E-1
1.12251E-1,-2.06062E-1
1.11000E-1,-2.08984E-1
1.07780E-1,-2.11784E-1
1.04751E-1,-2.13615E-1
1.02012E-1,-2.15660E-1
0.98091E-1,-2.16369E-1
0.95939E-1,-2.17643E-1
0.92369E-1,-2.19284E-1
0.88714E-1,-2.20008E-1
0.86067E-1,-2.19718E-1
0.83915E-1,-2.19993E-1
