CITIFILE A.01.00
#NA VERSION HP8720D.06.14
NAME DATA
VAR FREQ MAG 1601
DATA S[1,1] RI

SEG_LIST_BEGIN
SEG 1000000000 8000000000 1601
SEG_LIST_END
BEGIN
3.08929E-1,-4.54498E-1
2.84561E-1,-4.61929E-1
2.59277E-1,-4.69375E-1
2.35961E-1,-4.70977E-1
2.16247E-1,-4.73877E-1
1.95037E-1,-4.77478E-1
1.72821E-1,-4.79217E-1
1.54861E-1,-4.80926E-1
1.34948E-1,-4.82757E-1
1.14120E-1,-4.83749E-1
0.92407E-1,-4.83963E-1
0.71014E-1,-4.82925E-1
0.49469E-1,-4.79171E-1
0.31784E-1,-4.74670E-1
0.11413E-1,-4.71969E-1
-9.62829E-3,-4.64859E-1
-2.76336E-2,-4.56863E-1
-4.55932E-2,-4.46777E-1
-6.03332E-2,-4.35516E-1
-7.26623E-2,-4.26086E-1
-8.33435E-2,-4.16656E-1
-9.46044E-2,-4.09912E-1
-1.09436E-1,-4.04418E-1
-1.25305E-1,-3.94409E-1
-1.36871E-1,-3.81500E-1
-1.46270E-1,-3.69140E-1
-1.55944E-1,-3.60321E-1
-1.65863E-1,-3.50692E-1
-1.75186E-1,-3.41339E-1
-1.85272E-1,-3.31115E-1
-1.94976E-1,-3.17810E-1
-1.99996E-1,-3.04779E-1
-2.05474E-1,-2.95288E-1
-2.10525E-1,-2.84851E-1
-2.13134E-1,-2.75024E-1
-2.15957E-1,-2.69119E-1
-2.21191E-1,-2.63656E-1
-2.27447E-1,-2.56347E-1
-2.32971E-1,-2.49069E-1
-2.37121E-1,-2.36465E-1
-2.38998E-1,-2.31857E-1
-2.43896E-1,-2.30529E-1
-2.52365E-1,-2.26944E-1
-2.60818E-1,-2.22869E-1
-2.70263E-1,-2.17468E-1
-2.81555E-1,-2.10342E-1
-2.92831E-1,-2.01202E-1
-3.02780E-1,-1.88644E-1
-3.11172E-1,-1.77215E-1
-3.19000E-1,-1.64596E-1
-3.27926E-1,-1.50009E-1
-3.33862E-1,-1.32476E-1
-3.35159E-1,-1.15325E-1
-3.34854E-1,-1.00006E-1
-3.33053E-1,-8.73260E-2
-3.32229E-1,-7.76672E-2
-3.33725E-1,-6.63147E-2
-3.34381E-1,-5.57403E-2
-3.35037E-1,-4.49829E-2
-3.36395E-1,-3.41949E-2
-3.35830E-1,-2.28729E-2
-3.34793E-1,-1.24511E-2
-3.35250E-1,-4.22668E-3
-3.37173E-1,0.06210E-1
-3.38195E-1,0.18112E-1
-3.36715E-1,0.29220E-1
-3.36593E-1,0.39077E-1
-3.36334E-1,0.50125E-1
-3.35754E-1,0.63293E-1
-3.31390E-1,0.75332E-1
-3.26446E-1,0.83847E-1
-3.23806E-1,0.90225E-1
-3.23959E-1,0.97763E-1
-3.25073E-1,1.07406E-1
-3.24951E-1,1.19445E-1
-3.23089E-1,1.31652E-1
-3.21411E-1,1.44165E-1
-3.18389E-1,1.58065E-1
-3.12698E-1,1.71752E-1
-3.05282E-1,1.85745E-1
-2.96142E-1,1.95800E-1
-2.87017E-1,2.04589E-1
-2.80471E-1,2.10723E-1
-2.77038E-1,2.1875E-1
-2.72857E-1,2.27371E-1
-2.67715E-1,2.38555E-1
-2.62161E-1,2.49527E-1
-2.54272E-1,2.61657E-1
-2.45208E-1,2.73590E-1
-2.34756E-1,2.82348E-1
-2.24929E-1,2.90466E-1
-2.15148E-1,2.99865E-1
-2.05429E-1,3.08395E-1
-1.93405E-1,3.17047E-1
-1.79458E-1,3.23837E-1
-1.67129E-1,3.27575E-1
-1.56021E-1,3.31329E-1
-1.4505E-1,3.34045E-1
-1.34903E-1,3.37112E-1
-1.25915E-1,3.40927E-1
-1.16165E-1,3.46115E-1
-1.04690E-1,3.51364E-1
-9.06524E-2,3.55316E-1
-7.73315E-2,3.56658E-1
-6.47735E-2,3.56201E-1
-5.42907E-2,3.56048E-1
-4.39300E-2,3.55438E-1
-3.33709E-2,3.5495E-1
-2.40478E-2,3.55484E-1
-1.48468E-2,3.54736E-1
-6.21032E-3,3.56735E-1
0.05279E-1,3.58398E-1
0.17227E-1,3.56765E-1
0.27053E-1,3.55468E-1
0.37521E-1,3.53851E-1
0.46234E-1,3.52935E-1
0.56106E-1,3.52340E-1
0.66680E-1,3.51867E-1
0.77636E-1,3.51028E-1
0.88363E-1,3.48968E-1
0.99044E-1,3.48449E-1
1.12319E-1,3.46527E-1
1.27136E-1,3.41369E-1
1.39205E-1,3.34152E-1
1.49154E-1,3.26507E-1
1.57684E-1,3.20404E-1
1.67099E-1,3.14376E-1
1.76971E-1,3.08563E-1
1.86752E-1,3.00231E-1
1.94686E-1,2.91412E-1
2.01278E-1,2.8479E-1
2.10235E-1,2.78076E-1
2.20001E-1,2.71057E-1
2.27935E-1,2.61444E-1
2.35916E-1,2.52288E-1
2.40615E-1,2.42187E-1
2.47940E-1,2.31750E-1
2.53448E-1,2.22274E-1
2.58483E-1,2.11029E-1
2.62146E-1,2.00378E-1
2.65533E-1,1.91223E-1
2.68737E-1,1.82525E-1
2.71728E-1,1.72668E-1
2.76245E-1,1.63909E-1
2.80502E-1,1.54342E-1
2.84973E-1,1.44043E-1
2.89245E-1,1.31713E-1
2.90069E-1,1.18438E-1
2.89535E-1,1.06750E-1
2.88818E-1,0.96862E-1
2.88406E-1,0.86608E-1
2.87536E-1,0.76721E-1
2.85766E-1,0.68450E-1
2.86377E-1,0.60760E-1
2.87384E-1,0.51208E-1
2.87429E-1,0.40466E-1
2.87231E-1,0.29846E-1
2.86010E-1,0.18569E-1
2.83462E-1,0.06515E-1
2.79098E-1,-4.62341E-3
2.75085E-1,-1.51367E-2
2.70523E-1,-2.48718E-2
2.64556E-1,-3.46069E-2
2.58758E-1,-4.40673E-2
2.51251E-1,-5.29632E-2
2.44323E-1,-6.08596E-2
2.36557E-1,-6.74514E-2
2.2966E-1,-7.33642E-2
2.23312E-1,-7.96661E-2
2.15148E-1,-8.72955E-2
2.04742E-1,-9.32922E-2
1.94793E-1,-9.49554E-2
1.87408E-1,-9.54513E-2
1.83563E-1,-9.73587E-2
1.79664E-1,-1.02638E-1
1.72462E-1,-1.09680E-1
1.62056E-1,-1.14479E-1
1.53259E-1,-1.15303E-1
1.45843E-1,-1.17042E-1
1.37184E-1,-1.18934E-1
1.28677E-1,-1.18629E-1
1.21883E-1,-1.17656E-1
1.16050E-1,-1.17176E-1
1.10359E-1,-1.16794E-1
1.04328E-1,-1.16390E-1
9.87396E-2,-1.14990E-1
9.49058E-2,-1.12834E-1
9.18045E-2,-1.12548E-1
8.82720E-2,-1.12678E-1
8.57849E-2,-1.13433E-1
8.17680E-2,-1.16054E-1
7.61146E-2,-1.17580E-1
7.06367E-2,-1.18782E-1
6.43463E-2,-1.19384E-1
5.77964E-2,-1.19163E-1
5.18035E-2,-1.18763E-1
4.49600E-2,-1.17797E-1
3.93829E-2,-1.16260E-1
3.39355E-2,-1.14936E-1
2.83203E-2,-1.13586E-1
2.23274E-2,-1.12243E-1
1.44271E-2,-1.09699E-1
0.78926E-2,-1.06205E-1
0.21247E-2,-1.0215E-1
-3.11660E-3,-9.81216E-2
-7.92312E-3,-9.37233E-2
-1.19781E-2,-8.91952E-2
-1.51557E-2,-8.46824E-2
-1.81427E-2,-7.99789E-2
-2.02713E-2,-7.54852E-2
-2.16713E-2,-7.16705E-2
-2.30636E-2,-6.81915E-2
-2.44293E-2,-6.48460E-2
-2.53105E-2,-6.17981E-2
-2.58369E-2,-5.91850E-2
-2.63519E-2,-5.76934E-2
-2.81791E-2,-5.61027E-2
-2.94838E-2,-5.38101E-2
-3.07235E-2,-5.23834E-2
-3.25126E-2,-5.15708E-2
-3.57093E-2,-5.03807E-2
-3.99246E-2,-4.78706E-2
-4.32052E-2,-4.34455E-2
-4.49638E-2,-3.89213E-2
-4.56504E-2,-3.51333E-2
-4.66690E-2,-3.23562E-2
-4.88777E-2,-3.00254E-2
-5.11589E-2,-2.63366E-2
-5.25512E-2,-2.20413E-2
-5.33866E-2,-1.91192E-2
-5.50613E-2,-1.66511E-2
-5.77850E-2,-1.36871E-2
-6.05278E-2,-8.86154E-3
-6.16188E-2,-3.65448E-3
-6.14566E-2,0.09040E-2
-6.13651E-2,0.44975E-2
-6.10160E-2,0.73967E-2
-6.2006E-2,0.98285E-2
-6.29844E-2,1.33895E-2
-6.35795E-2,1.69448E-2
-6.42929E-2,2.08435E-2
-6.39228E-2,2.47612E-2
-6.32858E-2,2.83889E-2
-6.25114E-2,3.14941E-2
-6.20231E-2,3.44429E-2
-6.18705E-2,3.74279E-2
-6.18438E-2,4.09069E-2
-6.11496E-2,4.46243E-2
-5.98983E-2,4.83017E-2
-5.90667E-2,5.20439E-2
-5.76496E-2,5.55896E-2
-5.58662E-2,5.92460E-2
-5.39436E-2,6.18438E-2
-5.36499E-2,6.48269E-2
-5.26008E-2,6.88209E-2
-5.07774E-2,7.29103E-2
-4.84123E-2,7.71331E-2
-4.51240E-2,8.06007E-2
-4.17289E-2,8.28170E-2
-3.86314E-2,8.4095E-2
-3.72695E-2,8.47358E-2
-3.63502E-2,8.69216E-2
-3.42903E-2,8.93135E-2
-3.21693E-2,9.06219E-2
-3.05748E-2,9.15603E-2
-2.94418E-2,9.22317E-2
-2.95295E-2,9.33647E-2
-2.91328E-2,9.57260E-2
-2.74467E-2,9.81979E-2
-2.54669E-2,9.92279E-2
-2.42614E-2,9.99374E-2
-2.44827E-2,1.00753E-1
-2.48336E-2,1.03447E-1
-2.39524E-2,1.06239E-1
-2.31170E-2,1.08852E-1
-2.24075E-2,1.12255E-1
-2.14271E-2,1.16409E-1
-1.86348E-2,1.21696E-1
-1.45034E-2,1.25610E-1
-1.08718E-2,1.28921E-1
-6.95800E-3,1.32034E-1
-2.22015E-3,1.34681E-1
0.01007E-1,1.37062E-1
0.05157E-1,1.40663E-1
0.09529E-1,1.44088E-1
0.14297E-1,1.48216E-1
0.21354E-1,1.51908E-1
0.29106E-1,1.53694E-1
0.36636E-1,1.54373E-1
0.42221E-1,1.54510E-1
0.47927E-1,1.54907E-1
0.53848E-1,1.54953E-1
0.60867E-1,1.55487E-1
0.67459E-1,1.54357E-1
0.74638E-1,1.53884E-1
0.82717E-1,1.52168E-1
0.90171E-1,1.48811E-1
0.97389E-1,1.44256E-1
1.04316E-1,1.38793E-1
1.11015E-1,1.32591E-1
1.16020E-1,1.25396E-1
1.19285E-1,1.17584E-1
1.21406E-1,1.11160E-1
1.24549E-1,1.03836E-1
1.26068E-1,0.97198E-1
1.26556E-1,0.89370E-1
1.27288E-1,0.82763E-1
1.27792E-1,0.76156E-1
1.27349E-1,0.69824E-1
1.26686E-1,0.63583E-1
1.24748E-1,5.67779E-2
1.21948E-1,5.18951E-2
1.18576E-1,4.71649E-2
1.15623E-1,4.30297E-2
1.11816E-1,3.98559E-2
1.08306E-1,3.72009E-2
1.05720E-1,3.46984E-2
1.01966E-1,3.19747E-2
9.69314E-2,2.99835E-2
9.18922E-2,2.91595E-2
8.69369E-2,2.98957E-2
8.30421E-2,3.18603E-2
8.09478E-2,3.40080E-2
7.93113E-2,3.50341E-2
7.74650E-2,3.53508E-2
7.5634E-2,3.59916E-2
7.29599E-2,3.55911E-2
6.88934E-2,3.64685E-2
6.51626E-2,3.96347E-2
6.31713E-2,4.39224E-2
6.39801E-2,4.82330E-2
6.55670E-2,5.04493E-2
6.60781E-2,5.15670E-2
6.65359E-2,5.43136E-2
6.81457E-2,5.64460E-2
6.99005E-2,5.81207E-2
7.23266E-2,6.06536E-2
7.59506E-2,6.19735E-2
7.93151E-2,6.24923E-2
8.28247E-2,6.25457E-2
8.62197E-2,6.30493E-2
9.01184E-2,6.28051E-2
9.37576E-2,6.15463E-2
9.65271E-2,6.07910E-2
1.00540E-1,5.97076E-2
1.04476E-1,5.79986E-2
1.08200E-1,5.58929E-2
1.12365E-1,5.27496E-2
1.14517E-1,4.82940E-2
1.16256E-1,4.51660E-2
1.19010E-1,4.21676E-2
1.20948E-1,3.80325E-2
1.22070E-1,3.36151E-2
1.22390E-1,2.89840E-2
1.22009E-1,2.51922E-2
1.21032E-1,2.05383E-2
1.21948E-1,1.61438E-2
1.22039E-1,1.11694E-2
1.20605E-1,0.67138E-2
1.20063E-1,0.28076E-2
1.19537E-1,-1.51062E-3
1.18736E-1,-6.11114E-3
1.17897E-1,-1.16272E-2
1.15593E-1,-1.74865E-2
1.12575E-1,-2.25982E-2
1.09481E-1,-2.66571E-2
1.07040E-1,-3.07006E-2
1.03172E-1,-3.53889E-2
9.83200E-2,-3.82804E-2
9.54856E-2,-4.13970E-2
9.21554E-2,-4.48722E-2
8.82568E-2,-4.90036E-2
8.23936E-2,-5.36689E-2
7.54394E-2,-5.54885E-2
6.94084E-2,-5.64537E-2
6.34384E-2,-5.73463E-2
5.71308E-2,-5.72414E-2
5.21297E-2,-5.62915E-2
4.76188E-2,-5.62400E-2
4.20932E-2,-5.60340E-2
3.72390E-2,-5.55534E-2
3.26499E-2,-5.53836E-2
2.74276E-2,-5.58452E-2
2.11505E-2,-5.61237E-2
1.38740E-2,-5.54599E-2
0.68244E-2,-5.30147E-2
0.08812E-2,-5.03501E-2
-4.73785E-3,-4.72526E-2
-9.74845E-3,-4.42524E-2
-1.44424E-2,-4.17213E-2
-1.97906E-2,-3.90090E-2
-2.51617E-2,-3.60603E-2
-3.06282E-2,-3.22837E-2
-3.61709E-2,-2.78778E-2
-4.16336E-2,-2.26135E-2
-4.64782E-2,-1.58920E-2
-4.92839E-2,-8.29124E-3
-5.05962E-2,-1.81388E-3
-5.20610E-2,0.38528E-2
-5.36174E-2,0.98037E-2
-5.54447E-2,1.56192E-2
-5.70354E-2,2.25677E-2
-5.74760E-2,3.01132E-2
-5.67550E-2,3.69663E-2
-5.62000E-2,4.34951E-2
-5.57155E-2,4.99496E-2
-5.51128E-2,5.68428E-2
-5.31654E-2,6.47239E-2
-4.94957E-2,7.17010E-2
-4.52232E-2,7.72438E-2
-4.16832E-2,8.08296E-2
-3.96423E-2,8.51631E-2
-3.71437E-2,8.99581E-2
-3.42826E-2,9.47494E-2
-3.09295E-2,1.00139E-1
-2.54058E-2,1.05251E-1
-1.92756E-2,1.07379E-1
-1.52092E-2,1.08451E-1
-1.17111E-2,1.10569E-1
-7.59124E-3,1.12548E-1
-2.97546E-3,1.13941E-1
0.14114E-2,1.15329E-1
0.64697E-2,1.15745E-1
1.01394E-2,1.15181E-1
1.38549E-2,1.15631E-1
1.81121E-2,1.16134E-1
2.26059E-2,1.14341E-1
2.44903E-2,1.13205E-1
2.77862E-2,1.13739E-1
3.08990E-2,1.13143E-1
3.44848E-2,1.12915E-1
3.82995E-2,1.12014E-1
4.11071E-2,1.10061E-1
4.33044E-2,1.09130E-1
4.52880E-2,1.08261E-1
4.82482E-2,1.06796E-1
4.96215E-2,1.05178E-1
5.07507E-2,1.04141E-1
5.22766E-2,1.02539E-1
5.20477E-2,1.00799E-1
5.11779E-2,9.97314E-2
5.03692E-2,1.00494E-1
5.06591E-2,1.01654E-1
5.23529E-2,1.02447E-1
5.40008E-2,1.01776E-1
5.40466E-2,1.00524E-1
5.38330E-2,1.00105E-1
5.37796E-2,1.00296E-1
5.36270E-2,1.00067E-1
5.29785E-2,1.00341E-1
5.28411E-2,1.01532E-1
5.33828E-2,1.02645E-1
5.38787E-2,1.03958E-1
5.56182E-2,1.04858E-1
5.66406E-2,1.04400E-1
5.74493E-2,1.05361E-1
5.78155E-2,1.06475E-1
5.85784E-2,1.08581E-1
6.02722E-2,1.11114E-1
6.36367E-2,1.13723E-1
6.72683E-2,1.15318E-1
7.04803E-2,1.16317E-1
7.39288E-2,1.16416E-1
7.72247E-2,1.16714E-1
8.01620E-2,1.16226E-1
8.29620E-2,1.16394E-1
8.50067E-2,1.16912E-1
8.74023E-2,1.18469E-1
9.16137E-2,1.20330E-1
9.60693E-2,1.20086E-1
9.95483E-2,1.18957E-1
1.03241E-1,1.18698E-1
1.07009E-1,1.18225E-1
1.10885E-1,1.16790E-1
1.14746E-1,1.15036E-1
1.17675E-1,1.12319E-1
1.19674E-1,1.09878E-1
1.21833E-1,1.08627E-1
1.24794E-1,1.07452E-1
1.28936E-1,1.05613E-1
1.33087E-1,1.01249E-1
1.35940E-1,0.96199E-1
1.37298E-1,0.91087E-1
1.37291E-1,0.87394E-1
1.37855E-1,0.83976E-1
1.38870E-1,0.81214E-1
1.39938E-1,0.77713E-1
1.41090E-1,0.73288E-1
1.40182E-1,0.68985E-1
1.39129E-1,0.66467E-1
1.39068E-1,0.64712E-1
1.39831E-1,0.62286E-1
1.40014E-1,0.58227E-1
1.38420E-1,0.54878E-1
1.35742E-1,0.53146E-1
1.35704E-1,0.52497E-1
1.36131E-1,0.50743E-1
1.35223E-1,0.48255E-1
1.33567E-1,0.46417E-1
1.32186E-1,0.45043E-1
1.31599E-1,0.42739E-1
1.29768E-1,0.41030E-1
1.27670E-1,0.39924E-1
1.25824E-1,0.38299E-1
1.22322E-1,3.72848E-2
1.19094E-1,3.81012E-2
1.17935E-1,3.91159E-2
1.17202E-1,3.90472E-2
1.15097E-1,3.80249E-2
1.12609E-1,3.76281E-2
1.10107E-1,3.93829E-2
1.09268E-1,4.11987E-2
1.08993E-1,4.16564E-2
1.07711E-1,4.08630E-2
1.05224E-1,4.19921E-2
1.04522E-1,4.47235E-2
1.05514E-1,4.69360E-2
1.08009E-1,4.77447E-2
1.09977E-1,4.64553E-2
1.10107E-1,4.41513E-2
1.08192E-1,4.34417E-2
1.06254E-1,4.45556E-2
1.06864E-1,4.63790E-2
1.07444E-1,4.69436E-2
1.07902E-1,4.78057E-2
1.08757E-1,4.88128E-2
1.10389E-1,4.94308E-2
1.11930E-1,4.89654E-2
1.12899E-1,4.79507E-2
1.12396E-1,4.60357E-2
1.10672E-1,4.61425E-2
1.09832E-1,4.72259E-2
1.10351E-1,4.90570E-2
1.11602E-1,4.94842E-2
1.13113E-1,4.98657E-2
1.14028E-1,4.90112E-2
1.14318E-1,4.81338E-2
1.14822E-1,4.73709E-2
1.15089E-1,4.63790E-2
1.15036E-1,4.48303E-2
1.14364E-1,4.37851E-2
1.12686E-1,4.36096E-2
1.12503E-1,4.40368E-2
1.13700E-1,4.35028E-2
1.13746E-1,4.19616E-2
1.13586E-1,4.02069E-2
1.12388E-1,3.83529E-2
1.10511E-1,3.68804E-2
1.08360E-1,3.60183E-2
1.06498E-1,3.53241E-2
1.04064E-1,3.51104E-2
1.01249E-1,3.46679E-2
9.77630E-2,3.54995E-2
9.54589E-2,3.78189E-2
9.37194E-2,4.00085E-2
9.19494E-2,4.11148E-2
8.95156E-2,4.32434E-2
8.70056E-2,4.60662E-2
8.52508E-2,4.97970E-2
8.53500E-2,5.31311E-2
8.47244E-2,5.55267E-2
8.43734E-2,5.81359E-2
8.35800E-2,6.03866E-2
8.23669E-2,6.29653E-2
8.05206E-2,6.64215E-2
7.94677E-2,7.11975E-2
8.02230E-2,7.58895E-2
8.16803E-2,8.01620E-2
8.27026E-2,8.45718E-2
8.44116E-2,8.86840E-2
8.72345E-2,9.19799E-2
9.02175E-2,9.46197E-2
9.17968E-2,9.69543E-2
9.34677E-2,1.00135E-1
9.61074E-2,1.03973E-1
9.87396E-2,1.07589E-1
1.01974E-1,1.11496E-1
1.06643E-1,1.15432E-1
1.12106E-1,1.18255E-1
1.18682E-1,1.19415E-1
1.22772E-1,1.19323E-1
1.26373E-1,1.20666E-1
1.31240E-1,1.22283E-1
1.36169E-1,1.22650E-1
1.40884E-1,1.23779E-1
1.46560E-1,1.24786E-1
1.52267E-1,1.24740E-1
1.58157E-1,1.24160E-1
1.63345E-1,1.23596E-1
1.68731E-1,1.22238E-1
1.73934E-1,1.20300E-1
1.78222E-1,1.18423E-1
1.82937E-1,1.16775E-1
1.875E-1,1.15646E-1
1.93084E-1,1.14151E-1
1.99386E-1,1.11145E-1
2.05001E-1,1.06094E-1
2.08923E-1,1.02356E-1
2.11792E-1,0.97686E-1
2.16049E-1,0.93978E-1
2.19940E-1,0.89492E-1
2.23785E-1,0.85571E-1
2.27157E-1,0.79269E-1
2.29278E-1,0.73883E-1
2.31048E-1,0.69458E-1
2.33581E-1,0.64361E-1
2.35580E-1,0.59310E-1
2.37289E-1,0.54290E-1
2.39166E-1,0.48996E-1
2.40966E-1,0.43365E-1
2.41760E-1,0.37109E-1
2.41714E-1,0.30380E-1
2.40600E-1,0.24780E-1
2.38983E-1,0.20278E-1
2.38555E-1,0.16311E-1
2.39379E-1,0.11825E-1
2.38403E-1,0.06324E-1
2.37693E-1,0.01350E-1
2.36473E-1,-4.67681E-3
2.34016E-1,-9.34600E-3
2.31895E-1,-1.42440E-2
2.28858E-1,-1.91574E-2
2.25700E-1,-2.38494E-2
2.21298E-1,-2.76031E-2
2.18772E-1,-3.02581E-2
2.15141E-1,-3.31955E-2
2.11830E-1,-3.59420E-2
2.08122E-1,-3.92913E-2
2.03636E-1,-4.13360E-2
1.99722E-1,-4.25415E-2
1.96258E-1,-4.40444E-2
1.92527E-1,-4.53491E-2
1.89025E-1,-4.65393E-2
1.85012E-1,-4.68826E-2
1.81732E-1,-4.69512E-2
1.78085E-1,-4.63638E-2
1.74766E-1,-4.63867E-2
1.71501E-1,-4.51507E-2
1.69036E-1,-4.40902E-2
1.66511E-1,-4.25720E-2
1.63887E-1,-4.07028E-2
1.62551E-1,-3.88488E-2
1.61933E-1,-3.70025E-2
1.61544E-1,-3.51944E-2
1.61407E-1,-3.49578E-2
1.61010E-1,-3.42636E-2
1.60408E-1,-3.50494E-2
1.58844E-1,-3.50952E-2
1.57119E-1,-3.47442E-2
1.54792E-1,-3.35159E-2
1.53709E-1,-3.19824E-2
1.53312E-1,-3.08532E-2
1.52168E-1,-2.95562E-2
1.52183E-1,-2.75421E-2
1.52069E-1,-2.56424E-2
1.53015E-1,-2.47802E-2
1.54144E-1,-2.54516E-2
1.53610E-1,-2.57415E-2
1.52748E-1,-2.49252E-2
1.51992E-1,-2.34298E-2
1.52679E-1,-2.16827E-2
1.54373E-1,-2.11715E-2
1.55731E-1,-2.10952E-2
1.55960E-1,-2.16293E-2
1.56379E-1,-2.11105E-2
1.56288E-1,-1.92489E-2
1.58065E-1,-1.89209E-2
1.59439E-1,-1.94091E-2
1.60751E-1,-1.94549E-2
1.61537E-1,-1.94091E-2
1.61682E-1,-1.96685E-2
1.61674E-1,-2.00195E-2
1.61811E-1,-1.97601E-2
1.61994E-1,-1.92489E-2
1.63330E-1,-1.84555E-2
1.64657E-1,-1.81961E-2
1.65596E-1,-1.87530E-2
1.66374E-1,-1.98669E-2
1.66519E-1,-2.06756E-2
1.66458E-1,-2.12783E-2
1.66862E-1,-2.18582E-2
1.66572E-1,-2.25830E-2
1.66870E-1,-2.27050E-2
1.65832E-1,-2.26821E-2
1.65588E-1,-2.22320E-2
1.65344E-1,-2.22244E-2
1.66145E-1,-2.21176E-2
1.67152E-1,-2.20718E-2
1.66740E-1,-2.29415E-2
1.65359E-1,-2.23770E-2
1.65252E-1,-2.06069E-2
1.67320E-1,-1.96991E-2
1.68907E-1,-2.03094E-2
1.69761E-1,-1.98364E-2
1.69761E-1,-1.88140E-2
1.71104E-1,-1.75933E-2
1.72920E-1,-1.65176E-2
1.74758E-1,-1.73187E-2
1.76055E-1,-1.72653E-2
1.77467E-1,-1.63192E-2
1.79245E-1,-1.63955E-2
1.80839E-1,-1.70135E-2
1.81861E-1,-1.68151E-2
1.82678E-1,-1.62200E-2
1.84555E-1,-1.54876E-2
1.86569E-1,-1.54953E-2
1.88377E-1,-1.53274E-2
1.90597E-1,-1.53656E-2
1.92237E-1,-1.55563E-2
1.94458E-1,-1.58462E-2
1.96479E-1,-1.63497E-2
1.99050E-1,-1.75018E-2
2.01705E-1,-1.83563E-2
2.04124E-1,-2.02255E-2
2.06008E-1,-2.29644E-2
2.07595E-1,-2.43606E-2
2.08717E-1,-2.68554E-2
2.09930E-1,-2.82440E-2
2.11608E-1,-3.05404E-2
2.13005E-1,-3.30581E-2
2.13584E-1,-3.40652E-2
2.15446E-1,-3.52783E-2
2.18643E-1,-3.64532E-2
2.21305E-1,-3.99246E-2
2.22686E-1,-4.35257E-2
2.23182E-1,-4.78439E-2
2.23526E-1,-4.98580E-2
2.2435E-1,-5.20706E-2
2.25379E-1,-5.45578E-2
2.25967E-1,-5.79223E-2
2.25624E-1,-5.92804E-2
2.25929E-1,-6.16378E-2
2.26913E-1,-6.34841E-2
2.27920E-1,-6.62765E-2
2.28263E-1,-6.85806E-2
2.28973E-1,-7.19757E-2
2.27417E-1,-7.56454E-2
2.25791E-1,-7.82470E-2
2.24731E-1,-7.90939E-2
2.24731E-1,-8.04519E-2
2.25006E-1,-8.28170E-2
2.25112E-1,-8.56246E-2
2.23632E-1,-8.84628E-2
2.23548E-1,-9.02404E-2
2.22480E-1,-9.30328E-2
2.21908E-1,-9.59625E-2
2.20825E-1,-9.85870E-2
2.18917E-1,-1.01097E-1
2.17453E-1,-1.02623E-1
2.16392E-1,-1.04324E-1
2.15774E-1,-1.05697E-1
2.16278E-1,-1.07513E-1
2.15942E-1,-1.09588E-1
2.16056E-1,-1.12197E-1
2.15248E-1,-1.15333E-1
2.14279E-1,-1.16966E-1
2.14134E-1,-1.18667E-1
2.13134E-1,-1.20620E-1
2.12600E-1,-1.21742E-1
2.12722E-1,-1.23291E-1
2.13272E-1,-1.25366E-1
2.13592E-1,-1.28265E-1
2.12661E-1,-1.31546E-1
2.11463E-1,-1.33552E-1
2.10395E-1,-1.35597E-1
2.09930E-1,-1.37275E-1
2.08686E-1,-1.40640E-1
2.07115E-1,-1.42692E-1
2.05268E-1,-1.4505E-1
2.02751E-1,-1.46781E-1
2.00820E-1,-1.47445E-1
1.99890E-1,-1.48620E-1
1.99234E-1,-1.50642E-1
1.97937E-1,-1.53930E-1
1.95800E-1,-1.55738E-1
1.93809E-1,-1.57669E-1
1.92298E-1,-1.60301E-1
1.90773E-1,-1.63284E-1
1.87896E-1,-1.66404E-1
1.84837E-1,-1.68800E-1
1.81289E-1,-1.70211E-1
1.78932E-1,-1.7099E-1
1.76765E-1,-1.7202E-1
1.74743E-1,-1.73896E-1
1.73172E-1,-1.75407E-1
1.71485E-1,-1.77017E-1
1.68640E-1,-1.77719E-1
1.67533E-1,-1.79168E-1
1.65969E-1,-1.81251E-1
1.63284E-1,-1.82693E-1
1.61277E-1,-1.83754E-1
1.58889E-1,-1.84516E-1
1.56692E-1,-1.85737E-1
1.54373E-1,-1.87347E-1
1.51481E-1,-1.88186E-1
1.48429E-1,-1.88964E-1
1.46072E-1,-1.88896E-1
1.42692E-1,-1.89407E-1
1.39701E-1,-1.89605E-1
1.37229E-1,-1.89399E-1
1.34300E-1,-1.89056E-1
1.31378E-1,-1.89094E-1
1.27777E-1,-1.88667E-1
1.24435E-1,-1.87484E-1
1.21734E-1,-1.85852E-1
1.19621E-1,-1.84753E-1
1.17134E-1,-1.84600E-1
1.13861E-1,-1.83624E-1
1.11068E-1,-1.81205E-1
1.08947E-1,-1.78497E-1
1.08123E-1,-1.76849E-1
1.06246E-1,-1.75193E-1
1.05468E-1,-1.73774E-1
1.04896E-1,-1.72241E-1
1.04606E-1,-1.70349E-1
1.04599E-1,-1.69204E-1
1.04667E-1,-1.68724E-1
1.04850E-1,-1.68235E-1
1.03576E-1,-1.67923E-1
1.02272E-1,-1.66915E-1
1.01371E-1,-1.64817E-1
1.01478E-1,-1.62506E-1
1.02462E-1,-1.60118E-1
1.03828E-1,-1.58676E-1
1.05201E-1,-1.57440E-1
1.06803E-1,-1.56341E-1
1.08589E-1,-1.54953E-1
1.10977E-1,-1.55166E-1
1.12083E-1,-1.55677E-1
1.12907E-1,-1.55700E-1
1.138E-1,-1.55258E-1
1.15280E-1,-1.54869E-1
1.16897E-1,-1.54830E-1
1.18728E-1,-1.55860E-1
1.19972E-1,-1.57608E-1
1.20391E-1,-1.58790E-1
1.21185E-1,-1.59477E-1
1.21284E-1,-1.61315E-1
1.21597E-1,-1.63070E-1
1.21055E-1,-1.64520E-1
1.20826E-1,-1.65466E-1
1.21002E-1,-1.67221E-1
1.20780E-1,-1.69113E-1
1.2043E-1,-1.70669E-1
1.19834E-1,-1.72500E-1
1.18980E-1,-1.74179E-1
1.18873E-1,-1.75331E-1
1.18385E-1,-1.77322E-1
1.14639E-1,-1.79641E-1
1.14158E-1,-1.81465E-1
1.13868E-1,-1.83906E-1
1.12541E-1,-1.85989E-1
1.11740E-1,-1.88369E-1
1.09748E-1,-1.90452E-1
1.09642E-1,-1.91917E-1
1.07215E-1,-1.95335E-1
1.04766E-1,-1.96914E-1
1.02851E-1,-1.98379E-1
0.99952E-1,-2.00141E-1
0.98419E-1,-2.01690E-1
0.95710E-1,-2.03216E-1
0.92887E-1,-2.04521E-1
0.90675E-1,-2.04841E-1
0.87783E-1,-2.05047E-1
0.85334E-1,-2.05284E-1
0.84243E-1,-2.05650E-1
0.82740E-1,-2.06008E-1
0.80581E-1,-2.07260E-1
0.78018E-1,-2.08374E-1
0.75866E-1,-2.08915E-1
0.73127E-1,-2.09075E-1
0.71044E-1,-2.09159E-1
0.67771E-1,-2.09762E-1
