CITIFILE A.01.00
#NA VERSION HP8720D.06.14
NAME DATA
VAR FREQ MAG 1601
DATA S[1,1] RI

SEG_LIST_BEGIN
SEG 1000000000 8000000000 1601
SEG_LIST_END
BEGIN
3.22067E-1,-4.57611E-1
2.97699E-1,-4.66095E-1
2.73223E-1,-4.73953E-1
2.50518E-1,-4.79370E-1
2.30255E-1,-4.86053E-1
2.05474E-1,-4.94201E-1
1.77490E-1,-4.97467E-1
1.54647E-1,-4.97634E-1
1.30172E-1,-4.97268E-1
1.06674E-1,-4.94064E-1
0.85708E-1,-4.90676E-1
0.66146E-1,-4.85977E-1
0.46844E-1,-4.82132E-1
0.29724E-1,-4.78042E-1
0.08712E-1,-4.74670E-1
-1.22375E-2,-4.67224E-1
-2.91595E-2,-4.56970E-1
-4.32891E-2,-4.46258E-1
-5.64575E-2,-4.37805E-1
-6.81152E-2,-4.29779E-1
-7.99560E-2,-4.23156E-1
-9.24072E-2,-4.16137E-1
-1.05468E-1,-4.10339E-1
-1.19476E-1,-4.03595E-1
-1.33606E-1,-3.93768E-1
-1.45904E-1,-3.85192E-1
-1.57836E-1,-3.77594E-1
-1.73065E-1,-3.68621E-1
-1.87347E-1,-3.56689E-1
-1.99890E-1,-3.42956E-1
-2.10540E-1,-3.27362E-1
-2.17315E-1,-3.12225E-1
-2.23205E-1,-2.98919E-1
-2.28790E-1,-2.85705E-1
-2.31079E-1,-2.72827E-1
-2.31262E-1,-2.63504E-1
-2.33566E-1,-2.56927E-1
-2.38647E-1,-2.50671E-1
-2.43820E-1,-2.42202E-1
-2.46109E-1,-2.29263E-1
-2.47039E-1,-2.26394E-1
-2.53677E-1,-2.2435E-1
-2.62741E-1,-2.18399E-1
-2.70141E-1,-2.11486E-1
-2.76657E-1,-2.04193E-1
-2.85369E-1,-1.97876E-1
-2.95288E-1,-1.88583E-1
-3.02658E-1,-1.76055E-1
-3.09875E-1,-1.66305E-1
-3.16803E-1,-1.54357E-1
-3.24142E-1,-1.41799E-1
-3.29864E-1,-1.27197E-1
-3.32702E-1,-1.11282E-1
-3.33801E-1,-9.63897E-2
-3.34701E-1,-8.26263E-2
-3.34564E-1,-6.97631E-2
-3.32992E-1,-5.69152E-2
-3.29849E-1,-4.60815E-2
-3.29940E-1,-3.75824E-2
-3.30413E-1,-2.77404E-2
-3.30093E-1,-1.63421E-2
-3.28094E-1,-6.79016E-3
-3.27758E-1,0.00747E-1
-3.28720E-1,0.09246E-1
-3.29681E-1,0.19393E-1
-3.29772E-1,0.28747E-1
-3.30841E-1,0.38696E-1
-3.31176E-1,0.50323E-1
-3.29681E-1,0.63842E-1
-3.24432E-1,0.75073E-1
-3.19274E-1,0.82061E-1
-3.17901E-1,0.86822E-1
-3.20190E-1,0.94253E-1
-3.21701E-1,1.04827E-1
-3.21258E-1,1.17462E-1
-3.18832E-1,1.28921E-1
-3.16513E-1,1.40914E-1
-3.14315E-1,1.53121E-1
-3.10104E-1,1.66015E-1
-3.03588E-1,1.79153E-1
-2.96447E-1,1.89941E-1
-2.89001E-1,1.99111E-1
-2.82363E-1,2.06939E-1
-2.78732E-1,2.16049E-1
-2.73971E-1,2.25708E-1
-2.67471E-1,2.36602E-1
-2.62191E-1,2.46719E-1
-2.55691E-1,2.57431E-1
-2.48306E-1,2.69668E-1
-2.39486E-1,2.79418E-1
-2.31216E-1,2.88650E-1
-2.22198E-1,2.99285E-1
-2.11227E-1,3.09875E-1
-1.98471E-1,3.19580E-1
-1.83990E-1,3.26889E-1
-1.70883E-1,3.32443E-1
-1.57959E-1,3.36792E-1
-1.44546E-1,3.39157E-1
-1.33377E-1,3.40988E-1
-1.24267E-1,3.43048E-1
-1.15600E-1,3.47366E-1
-1.04843E-1,3.52508E-1
-9.16290E-2,3.56567E-1
-7.79418E-2,3.57864E-1
-6.64825E-2,3.58169E-1
-5.56488E-2,3.58169E-1
-4.51049E-2,3.57849E-1
-3.59954E-2,3.57971E-1
-2.68402E-2,3.59298E-1
-1.73492E-2,3.59573E-1
-7.32421E-3,3.62838E-1
0.05874E-1,3.64440E-1
0.18768E-1,3.63372E-1
0.30105E-1,3.61160E-1
0.39764E-1,3.58520E-1
0.49072E-1,3.57421E-1
0.58639E-1,3.57391E-1
0.71029E-1,3.57833E-1
0.83007E-1,3.56689E-1
0.94574E-1,3.54126E-1
1.06323E-1,3.52874E-1
1.20239E-1,3.49929E-1
1.35177E-1,3.43338E-1
1.47598E-1,3.35952E-1
1.57745E-1,3.27621E-1
1.66946E-1,3.20953E-1
1.7659E-1,3.13354E-1
1.86645E-1,3.05892E-1
1.95434E-1,2.96295E-1
2.02804E-1,2.87109E-1
2.09381E-1,2.78518E-1
2.17193E-1,2.71713E-1
2.25982E-1,2.64312E-1
2.32879E-1,2.53463E-1
2.40768E-1,2.44598E-1
2.45346E-1,2.33627E-1
2.50976E-1,2.23190E-1
2.54577E-1,2.12402E-1
2.58239E-1,2.02301E-1
2.62725E-1,1.92749E-1
2.6651E-1,1.83044E-1
2.68676E-1,1.71539E-1
2.69897E-1,1.63024E-1
2.71514E-1,1.54602E-1
2.74414E-1,1.46514E-1
2.78320E-1,1.38397E-1
2.82562E-1,1.26464E-1
2.8302E-1,1.14929E-1
2.81707E-1,1.04675E-1
2.81601E-1,0.97213E-1
2.82775E-1,0.88592E-1
2.83142E-1,0.79650E-1
2.83294E-1,0.71197E-1
2.84820E-1,0.63385E-1
2.86956E-1,0.52795E-1
2.87887E-1,0.41305E-1
2.87551E-1,0.29739E-1
2.85858E-1,0.18325E-1
2.83660E-1,0.07141E-1
2.80990E-1,-4.34875E-3
2.76748E-1,-1.66015E-2
2.71057E-1,-2.67944E-2
2.65518E-1,-3.63311E-2
2.59857E-1,-4.60510E-2
2.53463E-1,-5.58166E-2
2.45544E-1,-6.45294E-2
2.36503E-1,-7.21283E-2
2.27478E-1,-7.73620E-2
2.20932E-1,-8.34198E-2
2.13378E-1,-9.01641E-2
2.03537E-1,-9.62371E-2
1.92543E-1,-9.90219E-2
1.84509E-1,-9.92431E-2
1.80221E-1,-1.00479E-1
1.76071E-1,-1.04965E-1
1.69418E-1,-1.11366E-1
1.59767E-1,-1.15737E-1
1.51290E-1,-1.17149E-1
1.43745E-1,-1.19979E-1
1.34956E-1,-1.21856E-1
1.26327E-1,-1.22497E-1
1.18850E-1,-1.22306E-1
1.11476E-1,-1.21757E-1
1.04541E-1,-1.21025E-1
9.75990E-2,-1.19052E-1
9.22203E-2,-1.17130E-1
8.81843E-2,-1.14963E-1
8.44268E-2,-1.13807E-1
8.05358E-2,-1.12754E-1
7.82890E-2,-1.11995E-1
7.51037E-2,-1.13811E-1
7.05375E-2,-1.15791E-1
6.48345E-2,-1.16313E-1
5.94940E-2,-1.17164E-1
5.25283E-2,-1.16748E-1
4.63218E-2,-1.16245E-1
4.04701E-2,-1.15165E-1
3.41072E-2,-1.13208E-1
2.83927E-2,-1.11412E-1
2.26249E-2,-1.08917E-1
1.77574E-2,-1.06220E-1
1.13868E-2,-1.03084E-1
0.60997E-2,-1.00452E-1
0.18234E-2,-9.69696E-2
-3.02887E-3,-9.40780E-2
-7.69043E-3,-9.06524E-2
-1.16958E-2,-8.67042E-2
-1.59339E-2,-8.25576E-2
-1.9104E-2,-7.79647E-2
-2.13470E-2,-7.42874E-2
-2.31514E-2,-7.02858E-2
-2.49824E-2,-6.72226E-2
-2.70996E-2,-6.39724E-2
-2.86407E-2,-6.05392E-2
-2.95524E-2,-5.74531E-2
-3.04031E-2,-5.54084E-2
-3.21655E-2,-5.35011E-2
-3.38020E-2,-5.10368E-2
-3.56636E-2,-4.89730E-2
-3.75595E-2,-4.70962E-2
-4.06341E-2,-4.54139E-2
-4.46052E-2,-4.24842E-2
-4.85687E-2,-3.71627E-2
-5.00488E-2,-3.10668E-2
-4.98008E-2,-2.58102E-2
-4.96215E-2,-2.22320E-2
-5.02891E-2,-1.92527E-2
-5.10864E-2,-1.58615E-2
-5.17501E-2,-1.21231E-2
-5.23014E-2,-8.70895E-3
-5.26218E-2,-5.81932E-3
-5.37738E-2,-3.08227E-3
-5.52101E-2,0.07267E-2
-5.60665E-2,0.47950E-2
-5.61447E-2,0.89969E-2
-5.56812E-2,1.29604E-2
-5.43689E-2,1.57356E-2
-5.41858E-2,1.77860E-2
-5.41839E-2,2.02770E-2
-5.43403E-2,2.25448E-2
-5.51662E-2,2.52342E-2
-5.50727E-2,2.89859E-2
-5.43079E-2,3.20587E-2
-5.33504E-2,3.47690E-2
-5.22861E-2,3.69453E-2
-5.22975E-2,3.87363E-2
-5.26695E-2,4.16126E-2
-5.23643E-2,4.52346E-2
-5.09605E-2,4.84352E-2
-5.02586E-2,5.13954E-2
-4.93774E-2,5.45845E-2
-4.74700E-2,5.81436E-2
-4.55436E-2,6.03332E-2
-4.52308E-2,6.25228E-2
-4.48036E-2,6.60934E-2
-4.29801E-2,6.99234E-2
-4.09889E-2,7.35626E-2
-3.80325E-2,7.7034E-2
-3.47785E-2,7.91549E-2
-3.15551E-2,8.02993E-2
-2.99720E-2,8.04595E-2
-2.90947E-2,8.17031E-2
-2.76527E-2,8.32557E-2
-2.61459E-2,8.39538E-2
-2.53257E-2,8.46786E-2
-2.49786E-2,8.53385E-2
-2.50816E-2,8.69178E-2
-2.44674E-2,8.84017E-2
-2.36396E-2,8.98246E-2
-2.29797E-2,9.09347E-2
-2.28118E-2,9.14001E-2
-2.40402E-2,9.28421E-2
-2.46582E-2,9.60845E-2
-2.40173E-2,9.91668E-2
-2.33802E-2,1.01852E-1
-2.30064E-2,1.05361E-1
-2.23999E-2,1.09493E-1
-2.06489E-2,1.14528E-1
-1.73454E-2,1.18732E-1
-1.40190E-2,1.22825E-1
-1.05209E-2,1.27021E-1
-5.88226E-3,1.30493E-1
-2.29644E-3,1.33911E-1
0.01861E-1,1.37611E-1
0.06286E-1,1.40556E-1
0.11039E-1,1.45202E-1
0.17890E-1,1.49246E-1
0.25726E-1,1.51649E-1
0.32463E-1,1.52908E-1
0.38711E-1,1.53945E-1
0.44815E-1,1.54678E-1
0.51345E-1,1.55487E-1
0.58715E-1,1.56021E-1
0.66406E-1,1.55410E-1
0.74493E-1,1.54182E-1
0.82336E-1,1.52168E-1
0.89866E-1,1.48834E-1
0.9729E-1,1.44065E-1
1.04515E-1,1.38969E-1
1.11045E-1,1.32278E-1
1.16752E-1,1.24321E-1
1.20124E-1,1.16134E-1
1.21871E-1,1.08985E-1
1.24641E-1,1.01890E-1
1.25808E-1,0.95199E-1
1.27059E-1,0.87921E-1
1.27426E-1,0.80673E-1
1.27395E-1,0.74386E-1
1.27166E-1,0.67825E-1
1.25930E-1,0.61889E-1
1.23382E-1,5.62591E-2
1.21681E-1,5.13076E-2
1.19209E-1,4.69207E-2
1.17019E-1,4.22058E-2
1.13273E-1,3.83606E-2
1.10000E-1,3.55224E-2
1.07338E-1,3.28064E-2
1.03363E-1,2.96173E-2
9.88006E-2,2.75726E-2
9.39788E-2,2.63023E-2
8.91418E-2,2.65388E-2
8.53691E-2,2.77404E-2
8.28819E-2,2.89001E-2
8.05816E-2,2.95906E-2
7.81135E-2,2.96974E-2
7.58667E-2,3.02734E-2
7.30438E-2,2.99148E-2
6.88552E-2,3.06854E-2
6.52618E-2,3.34320E-2
6.31256E-2,3.73840E-2
6.35757E-2,4.11300E-2
6.47506E-2,4.25224E-2
6.45675E-2,4.31251E-2
6.40487E-2,4.5578E-2
6.51702E-2,4.78363E-2
6.63757E-2,4.91561E-2
6.80160E-2,5.14068E-2
7.08503E-2,5.23567E-2
7.36084E-2,5.23757E-2
7.57980E-2,5.19943E-2
7.77130E-2,5.18493E-2
7.98568E-2,5.17272E-2
8.17565E-2,5.11627E-2
8.32824E-2,5.11169E-2
8.60290E-2,5.12695E-2
8.88366E-2,5.01556E-2
9.08508E-2,4.91790E-2
9.37194E-2,4.75311E-2
9.48715E-2,4.53414E-2
9.57183E-2,4.44717E-2
9.77249E-2,4.34417E-2
1.00013E-1,4.15649E-2
1.01684E-1,3.89480E-2
1.02684E-1,3.60641E-2
1.02592E-1,3.36990E-2
1.02920E-1,3.11126E-2
1.04675E-1,2.85797E-2
1.05651E-1,2.52075E-2
1.05346E-1,2.16369E-2
1.05781E-1,1.85623E-2
1.06033E-1,1.56021E-2
1.06842E-1,1.24969E-2
1.08184E-1,0.74539E-2
1.07612E-1,0.24566E-2
1.05072E-1,-2.53677E-3
1.02455E-1,-6.15692E-3
1.01688E-1,-9.59014E-3
9.92889E-2,-1.34048E-2
9.68322E-2,-1.66626E-2
9.49859E-2,-1.91497E-2
9.32235E-2,-2.27012E-2
9.10377E-2,-2.68287E-2
8.71810E-2,-3.13682E-2
8.18519E-2,-3.39012E-2
7.76023E-2,-3.57208E-2
7.27691E-2,-3.74069E-2
6.78253E-2,-3.80592E-2
6.37283E-2,-3.80706E-2
6.03923E-2,-3.87458E-2
5.64384E-2,-3.95755E-2
5.24864E-2,-4.04510E-2
4.85992E-2,-4.12426E-2
4.43897E-2,-4.28848E-2
3.87706E-2,-4.42371E-2
3.24802E-2,-4.49657E-2
2.59094E-2,-4.42123E-2
2.04391E-2,-4.27227E-2
1.51481E-2,-4.09526E-2
1.07975E-2,-3.96060E-2
0.57792E-2,-3.88908E-2
0.03776E-2,-3.74507E-2
-4.96673E-3,-3.58619E-2
-1.06849E-2,-3.35693E-2
-1.63650E-2,-3.10134E-2
-2.27851E-2,-2.76260E-2
-2.91366E-2,-2.21138E-2
-3.28693E-2,-1.51100E-2
-3.49865E-2,-9.58633E-3
-3.75900E-2,-4.75120E-3
-4.00466E-2,0.09021E-2
-4.25262E-2,0.65288E-2
-4.44259E-2,1.27277E-2
-4.55207E-2,1.90868E-2
-4.60681E-2,2.49538E-2
-4.72984E-2,3.06510E-2
-4.84409E-2,3.72486E-2
-4.88300E-2,4.50286E-2
-4.75025E-2,5.29003E-2
-4.47711E-2,5.99613E-2
-4.13589E-2,6.56013E-2
-3.85513E-2,6.95152E-2
-3.74031E-2,7.42416E-2
-3.53851E-2,7.96051E-2
-3.29246E-2,8.47969E-2
-2.95524E-2,9.02252E-2
-2.48146E-2,9.50126E-2
-1.99241E-2,9.77630E-2
-1.61094E-2,1.00246E-1
-1.17263E-2,1.03096E-1
-7.11822E-3,1.04354E-1
-3.29589E-3,1.05430E-1
0.08087E-2,1.06826E-1
0.51040E-2,1.07040E-1
0.83847E-2,1.06826E-1
1.15280E-2,1.07437E-1
1.49040E-2,1.08268E-1
1.86920E-2,1.07238E-1
2.07824E-2,1.06315E-1
2.34527E-2,1.07246E-1
2.62832E-2,1.0746E-1
2.92816E-2,1.08238E-1
3.31115E-2,1.07986E-1
3.58886E-2,1.06765E-1
3.81622E-2,1.05865E-1
4.02374E-2,1.05850E-1
4.28314E-2,1.05102E-1
4.42504E-2,1.04568E-1
4.58984E-2,1.04736E-1
4.82482E-2,1.04049E-1
4.96063E-2,1.02508E-1
5.03692E-2,1.01547E-1
5.01251E-2,1.02081E-1
5.12771E-2,1.02829E-1
5.34973E-2,1.03103E-1
5.54428E-2,1.02157E-1
5.65872E-2,1.00631E-1
5.71136E-2,9.92202E-2
5.70755E-2,9.79766E-2
5.66482E-2,9.71145E-2
5.61447E-2,9.66873E-2
5.55572E-2,9.68399E-2
5.50460E-2,9.77325E-2
5.53894E-2,9.84039E-2
5.65338E-2,9.90448E-2
5.77545E-2,9.95025E-2
5.81817E-2,9.94720E-2
5.83801E-2,1.00219E-1
5.84259E-2,1.01226E-1
5.92041E-2,1.03530E-1
6.18820E-2,1.05697E-1
6.43158E-2,1.07254E-1
6.76269E-2,1.08413E-1
7.02514E-2,1.08627E-1
7.19680E-2,1.08902E-1
7.45849E-2,1.10214E-1
7.67517E-2,1.10244E-1
7.84606E-2,1.11511E-1
8.06884E-2,1.14265E-1
8.44116E-2,1.16676E-1
8.91265E-2,1.17187E-1
9.28497E-2,1.16867E-1
9.59014E-2,1.16806E-1
1.00845E-1,1.17141E-1
1.05560E-1,1.16500E-1
1.10870E-1,1.13540E-1
1.13403E-1,1.09802E-1
1.14242E-1,1.07788E-1
1.16531E-1,1.06918E-1
1.19659E-1,1.05590E-1
1.24069E-1,1.03096E-1
1.27807E-1,0.98999E-1
1.29997E-1,0.94657E-1
1.31729E-1,0.90087E-1
1.32797E-1,0.85617E-1
1.33468E-1,0.81672E-1
1.33087E-1,0.77697E-1
1.32904E-1,0.74836E-1
1.33163E-1,0.70983E-1
1.32247E-1,0.67230E-1
1.30859E-1,0.65269E-1
1.30554E-1,0.63972E-1
1.31416E-1,0.61798E-1
1.31057E-1,0.58517E-1
1.29554E-1,0.56137E-1
1.27998E-1,0.54412E-1
1.27273E-1,0.53993E-1
1.26846E-1,0.52825E-1
1.26518E-1,0.51338E-1
1.26022E-1,0.49636E-1
1.25457E-1,0.48484E-1
1.24588E-1,4.59671E-2
1.22528E-1,4.38537E-2
1.20300E-1,4.22744E-2
1.17530E-1,4.09927E-2
1.1409E-1,4.05654E-2
1.10878E-1,4.16259E-2
1.09489E-1,4.24881E-2
1.07498E-1,4.23278E-2
1.05041E-1,4.25415E-2
1.01959E-1,4.30908E-2
9.92736E-2,4.55627E-2
9.89074E-2,4.8172E-2
9.81750E-2,4.94232E-2
9.74578E-2,5.03845E-2
9.53826E-2,5.29937E-2
9.58404E-2,5.63049E-2
9.78546E-2,5.88836E-2
9.99450E-2,5.99517E-2
1.01753E-1,5.99594E-2
1.02790E-1,5.92422E-2
1.02264E-1,5.94711E-2
1.01593E-1,6.13021E-2
1.03172E-1,6.30645E-2
1.05155E-1,6.43386E-2
1.06727E-1,6.53076E-2
1.08863E-1,6.67495E-2
1.12144E-1,6.73904E-2
1.1483E-1,6.68563E-2
1.17317E-1,6.49261E-2
1.17095E-1,6.29119E-2
1.16973E-1,6.31103E-2
1.17553E-1,6.30340E-2
1.19293E-1,6.36749E-2
1.20330E-1,6.32476E-2
1.21429E-1,6.33239E-2
1.22970E-1,6.32019E-2
1.25076E-1,0.61554E-1
1.26258E-1,0.60096E-1
1.26762E-1,0.59471E-1
1.27739E-1,0.57884E-1
1.28845E-1,0.56747E-1
1.29119E-1,0.54649E-1
1.29447E-1,0.53337E-1
1.30157E-1,0.52024E-1
1.31462E-1,0.49667E-1
1.31179E-1,0.45845E-1
1.29913E-1,0.43357E-1
1.28387E-1,0.40901E-1
1.26556E-1,0.38780E-1
1.24374E-1,3.75671E-2
1.22222E-1,3.61022E-2
1.19331E-1,3.52249E-2
1.16684E-1,3.45840E-2
1.13891E-1,3.50494E-2
1.11152E-1,3.59954E-2
1.09184E-1,3.71093E-2
1.06575E-1,3.77960E-2
1.03683E-1,3.91540E-2
1.01173E-1,4.24194E-2
9.96017E-2,4.51812E-2
9.89532E-2,4.77981E-2
9.85031E-2,4.99420E-2
9.77249E-2,5.13763E-2
9.62219E-2,5.37185E-2
9.49401E-2,5.60836E-2
9.33532E-2,5.97152E-2
9.36050E-2,6.28509E-2
9.33075E-2,6.54373E-2
9.26361E-2,6.91452E-2
9.33532E-2,7.37838E-2
9.54208E-2,7.78045E-2
9.81674E-2,8.00552E-2
9.98916E-2,8.14590E-2
1.00715E-1,8.37249E-2
1.01982E-1,8.65707E-2
1.03538E-1,8.89053E-2
1.04614E-1,9.27734E-2
1.07772E-1,9.65881E-2
1.12609E-1,9.96246E-2
1.16897E-1,1.00708E-1
1.19430E-1,1.01402E-1
1.22291E-1,1.03431E-1
1.26709E-1,1.05430E-1
1.30416E-1,1.06246E-1
1.34040E-1,1.07734E-1
1.3797E-1,1.09382E-1
1.43051E-1,1.10572E-1
1.47338E-1,1.11175E-1
1.52313E-1,1.10565E-1
1.56433E-1,1.10290E-1
1.60583E-1,1.10000E-1
1.64856E-1,1.09726E-1
1.70150E-1,1.09878E-1
1.74865E-1,1.09252E-1
1.80343E-1,1.08245E-1
1.85821E-1,1.06353E-1
1.91085E-1,1.03195E-1
1.95709E-1,1.00387E-1
1.99630E-1,0.97534E-1
2.03857E-1,0.94528E-1
2.07946E-1,0.90469E-1
2.12524E-1,0.87295E-1
2.16537E-1,0.82199E-1
2.19299E-1,0.77026E-1
2.21954E-1,0.72891E-1
2.24746E-1,0.68557E-1
2.26547E-1,0.64071E-1
2.29156E-1,0.60485E-1
2.32849E-1,0.55496E-1
2.35794E-1,0.49926E-1
2.37838E-1,0.43975E-1
2.38586E-1,0.36834E-1
2.37991E-1,0.30548E-1
2.37304E-1,0.25665E-1
2.36648E-1,0.21118E-1
2.37518E-1,0.16555E-1
2.37510E-1,0.11596E-1
2.37937E-1,0.06301E-1
2.37014E-1,0.00137E-1
2.34779E-1,-5.22613E-3
2.33833E-1,-1.02005E-2
2.31834E-1,-1.66778E-2
2.28256E-1,-2.21710E-2
2.24304E-1,-2.62756E-2
2.20909E-1,-2.98233E-2
2.17575E-1,-3.31802E-2
2.14111E-1,-3.71627E-2
2.09777E-1,-4.08477E-2
2.04772E-1,-4.33349E-2
2.00775E-1,-4.45022E-2
1.97525E-1,-4.57687E-2
1.93962E-1,-4.76074E-2
1.90330E-1,-4.98657E-2
1.85508E-1,-5.12847E-2
1.81335E-1,-5.14831E-2
1.77063E-1,-5.13992E-2
1.73957E-1,-5.08194E-2
1.70509E-1,-5.11016E-2
1.66549E-1,-5.09567E-2
1.62262E-1,-4.90341E-2
1.58538E-1,-4.64325E-2
1.56662E-1,-4.34188E-2
1.55479E-1,-4.14199E-2
1.54563E-1,-3.96575E-2
1.53297E-1,-3.81393E-2
1.52771E-1,-3.69796E-2
1.52496E-1,-3.60565E-2
1.51023E-1,-3.62319E-2
1.49360E-1,-3.51715E-2
1.47338E-1,-3.40576E-2
1.45332E-1,-3.21502E-2
1.44004E-1,-2.98538E-2
1.43539E-1,-2.74887E-2
1.42776E-1,-2.54898E-2
1.43142E-1,-2.31246E-2
1.43959E-1,-2.10342E-2
1.45301E-1,-1.92413E-2
1.46324E-1,-1.96456E-2
1.46034E-1,-1.86386E-2
1.46003E-1,-1.70059E-2
1.47666E-1,-1.52816E-2
1.49246E-1,-1.36642E-2
1.51718E-1,-1.38168E-2
1.52290E-1,-1.42898E-2
1.53411E-1,-1.42440E-2
1.53480E-1,-1.36184E-2
1.55052E-1,-1.25503E-2
1.56959E-1,-1.31301E-2
1.57959E-1,-1.29241E-2
1.59233E-1,-1.31835E-2
1.59629E-1,-1.38855E-2
1.59301E-1,-1.40457E-2
1.59797E-1,-1.39236E-2
1.60255E-1,-1.31607E-2
1.61262E-1,-1.29852E-2
1.62544E-1,-1.33361E-2
1.63375E-1,-1.33132E-2
1.63909E-1,-1.33972E-2
1.63909E-1,-1.36184E-2
1.64695E-1,-1.34887E-2
1.65557E-1,-1.49459E-2
1.64779E-1,-1.57012E-2
1.64634E-1,-1.50222E-2
1.64444E-1,-1.43508E-2
1.64604E-1,-1.44577E-2
1.64566E-1,-1.39465E-2
1.64688E-1,-1.33514E-2
1.66183E-1,-1.25122E-2
1.67015E-1,-1.25351E-2
1.67106E-1,-1.14212E-2
1.67999E-1,-9.38415E-3
1.70425E-1,-9.28497E-3
1.72943E-1,-9.44519E-3
1.73744E-1,-9.90295E-3
1.74575E-1,-9.28497E-3
1.76429E-1,-7.58361E-3
1.79557E-1,-6.88171E-3
1.81915E-1,-8.15582E-3
1.83883E-1,-9.27734E-3
1.84097E-1,-8.49151E-3
1.86492E-1,-7.30133E-3
1.89308E-1,-7.92694E-3
1.90979E-1,-7.97271E-3
1.92802E-1,-8.13293E-3
1.94877E-1,-8.36181E-3
1.97738E-1,-8.22448E-3
1.99996E-1,-9.33837E-3
2.02133E-1,-1.01470E-2
2.04971E-1,-1.07269E-2
2.07176E-1,-1.19476E-2
2.09579E-1,-1.34124E-2
2.12234E-1,-1.48849E-2
2.14958E-1,-1.69372E-2
2.17842E-1,-1.92108E-2
2.19680E-1,-2.24533E-2
2.21290E-1,-2.56729E-2
2.22106E-1,-2.83126E-2
2.23037E-1,-3.13034E-2
2.24243E-1,-3.27529E-2
2.26020E-1,-3.57437E-2
2.26745E-1,-3.75976E-2
2.28462E-1,-4.02679E-2
2.31277E-1,-4.25262E-2
2.33398E-1,-4.68978E-2
2.34291E-1,-5.03997E-2
2.34550E-1,-5.45120E-2
2.34718E-1,-5.71670E-2
2.35778E-1,-5.99288E-2
2.36503E-1,-6.38580E-2
2.36915E-1,-6.79626E-2
2.36228E-1,-7.06024E-2
2.35702E-1,-7.25555E-2
2.36328E-1,-7.59048E-2
2.36129E-1,-8.00018E-2
2.35321E-1,-8.34732E-2
2.33802E-1,-8.72650E-2
2.32170E-1,-8.94775E-2
2.30468E-1,-9.25827E-2
2.28279E-1,-9.45739E-2
2.26959E-1,-9.69009E-2
2.25830E-1,-9.89303E-2
2.23861E-1,-1.01425E-1
2.22000E-1,-1.03530E-1
2.20016E-1,-1.05941E-1
2.18498E-1,-1.07673E-1
2.16201E-1,-1.09710E-1
2.14004E-1,-1.11419E-1
2.12379E-1,-1.12915E-1
2.10479E-1,-1.13815E-1
2.08984E-1,-1.15264E-1
2.07336E-1,-1.16149E-1
2.06947E-1,-1.16859E-1
2.06207E-1,-1.17927E-1
2.05864E-1,-1.19567E-1
2.05337E-1,-1.21604E-1
2.04109E-1,-1.23062E-1
2.03552E-1,-1.23291E-1
2.02278E-1,-1.24427E-1
2.02125E-1,-1.25007E-1
2.02072E-1,-1.25801E-1
2.02705E-1,-1.26792E-1
2.03315E-1,-1.28837E-1
2.03430E-1,-1.30859E-1
2.02323E-1,-1.32484E-1
2.01599E-1,-1.34407E-1
2.01446E-1,-1.35780E-1
2.00546E-1,-1.37481E-1
1.99821E-1,-1.39518E-1
1.98295E-1,-1.41586E-1
1.96556E-1,-1.43508E-1
1.94984E-1,-1.43707E-1
1.94633E-1,-1.44607E-1
1.95076E-1,-1.45996E-1
1.94732E-1,-1.49253E-1
1.92909E-1,-1.51512E-1
1.91551E-1,-1.53427E-1
1.90727E-1,-1.55952E-1
1.89476E-1,-1.58973E-1
1.87454E-1,-1.61987E-1
1.85165E-1,-1.64688E-1
1.82670E-1,-1.66832E-1
1.80259E-1,-1.68212E-1
1.77810E-1,-1.70349E-1
1.75422E-1,-1.71455E-1
1.74430E-1,-1.73408E-1
1.73019E-1,-1.75735E-1
1.70051E-1,-1.77116E-1
1.68197E-1,-1.78207E-1
1.67213E-1,-1.80183E-1
1.65542E-1,-1.82090E-1
1.63856E-1,-1.83891E-1
1.61361E-1,-1.85691E-1
1.59469E-1,-1.87431E-1
1.56730E-1,-1.89155E-1
1.53640E-1,-1.90811E-1
1.50421E-1,-1.92085E-1
1.47934E-1,-1.92733E-1
1.44874E-1,-1.93992E-1
1.41090E-1,-1.94587E-1
1.37062E-1,-1.94885E-1
1.33934E-1,-1.94114E-1
1.31324E-1,-1.93626E-1
1.28059E-1,-1.94892E-1
1.23779E-1,-1.94358E-1
1.19804E-1,-1.93641E-1
1.16279E-1,-1.92253E-1
1.12884E-1,-1.91757E-1
1.09031E-1,-1.90277E-1
1.05766E-1,-1.87553E-1
1.03881E-1,-1.84692E-1
1.01661E-1,-1.83334E-1
0.99891E-1,-1.81579E-1
0.97702E-1,-1.79588E-1
0.96633E-1,-1.77650E-1
0.95108E-1,-1.75399E-1
0.94047E-1,-1.74194E-1
0.93177E-1,-1.72348E-1
0.92231E-1,-1.70600E-1
0.91362E-1,-1.69090E-1
0.90484E-1,-1.66969E-1
0.89592E-1,-1.64505E-1
0.89340E-1,-1.62002E-1
0.89942E-1,-1.58752E-1
0.91529E-1,-1.56402E-1
0.92559E-1,-1.54365E-1
0.93895E-1,-1.52534E-1
0.95237E-1,-1.50253E-1
0.97396E-1,-1.48307E-1
0.99853E-1,-1.47270E-1
1.01898E-1,-1.46614E-1
1.03744E-1,-1.46110E-1
1.05171E-1,-1.45210E-1
1.07414E-1,-1.44378E-1
1.09718E-1,-1.44455E-1
1.11763E-1,-1.45820E-1
1.12487E-1,-1.46530E-1
1.1409E-1,-1.46682E-1
1.15417E-1,-1.48185E-1
1.16622E-1,-1.49581E-1
1.16615E-1,-1.50772E-1
1.16905E-1,-1.5168E-1
1.17775E-1,-1.52885E-1
1.18164E-1,-1.54464E-1
1.18141E-1,-1.56021E-1
1.18606E-1,-1.57356E-1
1.18797E-1,-1.58454E-1
1.19705E-1,-1.60202E-1
1.20140E-1,-1.62040E-1
1.18202E-1,-1.64131E-1
1.17973E-1,-1.66229E-1
1.18347E-1,-1.69052E-1
1.17988E-1,-1.71501E-1
1.17408E-1,-1.74499E-1
1.17668E-1,-1.76597E-1
1.17317E-1,-1.79191E-1
1.16539E-1,-1.82067E-1
1.14593E-1,-1.85134E-1
1.13639E-1,-1.87606E-1
1.11236E-1,-1.89819E-1
1.09779E-1,-1.91452E-1
1.07246E-1,-1.93519E-1
1.05392E-1,-1.94854E-1
1.03630E-1,-1.96388E-1
1.01562E-1,-1.97837E-1
0.99807E-1,-1.9841E-1
0.98480E-1,-2.00073E-1
0.97221E-1,-2.01683E-1
0.94650E-1,-2.03598E-1
0.92025E-1,-2.05246E-1
0.89843E-1,-2.06077E-1
0.87310E-1,-2.06413E-1
0.85464E-1,-2.07717E-1
0.82168E-1,-2.08694E-1
0.79055E-1,-2.09205E-1
