CITIFILE A.01.00
#NA VERSION HP8720D.06.14
NAME DATA
VAR FREQ MAG 1601
DATA S[1,1] RI

SEG_LIST_BEGIN
SEG 1000000000 8000000000 1601
SEG_LIST_END
BEGIN
3.19580E-1,-4.70947E-1
2.96051E-1,-4.77966E-1
2.71881E-1,-4.85366E-1
2.49084E-1,-4.91546E-1
2.27356E-1,-4.98657E-1
2.02514E-1,-5.05432E-1
1.75506E-1,-5.08483E-1
1.50604E-1,-5.08911E-1
1.26190E-1,-5.06927E-1
1.03851E-1,-5.02563E-1
0.82977E-1,-5.00701E-1
0.61981E-1,-4.97528E-1
0.39856E-1,-4.92157E-1
0.22888E-1,-4.85443E-1
0.03601E-1,-4.80941E-1
-1.63116E-2,-4.73617E-1
-3.25927E-2,-4.64386E-1
-4.78820E-2,-4.54986E-1
-6.19506E-2,-4.47082E-1
-7.62329E-2,-4.40185E-1
-9.08813E-2,-4.30999E-1
-1.03210E-1,-4.22790E-1
-1.15722E-1,-4.15649E-1
-1.30188E-1,-4.06829E-1
-1.43035E-1,-3.97430E-1
-1.54418E-1,-3.88641E-1
-1.6745E-1,-3.79577E-1
-1.80084E-1,-3.68652E-1
-1.91009E-1,-3.57330E-1
-2.03033E-1,-3.45428E-1
-2.12310E-1,-3.31451E-1
-2.19421E-1,-3.19213E-1
-2.26715E-1,-3.09356E-1
-2.34527E-1,-2.97973E-1
-2.40570E-1,-2.85797E-1
-2.45636E-1,-2.75238E-1
-2.49877E-1,-2.64953E-1
-2.54333E-1,-2.55188E-1
-2.58911E-1,-2.45849E-1
-2.61901E-1,-2.33947E-1
-2.64038E-1,-2.27829E-1
-2.69729E-1,-2.24243E-1
-2.77648E-1,-2.17453E-1
-2.84912E-1,-2.10769E-1
-2.92785E-1,-2.04330E-1
-3.03237E-1,-1.95556E-1
-3.12194E-1,-1.83181E-1
-3.18939E-1,-1.69799E-1
-3.24615E-1,-1.59210E-1
-3.30734E-1,-1.47049E-1
-3.37890E-1,-1.33895E-1
-3.42544E-1,-1.18225E-1
-3.45306E-1,-1.03027E-1
-3.46557E-1,-8.87603E-2
-3.46771E-1,-7.44934E-2
-3.47961E-1,-6.42089E-2
-3.50433E-1,-5.15441E-2
-3.51226E-1,-3.63006E-2
-3.50585E-1,-2.19421E-2
-3.48922E-1,-9.36889E-3
-3.45748E-1,0.04440E-1
-3.41461E-1,0.14419E-1
-3.39538E-1,0.23712E-1
-3.39157E-1,0.33371E-1
-3.38424E-1,0.44860E-1
-3.37204E-1,0.55053E-1
-3.36517E-1,0.67398E-1
-3.33419E-1,0.80932E-1
-3.29116E-1,0.93994E-1
-3.21258E-1,1.05621E-1
-3.11981E-1,1.13540E-1
-3.06427E-1,1.16592E-1
-3.05587E-1,1.21963E-1
-3.04763E-1,1.30538E-1
-3.02490E-1,1.39617E-1
-2.99819E-1,1.48834E-1
-2.98049E-1,1.58508E-1
-2.96066E-1,1.70745E-1
-2.90710E-1,1.83166E-1
-2.83721E-1,1.96548E-1
-2.74047E-1,2.06588E-1
-2.63488E-1,2.13958E-1
-2.55172E-1,2.19619E-1
-2.48535E-1,2.24990E-1
-2.42874E-1,2.29568E-1
-2.38838E-1,2.35061E-1
-2.36030E-1,2.42851E-1
-2.32238E-1,2.52365E-1
-2.25967E-1,2.63290E-1
-2.18200E-1,2.73300E-1
-2.09655E-1,2.82424E-1
-2.00424E-1,2.91580E-1
-1.90200E-1,3.00384E-1
-1.79351E-1,3.07998E-1
-1.66610E-1,3.14498E-1
-1.54144E-1,3.18496E-1
-1.43142E-1,3.21579E-1
-1.31927E-1,3.23654E-1
-1.22100E-1,3.25195E-1
-1.14410E-1,3.26080E-1
-1.08337E-1,3.29711E-1
-1.00402E-1,3.34869E-1
-8.98437E-2,3.39981E-1
-7.9422E-2,3.43353E-1
-6.90002E-2,3.46038E-1
-5.88836E-2,3.48922E-1
-4.78057E-2,3.51760E-1
-3.68347E-2,3.53683E-1
-2.63671E-2,3.56170E-1
-1.45263E-2,3.57315E-1
-3.12805E-3,3.59008E-1
0.10116E-1,3.59726E-1
0.22857E-1,3.57574E-1
0.33187E-1,3.55804E-1
0.43563E-1,3.54644E-1
0.54397E-1,3.52874E-1
0.64651E-1,3.51547E-1
0.75958E-1,3.50708E-1
0.87402E-1,3.50036E-1
0.99288E-1,3.46908E-1
1.12075E-1,3.45489E-1
1.25930E-1,3.41659E-1
1.40365E-1,3.35022E-1
1.52587E-1,3.27056E-1
1.62521E-1,3.18161E-1
1.71569E-1,3.10516E-1
1.81274E-1,3.02887E-1
1.89910E-1,2.94433E-1
1.97555E-1,2.85141E-1
2.04025E-1,2.77206E-1
2.10647E-1,2.68798E-1
2.18414E-1,2.62451E-1
2.28012E-1,2.55447E-1
2.35946E-1,2.44628E-1
2.43606E-1,2.33398E-1
2.47543E-1,2.22183E-1
2.53112E-1,2.11425E-1
2.57537E-1,2.00195E-1
2.61016E-1,1.89453E-1
2.64038E-1,1.76971E-1
2.65228E-1,1.66229E-1
2.64984E-1,1.56982E-1
2.65686E-1,1.49688E-1
2.68981E-1,1.41845E-1
2.72155E-1,1.33056E-1
2.76123E-1,1.23748E-1
2.79968E-1,1.11877E-1
2.80517E-1,0.98419E-1
2.78305E-1,0.85968E-1
2.76092E-1,0.77148E-1
2.74383E-1,0.67138E-1
2.71057E-1,0.57617E-1
2.67456E-1,0.51055E-1
2.66540E-1,0.46173E-1
2.68127E-1,0.39367E-1
2.69348E-1,0.29693E-1
2.69043E-1,0.19439E-1
2.67669E-1,0.08834E-1
2.65014E-1,-1.78527E-3
2.62283E-1,-1.20239E-2
2.57995E-1,-2.23083E-2
2.53280E-1,-3.24401E-2
2.46414E-1,-4.26788E-2
2.39502E-1,-5.11322E-2
2.32467E-1,-5.79223E-2
2.26326E-1,-6.51626E-2
2.19139E-1,-7.25326E-2
2.11731E-1,-7.88116E-2
2.04849E-1,-8.50677E-2
1.97082E-1,-9.20867E-2
1.86706E-1,-9.84649E-2
1.75949E-1,-1.01608E-1
1.67198E-1,-1.02119E-1
1.62033E-1,-1.03668E-1
1.55784E-1,-1.08680E-1
1.47247E-1,-1.14250E-1
1.35826E-1,-1.17355E-1
1.25877E-1,-1.17240E-1
1.17488E-1,-1.17393E-1
1.08215E-1,-1.16863E-1
9.98802E-2,-1.14936E-1
9.27619E-2,-1.12663E-1
8.66012E-2,-1.10561E-1
7.95555E-2,-1.08924E-1
7.29026E-2,-1.05415E-1
6.82029E-2,-1.01162E-1
6.58683E-2,-9.74578E-2
6.29577E-2,-9.61456E-2
5.94406E-2,-9.44137E-2
5.71670E-2,-9.19647E-2
5.49697E-2,-9.18350E-2
5.18302E-2,-9.21287E-2
4.78858E-2,-9.27543E-2
4.21104E-2,-9.22393E-2
3.67775E-2,-9.03320E-2
3.32489E-2,-8.76121E-2
3.00979E-2,-8.65898E-2
2.53257E-2,-8.53385E-2
2.08473E-2,-8.34693E-2
1.74827E-2,-8.13942E-2
1.37825E-2,-8.01086E-2
0.86250E-2,-7.85064E-2
0.32882E-2,-7.63549E-2
-1.52969E-3,-7.35130E-2
-6.40869E-3,-7.05032E-2
-1.10549E-2,-6.69593E-2
-1.56211E-2,-6.26335E-2
-2.01339E-2,-5.74455E-2
-2.28347E-2,-5.07812E-2
-2.38494E-2,-4.51660E-2
-2.43835E-2,-4.00543E-2
-2.44350E-2,-3.53527E-2
-2.38990E-2,-3.09677E-2
-2.29873E-2,-2.76832E-2
-2.20947E-2,-2.50072E-2
-2.15740E-2,-2.32639E-2
-2.21786E-2,-2.15663E-2
-2.29492E-2,-1.88884E-2
-2.36091E-2,-1.59015E-2
-2.35557E-2,-1.32694E-2
-2.41489E-2,-1.08451E-2
-2.49729E-2,-7.53974E-3
-2.51112E-2,-3.45706E-3
-2.36949E-2,0.06351E-2
-2.16217E-2,0.33283E-2
-2.00929E-2,0.47435E-2
-1.98135E-2,0.61607E-2
-1.93853E-2,0.80671E-2
-1.84688E-2,1.02329E-2
-1.74751E-2,1.14984E-2
-1.69134E-2,1.22966E-2
-1.72615E-2,1.30071E-2
-1.81112E-2,1.46923E-2
-1.82867E-2,1.72586E-2
-1.72596E-2,1.94664E-2
-1.61476E-2,2.09035E-2
-1.46150E-2,2.14405E-2
-1.44529E-2,2.15425E-2
-1.44271E-2,2.22415E-2
-1.45168E-2,2.27365E-2
-1.52874E-2,2.40402E-2
-1.45931E-2,2.57263E-2
-1.36127E-2,2.62651E-2
-1.33438E-2,2.63690E-2
-1.34601E-2,2.64511E-2
-1.42641E-2,2.64349E-2
-1.58252E-2,2.72369E-2
-1.72405E-2,2.94284E-2
-1.73072E-2,3.20510E-2
-1.69429E-2,3.43246E-2
-1.63517E-2,3.62262E-2
-1.51443E-2,3.79657E-2
-1.42326E-2,3.81832E-2
-1.52950E-2,3.88793E-2
-1.56269E-2,4.12387E-2
-1.52778E-2,4.30564E-2
-1.53007E-2,4.53090E-2
-1.40190E-2,4.74243E-2
-1.26037E-2,4.84123E-2
-1.19247E-2,4.88147E-2
-1.21498E-2,4.94613E-2
-1.18427E-2,5.09777E-2
-1.07154E-2,5.17616E-2
-1.02405E-2,5.11837E-2
-1.10549E-2,5.09223E-2
-1.20945E-2,5.12580E-2
-1.33895E-2,5.21354E-2
-1.43814E-2,5.30624E-2
-1.54266E-2,5.43861E-2
-1.62010E-2,5.58242E-2
-1.66740E-2,5.68542E-2
-1.85432E-2,5.78575E-2
-2.01301E-2,6.05316E-2
-2.06832E-2,6.30493E-2
-2.16674E-2,6.51245E-2
-2.33573E-2,6.81533E-2
-2.44407E-2,7.27844E-2
-2.40478E-2,7.81059E-2
-2.22702E-2,8.26568E-2
-2.03552E-2,8.67347E-2
-1.82876E-2,9.07707E-2
-1.52130E-2,9.43756E-2
-1.32904E-2,9.74693E-2
-1.09367E-2,1.01039E-1
-8.82339E-3,1.05533E-1
-5.07354E-3,1.10328E-1
-5.34057E-5,1.14452E-1
0.54245E-2,1.17290E-1
1.03530E-2,1.19148E-1
1.48696E-2,1.21070E-1
1.93786E-2,1.23107E-1
0.24841E-1,1.25473E-1
0.31234E-1,1.26617E-1
0.37208E-1,1.26846E-1
0.43746E-1,1.26983E-1
0.50376E-1,1.25892E-1
5.73272E-2,1.23771E-1
6.33392E-2,1.20239E-1
6.96945E-2,1.16439E-1
7.46688E-2,1.10931E-1
7.89871E-2,1.05644E-1
8.14971E-2,9.88311E-2
8.23898E-2,9.31320E-2
8.37860E-2,8.85009E-2
8.48770E-2,8.31756E-2
8.49151E-2,7.82089E-2
8.43200E-2,7.31811E-2
8.36486E-2,6.93359E-2
8.31909E-2,6.56738E-2
8.26721E-2,6.18133E-2
8.07342E-2,5.7724E-2
7.80258E-2,5.44738E-2
7.53631E-2,5.23529E-2
7.30857E-2,5.06477E-2
7.05719E-2,4.91104E-2
6.83326E-2,4.81452E-2
6.60400E-2,4.68826E-2
6.29196E-2,4.60739E-2
5.93261E-2,4.60319E-2
5.63049E-2,4.69055E-2
5.35240E-2,4.81338E-2
5.13649E-2,5.00526E-2
4.99954E-2,5.18264E-2
4.87518E-2,5.33180E-2
4.75883E-2,5.49163E-2
4.74243E-2,5.63087E-2
4.64363E-2,5.62057E-2
4.39376E-2,5.68466E-2
4.13284E-2,5.93643E-2
4.02908E-2,6.24313E-2
4.03518E-2,6.55975E-2
4.07104E-2,6.77566E-2
4.04129E-2,6.99653E-2
4.04090E-2,7.36503E-2
4.21257E-2,7.69233E-2
4.40483E-2,7.97424E-2
4.62799E-2,8.30383E-2
4.94461E-2,8.56170E-2
5.30624E-2,8.76007E-2
5.68161E-2,8.90731E-2
6.03103E-2,8.98590E-2
6.41708E-2,9.03015E-2
6.75659E-2,9.09194E-2
7.0755E-2,9.13162E-2
7.44247E-2,9.15679E-2
7.83233E-2,9.15527E-2
8.18939E-2,9.08203E-2
8.58306E-2,9.01336E-2
8.89587E-2,8.84399E-2
9.13696E-2,8.80127E-2
9.52758E-2,8.75015E-2
9.94491E-2,8.58688E-2
1.02607E-1,8.32824E-2
1.05285E-1,8.05892E-2
1.07528E-1,7.87963E-2
1.10214E-1,7.55920E-2
1.12808E-1,7.25097E-2
1.15325E-1,6.95343E-2
1.16989E-1,6.63070E-2
1.19804E-1,6.40792E-2
1.22131E-1,6.02874E-2
1.24816E-1,5.63507E-2
1.26922E-1,0.51681E-1
1.28448E-1,0.46661E-1
1.29089E-1,0.41122E-1
1.28433E-1,0.36834E-1
1.29592E-1,0.33035E-1
1.29592E-1,0.28343E-1
1.28952E-1,0.24360E-1
1.28944E-1,0.20278E-1
1.29631E-1,0.15358E-1
1.29867E-1,0.09361E-1
1.26495E-1,0.03662E-1
1.22551E-1,-4.23431E-4
1.19602E-1,-3.70788E-3
1.15966E-1,-6.62612E-3
1.12590E-1,-8.46862E-3
1.10424E-1,-1.05133E-2
1.08238E-1,-1.35116E-2
1.05217E-1,-1.60827E-2
1.02142E-1,-1.84173E-2
9.95864E-2,-2.12326E-2
9.64431E-2,-2.41584E-2
9.21363E-2,-2.76603E-2
8.70857E-2,-2.98728E-2
8.18595E-2,-3.09867E-2
7.75985E-2,-3.16810E-2
7.32078E-2,-3.26919E-2
7.00607E-2,-3.32374E-2
6.6082E-2,-3.44543E-2
6.21967E-2,-3.53488E-2
5.77335E-2,-3.67469E-2
5.28698E-2,-3.71685E-2
4.78725E-2,-3.66745E-2
4.28981E-2,-3.55548E-2
3.82766E-2,-3.39565E-2
3.48529E-2,-3.13262E-2
3.23524E-2,-2.90718E-2
3.01103E-2,-2.75697E-2
2.74915E-2,-2.62184E-2
2.44979E-2,-2.49061E-2
2.09436E-2,-2.26354E-2
1.85842E-2,-1.95398E-2
1.71585E-2,-1.72452E-2
1.47805E-2,-1.55496E-2
1.19633E-2,-1.26934E-2
1.01704E-2,-9.45949E-3
9.19055E-3,-6.16693E-3
9.24491E-3,-3.69787E-3
8.98933E-3,-2.61974E-3
7.36737E-3,-2.29883E-3
4.48465E-3,-7.85589E-4
2.31885E-3,1.80554E-3
0.40578E-3,4.23431E-3
-7.27176E-4,7.01808E-3
-7.20024E-4,9.55009E-3
-6.13212E-4,9.77993E-3
-3.17096E-3,9.79709E-3
-5.82742E-3,1.21417E-2
-7.14445E-3,1.43709E-2
-8.20636E-3,1.65376E-2
-9.11140E-3,1.85699E-2
-9.75227E-3,2.00529E-2
-1.08833E-2,2.12059E-2
-1.24731E-2,2.29997E-2
-1.33085E-2,2.50520E-2
-1.40323E-2,2.61154E-2
-1.63517E-2,2.75039E-2
-1.78117E-2,3.02543E-2
-1.95770E-2,3.23753E-2
-2.12650E-2,3.60469E-2
-2.17094E-2,3.94954E-2
-2.18086E-2,4.22382E-2
-2.27069E-2,4.47578E-2
-2.38113E-2,4.78153E-2
-2.44426E-2,5.07354E-2
-2.58560E-2,5.37529E-2
-2.71377E-2,5.79338E-2
-2.71186E-2,6.21070E-2
-2.73513E-2,6.53381E-2
-2.82745E-2,6.85272E-2
-2.98080E-2,7.30590E-2
-3.00293E-2,7.86209E-2
-2.89497E-2,8.42933E-2
-2.70652E-2,8.86688E-2
-2.56347E-2,9.22012E-2
-2.40173E-2,9.58938E-2
-2.26440E-2,9.94720E-2
-2.13508E-2,1.03157E-1
-1.95007E-2,1.06845E-1
-1.74751E-2,1.10359E-1
-1.53198E-2,1.13719E-1
-1.30920E-2,1.17378E-1
-9.91821E-3,1.20899E-1
-6.66046E-3,1.23474E-1
-4.27246E-3,1.25907E-1
-1.70898E-3,1.28555E-1
0.00885E-1,1.31622E-1
0.03891E-1,1.35269E-1
0.07675E-1,1.39190E-1
0.12466E-1,1.42623E-1
0.17150E-1,1.45126E-1
0.22171E-1,1.47209E-1
0.26252E-1,1.48559E-1
0.30105E-1,1.50253E-1
0.34301E-1,1.51565E-1
0.37483E-1,1.53175E-1
0.40908E-1,1.56440E-1
0.46005E-1,1.59622E-1
0.52269E-1,1.61407E-1
0.57869E-1,1.62452E-1
0.63362E-1,1.63703E-1
0.69198E-1,1.64573E-1
0.76538E-1,1.64779E-1
0.83602E-1,1.62475E-1
0.88272E-1,1.59408E-1
0.91461E-1,1.58187E-1
0.95550E-1,1.56646E-1
1.00952E-1,1.55426E-1
1.06445E-1,1.53656E-1
1.11846E-1,1.50085E-1
1.15661E-1,1.45355E-1
1.18011E-1,1.41433E-1
1.21215E-1,1.38610E-1
1.24481E-1,1.34643E-1
1.26586E-1,1.30218E-1
1.28021E-1,1.26434E-1
1.29348E-1,1.22161E-1
1.29669E-1,1.18270E-1
1.28921E-1,1.15768E-1
1.29425E-1,1.14181E-1
1.30874E-1,1.12319E-1
1.31317E-1,1.09573E-1
1.30783E-1,1.07833E-1
1.30584E-1,1.06231E-1
1.30813E-1,1.06193E-1
1.31950E-1,1.05514E-1
1.32339E-1,1.04812E-1
1.33194E-1,1.04194E-1
1.34597E-1,1.03286E-1
1.35917E-1,1.0215E-1
1.36505E-1,1.00563E-1
1.36894E-1,0.98960E-1
1.36398E-1,0.97999E-1
1.3591E-1,0.96885E-1
1.34986E-1,0.97618E-1
1.36116E-1,0.97892E-1
1.36520E-1,0.97900E-1
1.36352E-1,0.96756E-1
1.35986E-1,0.97808E-1
1.36505E-1,1.00174E-1
1.38443E-1,1.01257E-1
1.41128E-1,1.01776E-1
1.42990E-1,1.01547E-1
1.44851E-1,1.02310E-1
1.47247E-1,1.03210E-1
1.51153E-1,1.02981E-1
1.55059E-1,1.02508E-1
1.58233E-1,1.00952E-1
1.61651E-1,0.99624E-1
1.64627E-1,0.98465E-1
1.67099E-1,0.97366E-1
1.71402E-1,0.96023E-1
1.74591E-1,0.93917E-1
1.77764E-1,0.91430E-1
1.80862E-1,0.90011E-1
1.85562E-1,0.88012E-1
1.90460E-1,0.83908E-1
1.93618E-1,0.78399E-1
1.95434E-1,0.73059E-1
1.96106E-1,0.69519E-1
1.97662E-1,0.66589E-1
2.00500E-1,0.62988E-1
2.02697E-1,0.58837E-1
2.04650E-1,0.54290E-1
2.06390E-1,0.48370E-1
2.07000E-1,0.43548E-1
2.07069E-1,0.37643E-1
2.07107E-1,0.33004E-1
2.07077E-1,0.27458E-1
2.06543E-1,0.21896E-1
2.05696E-1,0.16677E-1
2.04856E-1,0.11322E-1
2.04254E-1,0.06195E-1
2.03407E-1,-8.23974E-4
2.00050E-1,-8.17108E-3
1.96167E-1,-1.48468E-2
1.90986E-1,-2.01492E-2
1.86187E-1,-2.46582E-2
1.81121E-1,-2.91214E-2
1.76155E-1,-3.29284E-2
1.70692E-1,-3.68804E-2
1.64299E-1,-4.07943E-2
1.57386E-1,-4.28009E-2
1.51359E-1,-4.38690E-2
1.45301E-1,-4.59594E-2
1.38549E-1,-4.73861E-2
1.31073E-1,-4.80270E-2
1.23504E-1,-4.65354E-2
1.16970E-1,-4.48608E-2
1.11030E-1,-4.34074E-2
1.05293E-1,-4.12941E-2
9.93042E-2,-3.91655E-2
9.36317E-2,-3.59077E-2
8.84056E-2,-3.24630E-2
8.35876E-2,-2.83088E-2
8.00170E-2,-2.44026E-2
7.65914E-2,-2.15873E-2
7.18727E-2,-1.82380E-2
6.79206E-2,-1.39694E-2
6.39991E-2,-8.62884E-3
6.14223E-2,-3.73458E-3
5.85289E-2,0.14591E-2
5.68389E-2,0.64621E-2
5.51910E-2,1.16500E-2
5.34553E-2,1.66969E-2
5.21621E-2,2.27775E-2
5.26886E-2,2.88848E-2
5.33523E-2,3.40461E-2
5.46112E-2,3.84483E-2
5.47218E-2,4.21409E-2
5.50003E-2,4.76379E-2
5.65986E-2,5.28984E-2
5.92422E-2,5.74874E-2
6.07452E-2,6.16035E-2
6.31561E-2,6.63757E-2
6.63299E-2,7.08389E-2
6.98318E-2,7.46765E-2
7.30514E-2,7.79724E-2
7.66601E-2,8.00933E-2
7.92083E-2,8.22525E-2
8.12149E-2,8.51593E-2
8.46557E-2,8.86840E-2
8.82644E-2,9.20410E-2
9.26361E-2,9.47036E-2
9.67330E-2,9.66339E-2
1.01211E-1,9.80148E-2
1.04629E-1,9.86785E-2
1.08047E-1,1.00517E-1
1.12731E-1,1.02264E-1
1.16607E-1,1.03408E-1
1.21322E-1,1.04713E-1
1.27044E-1,1.04278E-1
1.31141E-1,1.02912E-1
1.34941E-1,1.02508E-1
1.38069E-1,1.01600E-1
1.40518E-1,1.01295E-1
1.44203E-1,1.02012E-1
1.48872E-1,1.02592E-1
1.54060E-1,1.01486E-1
1.59423E-1,0.99838E-1
1.62735E-1,0.97381E-1
1.65588E-1,0.95169E-1
1.67892E-1,0.93215E-1
1.71173E-1,0.91918E-1
1.75628E-1,0.90316E-1
1.79016E-1,0.88516E-1
1.82983E-1,0.85830E-1
1.86416E-1,0.81710E-1
1.88034E-1,0.78216E-1
1.90216E-1,0.75943E-1
1.92413E-1,0.72845E-1
1.94488E-1,0.69213E-1
1.95282E-1,0.67199E-1
1.97204E-1,0.64544E-1
1.98486E-1,0.61340E-1
1.99920E-1,0.58075E-1
1.99943E-1,0.55023E-1
2.00347E-1,0.52078E-1
2.01019E-1,0.50293E-1
2.01881E-1,0.48233E-1
2.01721E-1,0.46432E-1
2.01721E-1,0.44715E-1
2.02499E-1,0.43518E-1
2.03674E-1,0.42434E-1
2.04811E-1,0.41191E-1
2.05864E-1,0.39207E-1
2.06710E-1,0.37490E-1
2.07290E-1,0.35148E-1
2.07626E-1,0.33744E-1
2.07931E-1,0.32341E-1
2.08282E-1,0.31189E-1
2.09411E-1,0.31059E-1
2.10815E-1,0.30662E-1
2.12974E-1,0.29068E-1
2.15141E-1,0.27778E-1
2.17094E-1,0.24726E-1
2.18612E-1,0.22232E-1
2.19314E-1,0.19523E-1
2.20184E-1,0.16593E-1
2.20840E-1,0.14305E-1
2.21496E-1,0.11604E-1
2.21252E-1,0.09841E-1
2.21626E-1,0.08499E-1
2.22908E-1,0.06492E-1
2.24685E-1,0.0457E-1
2.25509E-1,0.02418E-1
2.26669E-1,-1.85394E-3
2.27035E-1,-4.41741E-3
2.26730E-1,-6.65283E-3
2.27256E-1,-8.11767E-3
2.29164E-1,-1.07421E-2
2.30117E-1,-1.37634E-2
2.30011E-1,-1.81961E-2
2.29301E-1,-2.01873E-2
2.29034E-1,-2.30560E-2
2.29843E-1,-2.55661E-2
2.30072E-1,-2.81601E-2
2.29827E-1,-3.10134E-2
2.30209E-1,-3.44085E-2
2.28828E-1,-3.81622E-2
2.26684E-1,-4.18930E-2
2.24449E-1,-4.39758E-2
2.22595E-1,-4.53109E-2
2.21885E-1,-4.70581E-2
2.21153E-1,-4.90646E-2
2.20016E-1,-5.12466E-2
2.18627E-1,-5.38406E-2
2.16194E-1,-5.55038E-2
2.14691E-1,-5.67321E-2
2.13844E-1,-5.89904E-2
2.11608E-1,-6.18057E-2
2.09602E-1,-6.32553E-2
2.06604E-1,-6.34918E-2
2.05024E-1,-6.45370E-2
2.02384E-1,-6.55059E-2
2.00546E-1,-6.60400E-2
1.99638E-1,-6.55593E-2
1.98112E-1,-6.63604E-2
1.96395E-1,-6.66351E-2
1.94419E-1,-6.59408E-2
1.94168E-1,-6.51168E-2
1.94114E-1,-6.56433E-2
1.92962E-1,-6.65359E-2
1.91345E-1,-6.55746E-2
1.90055E-1,-6.46362E-2
1.90628E-1,-6.41861E-2
1.91642E-1,-6.39648E-2
1.91688E-1,-6.41861E-2
1.91368E-1,-6.41708E-2
1.91131E-1,-6.39572E-2
1.91436E-1,-6.45141E-2
1.91566E-1,-6.48956E-2
1.90414E-1,-6.54068E-2
1.90231E-1,-6.46591E-2
1.90261E-1,-6.43539E-2
1.90101E-1,-6.37817E-2
1.90696E-1,-6.29730E-2
1.92352E-1,-6.28051E-2
1.94564E-1,-6.35223E-2
1.95587E-1,-6.49337E-2
1.96426E-1,-6.65512E-2
1.97486E-1,-6.84204E-2
1.98127E-1,-7.08084E-2
1.98341E-1,-7.33261E-2
1.98600E-1,-7.54699E-2
1.97578E-1,-7.78732E-2
1.96479E-1,-7.93304E-2
1.96205E-1,-8.09860E-2
1.96167E-1,-8.22906E-2
1.95518E-1,-8.35876E-2
1.96319E-1,-8.52279E-2
1.96373E-1,-8.69751E-2
1.96411E-1,-9.06524E-2
1.95121E-1,-9.31091E-2
1.93183E-1,-9.59777E-2
1.91734E-1,-9.73205E-2
1.90078E-1,-9.87167E-2
1.89094E-1,-1.00853E-1
1.87202E-1,-1.03294E-1
1.83883E-1,-1.04103E-1
1.81831E-1,-1.04354E-1
1.80938E-1,-1.05697E-1
1.78550E-1,-1.07360E-1
1.75224E-1,-1.08711E-1
1.71936E-1,-1.09481E-1
1.67961E-1,-1.08879E-1
1.64924E-1,-1.08787E-1
1.62132E-1,-1.07444E-1
1.60285E-1,-1.06506E-1
1.58271E-1,-1.05911E-1
1.56005E-1,-1.04621E-1
1.54022E-1,-1.03996E-1
1.51802E-1,-1.02653E-1
1.50528E-1,-1.01379E-1
1.48613E-1,-1.00235E-1
1.46331E-1,-9.87014E-2
1.44897E-1,-9.54818E-2
1.44950E-1,-9.27047E-2
1.45149E-1,-9.09881E-2
1.45233E-1,-8.93707E-2
1.45629E-1,-8.74786E-2
1.46232E-1,-8.55941E-2
1.47827E-1,-8.36944E-2
1.49322E-1,-8.26416E-2
1.50466E-1,-8.16726E-2
1.51725E-1,-7.98873E-2
1.53068E-1,-7.86285E-2
1.55052E-1,-7.66906E-2
1.57569E-1,-7.57522E-2
1.60484E-1,-7.53707E-2
1.62811E-1,-7.57446E-2
1.64932E-1,-7.64541E-2
1.66343E-1,-7.67669E-2
1.67846E-1,-7.75528E-2
1.69929E-1,-7.76214E-2
1.7099E-1,-7.87658E-2
1.7202E-1,-7.93457E-2
1.74148E-1,-7.99408E-2
1.75346E-1,-7.98797E-2
1.7659E-1,-8.03604E-2
1.78741E-1,-8.09021E-2
1.81427E-1,-8.22677E-2
1.83342E-1,-8.44039E-2
1.83990E-1,-8.65020E-2
1.85012E-1,-8.81652E-2
1.86447E-1,-8.98513E-2
1.88034E-1,-9.18808E-2
1.89178E-1,-9.39636E-2
1.90094E-1,-9.55581E-2
1.91314E-1,-9.79995E-2
1.92276E-1,-1.00303E-1
1.93107E-1,-1.02638E-1
1.93862E-1,-1.04194E-1
1.95785E-1,-1.06422E-1
1.97158E-1,-1.10786E-1
1.96609E-1,-1.12419E-1
1.98379E-1,-1.14875E-1
1.99165E-1,-1.16935E-1
2.00454E-1,-1.19850E-1
2.02171E-1,-1.23107E-1
2.02659E-1,-1.26533E-1
2.03254E-1,-1.29867E-1
2.03392E-1,-1.33873E-1
2.02491E-1,-1.37329E-1
2.01980E-1,-1.39831E-1
2.01965E-1,-1.42662E-1
2.01393E-1,-1.45965E-1
2.00828E-1,-1.48819E-1
2.00584E-1,-1.51977E-1
1.99943E-1,-1.55342E-1
1.99592E-1,-1.59004E-1
1.98333E-1,-1.63536E-1
1.96121E-1,-1.68052E-1
1.93428E-1,-1.70860E-1
1.91619E-1,-1.74263E-1
1.88385E-1,-1.77368E-1
1.84074E-1,-1.80374E-1
1.80892E-1,-1.81434E-1
1.78649E-1,-1.82685E-1
1.76780E-1,-1.84532E-1
1.74835E-1,-1.85852E-1
1.72431E-1,-1.88171E-1
1.70036E-1,-1.90834E-1
1.68273E-1,-1.92688E-1
1.64871E-1,-1.94389E-1
1.62239E-1,-1.95854E-1
1.59126E-1,-1.97486E-1
1.56150E-1,-1.98555E-1
1.52809E-1,-1.99119E-1
1.50024E-1,-1.99066E-1
1.48231E-1,-1.98272E-1
1.46888E-1,-1.98303E-1
1.45965E-1,-1.99394E-1
1.44203E-1,-2.00447E-1
1.41914E-1,-2.00820E-1
1.40274E-1,-2.00225E-1
1.38702E-1,-2.00302E-1
1.37619E-1,-2.0047E-1
1.36360E-1,-2.00531E-1
1.34666E-1,-2.00630E-1
1.34101E-1,-2.00172E-1
1.33194E-1,-2.00317E-1
1.33132E-1,-2.01347E-1
1.31813E-1,-2.03102E-1
1.29127E-1,-2.04155E-1
1.27212E-1,-2.04132E-1
1.25320E-1,-2.04505E-1
1.24542E-1,-2.05062E-1
1.22406E-1,-2.05772E-1
1.20529E-1,-2.05772E-1
1.19499E-1,-2.06230E-1
1.17485E-1,-2.06840E-1
1.15875E-1,-2.07763E-1
1.14860E-1,-2.07557E-1
1.13044E-1,-2.08961E-1
1.11084E-1,-2.09144E-1
1.09085E-1,-2.09129E-1
1.05232E-1,-2.09014E-1
1.05232E-1,-2.09510E-1
1.04347E-1,-2.10777E-1
1.04064E-1,-2.12417E-1
1.02096E-1,-2.14714E-1
1.00555E-1,-2.16156E-1
0.99388E-1,-2.17636E-1
0.97480E-1,-2.19688E-1
0.94673E-1,-2.21878E-1
0.91850E-1,-2.23472E-1
0.88523E-1,-2.25288E-1
0.85250E-1,-2.25914E-1
0.81947E-1,-2.26272E-1
0.79574E-1,-2.26928E-1
0.76683E-1,-2.26867E-1
0.73402E-1,-2.26913E-1
0.70762E-1,-2.27005E-1
0.68527E-1,-2.27165E-1
0.66642E-1,-2.28103E-1
0.63621E-1,-2.28103E-1
0.59425E-1,-2.27760E-1
0.57189E-1,-2.27294E-1
0.54298E-1,-2.26165E-1
0.51689E-1,-2.26005E-1
0.48324E-1,-2.25166E-1
0.46203E-1,-2.24395E-1
