CITIFILE A.01.00
#NA VERSION HP8720D.06.14
NAME DATA
VAR FREQ MAG 1601
DATA S[1,1] RI

SEG_LIST_BEGIN
SEG 1000000000 8000000000 1601
SEG_LIST_END
BEGIN
3.24325E-1,-4.43038E-1
3.02429E-1,-4.47845E-1
2.83187E-1,-4.53567E-1
2.64434E-1,-4.60662E-1
2.46551E-1,-4.69848E-1
2.25708E-1,-4.7995E-1
1.99707E-1,-4.87884E-1
1.75048E-1,-4.91134E-1
1.51275E-1,-4.94049E-1
1.27471E-1,-4.93347E-1
1.04690E-1,-4.92614E-1
0.81710E-1,-4.90417E-1
0.58975E-1,-4.85992E-1
0.40206E-1,-4.79446E-1
0.20294E-1,-4.73556E-1
0.01556E-1,-4.66110E-1
-1.36413E-2,-4.57382E-1
-2.75421E-2,-4.48394E-1
-4.02526E-2,-4.42672E-1
-5.43518E-2,-4.37927E-1
-6.78405E-2,-4.30358E-1
-8.09936E-2,-4.25720E-1
-9.57641E-2,-4.21142E-1
-1.13159E-1,-4.13818E-1
-1.29028E-1,-4.04327E-1
-1.43127E-1,-3.93341E-1
-1.56402E-1,-3.84552E-1
-1.70227E-1,-3.72436E-1
-1.82373E-1,-3.60229E-1
-1.94671E-1,-3.48327E-1
-2.04376E-1,-3.31604E-1
-2.10144E-1,-3.17138E-1
-2.14050E-1,-3.05755E-1
-2.20214E-1,-2.95867E-1
-2.25372E-1,-2.84942E-1
-2.29217E-1,-2.75817E-1
-2.33978E-1,-2.67028E-1
-2.39135E-1,-2.57629E-1
-2.43637E-1,-2.48611E-1
-2.46917E-1,-2.36801E-1
-2.48504E-1,-2.31155E-1
-2.52822E-1,-2.27188E-1
-2.60040E-1,-2.22412E-1
-2.66952E-1,-2.16857E-1
-2.74719E-1,-2.10281E-1
-2.84576E-1,-2.01904E-1
-2.92144E-1,-1.91009E-1
-2.97958E-1,-1.79809E-1
-3.03268E-1,-1.71936E-1
-3.1073E-1,-1.62124E-1
-3.19458E-1,-1.49322E-1
-3.24462E-1,-1.35406E-1
-3.27072E-1,-1.20544E-1
-3.27270E-1,-1.08673E-1
-3.28476E-1,-9.82666E-2
-3.31817E-1,-8.97369E-2
-3.36883E-1,-7.81555E-2
-3.39813E-1,-6.62384E-2
-3.43215E-1,-5.34973E-2
-3.45642E-1,-3.94592E-2
-3.45108E-1,-2.51464E-2
-3.43368E-1,-1.34429E-2
-3.43612E-1,-3.00598E-3
-3.44390E-1,0.09353E-1
-3.42865E-1,0.22842E-1
-3.40835E-1,0.34118E-1
-3.38546E-1,0.45669E-1
-3.35388E-1,0.56732E-1
-3.32717E-1,0.68756E-1
-3.26828E-1,0.79498E-1
-3.21319E-1,0.86563E-1
-3.19335E-1,0.91796E-1
-3.19625E-1,0.99731E-1
-3.19061E-1,1.09863E-1
-3.16558E-1,1.20575E-1
-3.14483E-1,1.30966E-1
-3.11691E-1,1.41540E-1
-3.09478E-1,1.52786E-1
-3.05694E-1,1.65145E-1
-2.99133E-1,1.77703E-1
-2.91122E-1,1.89224E-1
-2.82836E-1,1.97525E-1
-2.75619E-1,2.04727E-1
-2.70187E-1,2.11700E-1
-2.64312E-1,2.19116E-1
-2.59582E-1,2.27188E-1
-2.55447E-1,2.35031E-1
-2.49969E-1,2.45040E-1
-2.43438E-1,2.56027E-1
-2.34542E-1,2.65426E-1
-2.26593E-1,2.74017E-1
-2.17559E-1,2.82318E-1
-2.08023E-1,2.90588E-1
-1.98394E-1,2.98111E-1
-1.87240E-1,3.04306E-1
-1.76391E-1,3.0867E-1
-1.66854E-1,3.12347E-1
-1.57562E-1,3.15734E-1
-1.49597E-1,3.19244E-1
-1.42288E-1,3.23303E-1
-1.35421E-1,3.28262E-1
-1.26312E-1,3.35311E-1
-1.15402E-1,3.40759E-1
-1.05026E-1,3.44650E-1
-9.46197E-2,3.48144E-1
-8.43658E-2,3.50906E-1
-7.49664E-2,3.53820E-1
-6.56280E-2,3.57727E-1
-5.46722E-2,3.61160E-1
-4.39758E-2,3.64593E-1
-3.16009E-2,3.68377E-1
-1.81579E-2,3.69644E-1
-5.23376E-3,3.69110E-1
0.04257E-1,3.68377E-1
0.15197E-1,3.68866E-1
0.26001E-1,3.68621E-1
0.36788E-1,3.69278E-1
0.4776E-1,3.69949E-1
0.59921E-1,3.71154E-1
0.73028E-1,3.70559E-1
0.86288E-1,3.71048E-1
1.01181E-1,3.68179E-1
1.16897E-1,3.63342E-1
1.29837E-1,3.56933E-1
1.41265E-1,3.50265E-1
1.51947E-1,3.44818E-1
1.63635E-1,3.38501E-1
1.75445E-1,3.31481E-1
1.85638E-1,3.22784E-1
1.94397E-1,3.1427E-1
2.02697E-1,3.05816E-1
2.11700E-1,2.99743E-1
2.22839E-1,2.92602E-1
2.31872E-1,2.82806E-1
2.40661E-1,2.72918E-1
2.46521E-1,2.62542E-1
2.54669E-1,2.52380E-1
2.61230E-1,2.42370E-1
2.68020E-1,2.31353E-1
2.73773E-1,2.19696E-1
2.78137E-1,2.08221E-1
2.82012E-1,1.97967E-1
2.85156E-1,1.88324E-1
2.89764E-1,1.78375E-1
2.95105E-1,1.66626E-1
2.98095E-1,1.55212E-1
3.01727E-1,1.4328E-1
3.02612E-1,1.30127E-1
3.02352E-1,1.19445E-1
3.03268E-1,1.10183E-1
3.04885E-1,1.00265E-1
3.05419E-1,0.88684E-1
3.05389E-1,0.78704E-1
3.06366E-1,0.69305E-1
3.07922E-1,0.57983E-1
3.07922E-1,0.45242E-1
3.07464E-1,0.32852E-1
3.05725E-1,0.20858E-1
3.03161E-1,0.08819E-1
2.99911E-1,-3.26538E-3
2.95211E-1,-1.58538E-2
2.89444E-1,-2.78320E-2
2.81921E-1,-3.85131E-2
2.74932E-1,-4.80499E-2
2.67410E-1,-5.66406E-2
2.60131E-1,-6.37207E-2
2.53799E-1,-7.0755E-2
2.47680E-1,-7.80792E-2
2.41149E-1,-8.61663E-2
2.33169E-1,-9.45739E-2
2.22427E-1,-1.02249E-1
2.11837E-1,-1.05682E-1
2.04528E-1,-1.08291E-1
1.98303E-1,-1.12091E-1
1.92230E-1,-1.18400E-1
1.83372E-1,-1.25007E-1
1.72470E-1,-1.29890E-1
1.61682E-1,-1.31988E-1
1.52412E-1,-1.33651E-1
1.42555E-1,-1.34651E-1
1.33621E-1,-1.34407E-1
1.25663E-1,-1.33873E-1
1.17958E-1,-1.33308E-1
1.10191E-1,-1.32713E-1
1.02348E-1,-1.30264E-1
0.97007E-1,-1.26892E-1
9.26666E-2,-1.24832E-1
8.89511E-2,-1.23855E-1
8.39843E-2,-1.22566E-1
8.05473E-2,-1.20552E-1
7.79647E-2,-1.20475E-1
7.47413E-2,-1.21120E-1
7.07931E-2,-1.22409E-1
6.56356E-2,-1.24038E-1
5.97724E-2,-1.23905E-1
5.48400E-2,-1.23836E-1
4.99572E-2,-1.24050E-1
4.39682E-2,-1.23966E-1
3.81355E-2,-1.23867E-1
3.17535E-2,-1.23054E-1
2.59094E-2,-1.22886E-1
1.79328E-2,-1.21456E-1
1.10855E-2,-1.19903E-1
0.41656E-2,-1.16413E-1
-2.42996E-3,-1.12857E-1
-8.43429E-3,-1.08848E-1
-1.33018E-2,-1.04190E-1
-1.77574E-2,-9.97543E-2
-2.10800E-2,-9.48715E-2
-2.38723E-2,-9.09423E-2
-2.61802E-2,-8.70323E-2
-2.82135E-2,-8.35876E-2
-3.03230E-2,-8.10890E-2
-3.26690E-2,-7.89260E-2
-3.54805E-2,-7.64389E-2
-3.82080E-2,-7.41691E-2
-4.16526E-2,-7.14759E-2
-4.50859E-2,-6.83937E-2
-4.78897E-2,-6.48613E-2
-5.02929E-2,-6.18057E-2
-5.37414E-2,-5.89714E-2
-5.73196E-2,-5.52444E-2
-6.10313E-2,-5.05371E-2
-6.33659E-2,-4.53834E-2
-6.51359E-2,-4.09278E-2
-6.72912E-2,-3.70140E-2
-7.03277E-2,-3.23638E-2
-7.23724E-2,-2.69432E-2
-7.36999E-2,-2.16941E-2
-7.50541E-2,-1.70249E-2
-7.66220E-2,-1.23596E-2
-7.83767E-2,-7.45010E-3
-8.03375E-2,-1.20544E-3
-8.04595E-2,0.60005E-2
-7.86590E-2,1.19628E-2
-7.7034E-2,1.64222E-2
-7.56759E-2,2.04772E-2
-7.45201E-2,2.42271E-2
-7.32498E-2,2.82135E-2
-7.19642E-2,3.15284E-2
-7.07969E-2,3.50341E-2
-6.90879E-2,3.86314E-2
-6.72683E-2,4.14733E-2
-6.53190E-2,4.40673E-2
-6.36863E-2,4.58831E-2
-6.34574E-2,4.73480E-2
-6.37550E-2,5.02395E-2
-6.33163E-2,5.37490E-2
-6.22291E-2,5.73196E-2
-6.12373E-2,6.09245E-2
-5.96847E-2,6.4785E-2
-5.72814E-2,6.84356E-2
-5.51986E-2,7.06176E-2
-5.42068E-2,7.36007E-2
-5.22460E-2,7.73658E-2
-4.94995E-2,8.00743E-2
-4.73251E-2,8.26339E-2
-4.45442E-2,8.47511E-2
-4.20265E-2,8.60748E-2
-4.00962E-2,8.70323E-2
-3.91845E-2,8.83560E-2
-3.76548E-2,9.03205E-2
-3.58696E-2,9.12971E-2
-3.52172E-2,9.16824E-2
-3.50189E-2,9.29412E-2
-3.48281E-2,9.44976E-2
-3.50456E-2,9.62905E-2
-3.50952E-2,9.88502E-2
-3.44238E-2,1.01936E-1
-3.32489E-2,1.04545E-1
-3.18145E-2,1.06407E-1
-3.20053E-2,1.08223E-1
-3.17306E-2,1.11984E-1
-3.02047E-2,1.15722E-1
-2.87056E-2,1.18961E-1
-2.77061E-2,1.22703E-1
-2.62832E-2,1.27159E-1
-2.37503E-2,1.32911E-1
-1.96304E-2,1.37558E-1
-1.51977E-2,1.41967E-1
-9.59014E-3,1.45515E-1
-4.21142E-3,1.47697E-1
-5.64575E-4,1.49787E-1
0.03112E-1,1.53747E-1
0.07972E-1,1.57432E-1
0.13221E-1,1.61438E-1
0.19928E-1,1.65191E-1
0.27122E-1,1.67747E-1
0.35003E-1,1.69754E-1
0.41946E-1,1.69906E-1
0.48095E-1,1.70578E-1
0.54733E-1,1.71478E-1
0.62194E-1,1.72317E-1
0.69732E-1,1.72226E-1
0.79071E-1,1.71447E-1
0.88089E-1,1.69265E-1
0.96496E-1,1.65054E-1
1.03805E-1,1.60568E-1
1.11084E-1,1.55487E-1
1.17431E-1,1.49261E-1
1.23336E-1,1.42501E-1
1.27365E-1,1.35391E-1
1.30249E-1,1.29333E-1
1.34063E-1,1.23397E-1
1.37847E-1,1.17614E-1
1.40197E-1,1.10595E-1
1.41815E-1,1.04385E-1
1.44134E-1,0.98419E-1
1.46774E-1,0.92041E-1
1.48689E-1,0.84907E-1
1.48277E-1,0.77560E-1
1.47575E-1,0.71312E-1
1.46804E-1,0.65635E-1
1.46423E-1,0.60165E-1
1.45385E-1,0.54504E-1
1.43318E-1,0.49408E-1
1.41243E-1,0.44174E-1
1.38160E-1,0.39848E-1
1.3517E-1,0.35903E-1
1.31416E-1,0.31593E-1
1.27227E-1,0.28900E-1
1.23786E-1,2.74963E-2
1.21315E-1,2.61459E-2
1.18751E-1,2.43835E-2
1.16241E-1,2.23770E-2
1.14151E-1,2.11181E-2
1.11587E-1,1.86767E-2
1.08001E-1,1.72653E-2
1.05110E-1,1.63192E-2
1.02302E-1,1.59606E-2
1.00738E-1,1.58996E-2
9.91821E-2,1.49154E-2
9.63783E-2,1.37291E-2
9.42039E-2,1.45607E-2
9.28382E-2,1.53427E-2
9.17511E-2,1.55448E-2
9.13887E-2,1.63459E-2
9.19227E-2,1.57394E-2
9.16633E-2,1.55372E-2
9.13848E-2,1.58042E-2
9.22546E-2,1.54380E-2
9.26132E-2,1.47857E-2
9.29641E-2,1.36032E-2
9.27352E-2,1.25961E-2
9.35516E-2,1.22757E-2
9.42535E-2,1.07193E-2
9.46006E-2,0.86326E-2
9.42153E-2,0.65498E-2
9.30671E-2,0.45852E-2
9.20753E-2,0.33302E-2
9.15794E-2,0.22888E-2
9.12399E-2,0.09346E-2
9.09957E-2,-1.39617E-3
8.99009E-2,-3.66210E-3
8.81614E-2,-5.18035E-3
8.63533E-2,-7.38906E-3
8.54072E-2,-9.67788E-3
8.34426E-2,-1.21116E-2
8.17527E-2,-1.28936E-2
8.11767E-2,-1.50756E-2
7.96127E-2,-1.72805E-2
7.84950E-2,-1.95121E-2
7.70416E-2,-2.33535E-2
7.45048E-2,-2.62184E-2
7.05719E-2,-2.93273E-2
6.69860E-2,-3.06282E-2
6.42929E-2,-3.23677E-2
6.11705E-2,-3.40900E-2
5.72242E-2,-3.53145E-2
5.36994E-2,-3.62205E-2
5.06744E-2,-3.71475E-2
4.70752E-2,-3.93829E-2
4.08992E-2,-4.12445E-2
3.44867E-2,-4.03728E-2
2.95162E-2,-3.88908E-2
2.41699E-2,-3.75328E-2
1.85489E-2,-3.45993E-2
1.46894E-2,-3.05948E-2
1.20897E-2,-2.75688E-2
0.92029E-2,-2.52866E-2
0.60720E-2,-2.27813E-2
0.34437E-2,-2.04067E-2
0.06399E-2,-1.85575E-2
-2.78186E-3,-1.63154E-2
-6.15310E-3,-1.36537E-2
-9.04750E-3,-1.04084E-2
-1.16262E-2,-7.55691E-3
-1.43899E-2,-4.11033E-3
-1.57556E-2,-5.21659E-4
-1.68209E-2,0.17919E-2
-1.86996E-2,0.37679E-2
-2.13260E-2,0.62093E-2
-2.33211E-2,0.93212E-2
-2.55546E-2,1.24397E-2
-2.79493E-2,1.61933E-2
-2.95982E-2,2.10399E-2
-2.96821E-2,2.57129E-2
-2.96878E-2,2.94952E-2
-2.97203E-2,3.31077E-2
-2.95295E-2,3.70330E-2
-2.96936E-2,4.04815E-2
-2.98423E-2,4.48913E-2
-2.85301E-2,4.94270E-2
-2.70195E-2,5.21354E-2
-2.74200E-2,5.49850E-2
-2.79083E-2,5.94863E-2
-2.69012E-2,6.44378E-2
-2.48870E-2,6.96029E-2
-2.19650E-2,7.35817E-2
-1.86843E-2,7.63130E-2
-1.60713E-2,7.77244E-2
-1.52130E-2,7.94792E-2
-1.42211E-2,8.21189E-2
-1.31034E-2,8.48121E-2
-1.10359E-2,8.80088E-2
-7.92312E-3,9.05494E-2
-4.90951E-3,9.11636E-2
-3.88336E-3,9.15145E-2
-2.6474E-3,9.34333E-2
-7.09533E-4,9.48104E-2
0.13198E-2,9.61570E-2
0.31585E-2,9.72061E-2
0.52337E-2,9.75952E-2
0.65689E-2,9.78546E-2
0.76293E-2,9.85183E-2
0.85144E-2,9.97467E-2
0.98800E-2,1.00166E-1
0.96740E-2,1.01364E-1
1.07116E-2,1.04011E-1
1.16729E-2,1.05880E-1
1.29470E-2,1.08421E-1
1.51825E-2,1.10900E-1
1.77002E-2,1.13235E-1
1.99127E-2,1.14654E-1
2.13012E-2,1.16912E-1
2.33764E-2,1.19537E-1
2.54211E-2,1.21704E-1
2.83508E-2,1.24801E-1
0.32211E-1,1.26419E-1
0.34408E-1,1.27090E-1
0.36041E-1,1.28814E-1
0.38368E-1,1.32003E-1
0.41870E-1,1.34185E-1
0.45974E-1,1.37008E-1
0.51422E-1,1.38275E-1
0.55648E-1,1.38130E-1
0.59494E-1,1.38107E-1
0.63163E-1,1.37496E-1
0.65933E-1,1.37428E-1
0.69198E-1,1.37374E-1
0.73234E-1,1.37100E-1
0.76400E-1,1.36627E-1
0.79605E-1,1.36764E-1
0.84289E-1,1.36322E-1
0.88668E-1,1.35055E-1
0.92742E-1,1.33697E-1
0.96008E-1,1.31744E-1
0.99472E-1,1.30302E-1
1.03202E-1,1.29440E-1
1.07231E-1,1.27952E-1
1.10801E-1,1.26281E-1
1.15020E-1,1.24710E-1
1.18949E-1,1.22261E-1
1.22398E-1,1.20048E-1
1.25930E-1,1.18049E-1
1.29684E-1,1.14624E-1
1.32400E-1,1.11206E-1
1.35345E-1,1.09405E-1
1.38786E-1,1.07299E-1
1.42303E-1,1.03591E-1
1.44897E-1,0.99700E-1
1.47293E-1,0.96038E-1
1.49581E-1,0.92712E-1
1.53320E-1,0.88378E-1
1.55609E-1,0.83038E-1
1.56486E-1,0.77171E-1
1.56189E-1,0.71929E-1
1.56593E-1,0.67512E-1
1.56135E-1,0.62477E-1
1.56204E-1,0.58059E-1
1.56417E-1,0.52925E-1
1.56089E-1,0.47729E-1
1.55014E-1,0.41770E-1
1.52656E-1,0.36308E-1
1.50787E-1,0.31387E-1
1.47949E-1,0.26710E-1
1.44561E-1,0.2211E-1
1.40594E-1,0.17608E-1
1.35849E-1,0.13687E-1
1.30447E-1,0.12054E-1
1.26953E-1,0.11596E-1
1.24374E-1,1.01165E-2
1.21292E-1,0.80413E-2
1.17240E-1,0.69122E-2
1.1343E-1,0.54626E-2
1.09581E-1,0.58975E-2
1.05312E-1,0.53710E-2
1.01291E-1,0.57830E-2
9.78393E-2,0.7267E-2
9.54628E-2,0.77667E-2
9.20791E-2,0.84343E-2
8.82644E-2,0.86402E-2
8.48693E-2,0.98915E-2
8.13407E-2,1.14402E-2
7.78350E-2,1.31073E-2
7.40432E-2,1.53770E-2
7.10449E-2,1.77154E-2
6.78253E-2,2.01950E-2
6.40945E-2,2.22091E-2
6.04782E-2,2.64434E-2
5.79834E-2,3.14865E-2
5.70602E-2,3.58886E-2
5.62744E-2,3.99932E-2
5.60379E-2,4.43496E-2
5.59158E-2,4.84085E-2
5.67703E-2,5.24292E-2
5.79910E-2,5.55801E-2
5.95703E-2,5.87616E-2
6.05583E-2,6.08787E-2
6.09970E-2,6.31828E-2
6.13708E-2,6.66046E-2
6.28967E-2,6.99234E-2
6.54754E-2,7.33795E-2
6.77032E-2,7.59277E-2
7.00759E-2,7.89260E-2
7.32193E-2,8.20159E-2
7.77587E-2,8.38775E-2
8.19473E-2,8.42742E-2
8.42895E-2,8.28399E-2
8.52203E-2,8.29620E-2
8.63189E-2,8.45947E-2
8.89282E-2,8.58764E-2
9.22088E-2,8.73413E-2
9.44671E-2,8.75396E-2
9.72442E-2,8.76159E-2
1.00250E-1,8.72955E-2
1.02356E-1,8.60595E-2
1.02989E-1,8.51364E-2
1.04164E-1,8.52813E-2
1.06231E-1,8.54263E-2
1.07955E-1,8.48999E-2
1.10054E-1,8.43658E-2
1.11579E-1,8.37478E-2
1.13815E-1,8.26034E-2
1.15669E-1,7.97882E-2
1.15959E-1,7.72323E-2
1.15127E-1,7.55157E-2
1.14715E-1,7.42111E-2
1.13571E-1,7.37762E-2
1.12869E-1,7.34939E-2
1.11869E-1,7.34176E-2
1.10794E-1,7.34558E-2
1.10092E-1,7.45544E-2
1.09481E-1,7.58056E-2
1.09962E-1,7.69653E-2
1.10015E-1,7.75528E-2
1.09718E-1,7.79724E-2
1.08566E-1,7.89337E-2
1.07666E-1,8.07113E-2
1.07307E-1,8.35418E-2
1.07643E-1,8.55789E-2
1.08383E-1,8.76846E-2
1.08734E-1,8.98208E-2
1.09077E-1,9.26971E-2
1.10305E-1,9.56039E-2
1.12571E-1,9.88616E-2
1.14692E-1,1.00616E-1
1.16394E-1,1.02157E-1
1.18156E-1,1.04721E-1
1.21063E-1,1.07521E-1
1.24610E-1,1.09741E-1
1.28105E-1,1.11900E-1
1.31446E-1,1.12731E-1
1.34635E-1,1.14265E-1
1.39434E-1,1.15188E-1
1.43310E-1,1.15295E-1
1.47186E-1,1.16973E-1
1.52038E-1,1.17614E-1
1.57653E-1,1.17187E-1
1.62719E-1,1.15997E-1
1.66412E-1,1.14257E-1
1.70501E-1,1.13281E-1
1.75018E-1,1.12319E-1
1.80328E-1,1.09954E-1
1.83944E-1,1.07666E-1
1.87179E-1,1.05423E-1
1.92657E-1,1.03622E-1
1.96182E-1,0.99990E-1
1.99585E-1,0.96954E-1
2.03689E-1,0.94162E-1
2.05825E-1,0.89569E-1
2.08084E-1,0.86532E-1
2.11624E-1,0.84594E-1
2.16033E-1,0.81466E-1
2.19162E-1,0.76812E-1
2.22351E-1,0.71945E-1
2.24227E-1,0.66314E-1
2.25158E-1,0.60821E-1
2.25952E-1,0.55847E-1
2.26455E-1,0.51513E-1
2.27264E-1,0.47164E-1
2.28576E-1,0.43273E-1
2.29278E-1,0.37124E-1
2.28469E-1,0.32104E-1
2.27874E-1,0.27648E-1
2.27294E-1,0.22758E-1
2.25219E-1,0.18661E-1
2.24174E-1,0.15045E-1
2.23693E-1,0.11535E-1
2.22541E-1,0.07583E-1
2.21176E-1,0.03555E-1
2.18635E-1,-7.32421E-4
2.16964E-1,-4.04357E-3
2.13455E-1,-6.86645E-3
2.11120E-1,-8.68225E-3
2.10029E-1,-1.09176E-2
2.08305E-1,-1.29776E-2
2.07557E-1,-1.52511E-2
2.05108E-1,-1.94320E-2
2.01690E-1,-2.24151E-2
1.98883E-1,-2.38266E-2
1.96319E-1,-2.57186E-2
1.93298E-1,-2.79769E-2
1.89857E-1,-2.87551E-2
1.86996E-1,-2.88925E-2
1.84875E-1,-2.86941E-2
1.83349E-1,-2.92587E-2
1.81602E-1,-3.01284E-2
1.79779E-1,-3.12118E-2
1.77627E-1,-3.12576E-2
1.75842E-1,-3.15094E-2
1.73660E-1,-3.18069E-2
1.71760E-1,-3.16009E-2
1.69761E-1,-3.15246E-2
1.68518E-1,-3.09829E-2
1.66481E-1,-3.01895E-2
1.65428E-1,-2.98843E-2
1.63459E-1,-2.87857E-2
1.63032E-1,-2.77252E-2
1.62162E-1,-2.67791E-2
1.61743E-1,-2.60772E-2
1.61491E-1,-2.48947E-2
1.61529E-1,-2.39334E-2
1.62361E-1,-2.31781E-2
1.63505E-1,-2.36969E-2
1.63681E-1,-2.51159E-2
1.63925E-1,-2.62603E-2
1.62849E-1,-2.74047E-2
1.61460E-1,-2.85415E-2
1.59881E-1,-2.88009E-2
1.58569E-1,-2.87094E-2
1.57714E-1,-2.80990E-2
1.57081E-1,-2.80151E-2
1.56570E-1,-2.72216E-2
1.56700E-1,-2.70004E-2
1.56395E-1,-2.67486E-2
1.56478E-1,-2.73590E-2
1.56715E-1,-2.85110E-2
1.55174E-1,-2.91290E-2
1.53495E-1,-2.86102E-2
1.53106E-1,-2.70080E-2
1.54434E-1,-2.71301E-2
1.55128E-1,-2.86178E-2
1.53717E-1,-2.95486E-2
1.51863E-1,-3.02963E-2
1.49642E-1,-2.93502E-2
1.49192E-1,-2.79312E-2
1.48788E-1,-2.73971E-2
1.48551E-1,-2.59017E-2
1.48315E-1,-2.58026E-2
1.47026E-1,-2.57644E-2
1.45820E-1,-2.46276E-2
1.44813E-1,-2.31552E-2
1.43882E-1,-2.15530E-2
1.44218E-1,-1.99432E-2
1.43989E-1,-1.88598E-2
1.44073E-1,-1.75857E-2
1.43447E-1,-1.59454E-2
1.43135E-1,-1.38015E-2
1.43898E-1,-1.18103E-2
1.44836E-1,-1.13830E-2
1.44233E-1,-1.08947E-2
1.44271E-1,-8.46099E-3
1.44668E-1,-6.50787E-3
1.44615E-1,-4.87518E-3
1.45072E-1,-3.13568E-3
1.46011E-1,-4.65393E-4
1.47766E-1,0.01976E-1
1.49231E-1,0.04043E-1
1.49757E-1,0.06523E-1
1.52038E-1,0.10574E-1
1.56105E-1,0.13145E-1
1.60202E-1,0.14167E-1
1.63635E-1,0.14976E-1
1.66343E-1,0.16052E-1
1.69586E-1,0.18295E-1
1.74491E-1,0.19561E-1
1.78886E-1,0.18844E-1
1.82342E-1,0.18905E-1
1.85142E-1,0.19210E-1
1.89155E-1,0.19554E-1
1.93061E-1,0.19340E-1
1.97212E-1,0.18775E-1
2.00660E-1,0.17669E-1
2.04071E-1,0.16990E-1
2.08053E-1,0.16059E-1
2.11326E-1,0.14976E-1
2.15240E-1,0.14114E-1
2.19543E-1,0.12725E-1
2.24418E-1,0.09986E-1
2.28653E-1,0.07293E-1
2.32940E-1,0.04356E-1
2.36885E-1,0.00488E-1
2.40188E-1,-3.45611E-3
2.42492E-1,-8.27026E-3
2.45460E-1,-1.21231E-2
2.47604E-1,-1.64260E-2
2.49183E-1,-2.06146E-2
2.51358E-1,-2.46582E-2
2.53402E-1,-2.90985E-2
2.54898E-1,-3.24096E-2
2.57507E-1,-3.74603E-2
2.59643E-1,-4.24194E-2
2.60940E-1,-4.88891E-2
2.61535E-1,-5.40771E-2
2.60696E-1,-6.02874E-2
2.59582E-1,-6.43920E-2
2.59521E-1,-6.82220E-2
2.59582E-1,-7.22351E-2
2.59017E-1,-7.77282E-2
2.57720E-1,-8.05358E-2
2.57064E-1,-8.42742E-2
2.57110E-1,-8.95843E-2
2.55920E-1,-9.51995E-2
2.52563E-1,-9.95178E-2
2.49244E-1,-1.03912E-1
2.46681E-1,-1.07360E-1
2.43537E-1,-1.09939E-1
2.41416E-1,-1.12442E-1
2.39234E-1,-1.15593E-1
2.36747E-1,-1.18637E-1
2.33818E-1,-1.21696E-1
2.31338E-1,-1.25228E-1
2.28561E-1,-1.28738E-1
2.24891E-1,-1.31004E-1
2.20924E-1,-1.33010E-1
2.17445E-1,-1.34880E-1
2.13760E-1,-1.36100E-1
2.10838E-1,-1.36413E-1
2.08396E-1,-1.37817E-1
2.05513E-1,-1.38916E-1
2.03910E-1,-1.39137E-1
2.02095E-1,-1.40167E-1
2.00546E-1,-1.41494E-1
1.98097E-1,-1.43577E-1
1.95274E-1,-1.44706E-1
1.92863E-1,-1.44592E-1
1.90605E-1,-1.44729E-1
1.88613E-1,-1.44294E-1
1.87393E-1,-1.44241E-1
1.86180E-1,-1.44882E-1
1.85264E-1,-1.45477E-1
1.83143E-1,-1.46293E-1
1.80915E-1,-1.46057E-1
1.78886E-1,-1.46263E-1
1.77902E-1,-1.46064E-1
1.76338E-1,-1.46621E-1
1.74186E-1,-1.46606E-1
1.72515E-1,-1.46781E-1
1.70135E-1,-1.45813E-1
1.69288E-1,-1.44508E-1
1.69349E-1,-1.43951E-1
1.69654E-1,-1.44348E-1
1.68998E-1,-1.45309E-1
1.68022E-1,-1.46072E-1
1.66984E-1,-1.46293E-1
1.66610E-1,-1.4711E-1
1.65580E-1,-1.48536E-1
1.64558E-1,-1.49284E-1
1.63299E-1,-1.49986E-1
1.62155E-1,-1.50375E-1
1.61407E-1,-1.51008E-1
1.60499E-1,-1.51985E-1
1.60293E-1,-1.52626E-1
1.59904E-1,-1.54014E-1
1.58798E-1,-1.55464E-1
1.56402E-1,-1.56257E-1
1.55616E-1,-1.55403E-1
1.56074E-1,-1.55868E-1
1.55723E-1,-1.56883E-1
1.55715E-1,-1.58546E-1
1.54457E-1,-1.59355E-1
1.54197E-1,-1.60133E-1
1.53236E-1,-1.61781E-1
1.51878E-1,-1.62803E-1
1.50444E-1,-1.63749E-1
1.49093E-1,-1.64482E-1
1.47338E-1,-1.65252E-1
1.45614E-1,-1.64909E-1
1.44699E-1,-1.65092E-1
1.43783E-1,-1.65176E-1
1.42974E-1,-1.65451E-1
1.41944E-1,-1.66343E-1
1.40670E-1,-1.66854E-1
1.40029E-1,-1.68045E-1
1.38885E-1,-1.69807E-1
1.36322E-1,-1.71348E-1
1.32751E-1,-1.71112E-1
1.30355E-1,-1.70700E-1
1.28913E-1,-1.69784E-1
1.28028E-1,-1.68701E-1
1.27273E-1,-1.68914E-1
1.26068E-1,-1.68571E-1
1.24626E-1,-1.68411E-1
1.24168E-1,-1.67968E-1
1.23718E-1,-1.68373E-1
1.22512E-1,-1.68960E-1
1.21467E-1,-1.68701E-1
1.19697E-1,-1.68624E-1
1.18629E-1,-1.67724E-1
1.17935E-1,-1.66450E-1
1.18263E-1,-1.65054E-1
1.19018E-1,-1.64627E-1
1.19445E-1,-1.64894E-1
1.19445E-1,-1.64604E-1
1.19926E-1,-1.63978E-1
1.20536E-1,-1.63787E-1
1.21376E-1,-1.63887E-1
1.21765E-1,-1.64505E-1
1.22100E-1,-1.64802E-1
1.22253E-1,-1.65008E-1
1.22291E-1,-1.65107E-1
1.23420E-1,-1.65329E-1
1.24702E-1,-1.66450E-1
1.24733E-1,-1.68563E-1
1.23558E-1,-1.69929E-1
1.22810E-1,-1.70730E-1
1.21963E-1,-1.71478E-1
1.21498E-1,-1.72050E-1
1.20575E-1,-1.72592E-1
1.19888E-1,-1.72737E-1
1.20628E-1,-1.73812E-1
1.19880E-1,-1.75193E-1
1.19186E-1,-1.76536E-1
1.18515E-1,-1.77413E-1
1.18217E-1,-1.78840E-1
1.17767E-1,-1.79954E-1
1.16485E-1,-1.81602E-1
1.13235E-1,-1.82472E-1
1.12365E-1,-1.83776E-1
1.11953E-1,-1.85386E-1
1.12251E-1,-1.87210E-1
1.10870E-1,-1.89056E-1
1.10221E-1,-1.91223E-1
1.09886E-1,-1.93306E-1
1.08345E-1,-1.96243E-1
1.05430E-1,-1.99104E-1
1.03126E-1,-2.01782E-1
1.00196E-1,-2.02758E-1
0.97396E-1,-2.04109E-1
0.94459E-1,-2.04330E-1
0.92277E-1,-2.04391E-1
0.89851E-1,-2.04681E-1
0.88378E-1,-2.04917E-1
0.87066E-1,-2.05490E-1
0.85861E-1,-2.05467E-1
0.84320E-1,-2.06443E-1
0.82435E-1,-2.08610E-1
0.79490E-1,-2.09648E-1
0.76644E-1,-2.09564E-1
0.74134E-1,-2.08694E-1
0.72357E-1,-2.08969E-1
0.70182E-1,-2.08473E-1
0.68351E-1,-2.08145E-1
