CITIFILE A.01.00
#NA VERSION HP8720D.06.14
NAME DATA
VAR FREQ MAG 1601
DATA S[1,1] RI

SEG_LIST_BEGIN
SEG 1000000000 8000000000 1601
SEG_LIST_END
BEGIN
3.59344E-1,-4.21157E-1
3.40774E-1,-4.34036E-1
3.19854E-1,-4.48150E-1
2.99987E-1,-4.62356E-1
2.78930E-1,-4.73724E-1
2.56500E-1,-4.87487E-1
2.28576E-1,-4.99481E-1
2.01263E-1,-5.05645E-1
1.74072E-1,-5.09704E-1
1.48071E-1,-5.09887E-1
1.22650E-1,-5.10406E-1
0.99426E-1,-5.08819E-1
0.75073E-1,-5.06317E-1
0.54260E-1,-5.02014E-1
0.30883E-1,-4.98886E-1
0.07614E-1,-4.92584E-1
-1.22070E-2,-4.83291E-1
-3.05175E-2,-4.71588E-1
-4.56543E-2,-4.61761E-1
-6.04553E-2,-4.52545E-1
-7.16857E-2,-4.42321E-1
-8.20922E-2,-4.36828E-1
-9.65576E-2,-4.32006E-1
-1.11389E-1,-4.24804E-1
-1.25305E-1,-4.16473E-1
-1.36962E-1,-4.09576E-1
-1.51641E-1,-4.04174E-1
-1.68335E-1,-3.97003E-1
-1.85119E-1,-3.87451E-1
-2.01690E-1,-3.75579E-1
-2.16857E-1,-3.59497E-1
-2.27233E-1,-3.43566E-1
-2.36389E-1,-3.30017E-1
-2.45758E-1,-3.15612E-1
-2.53784E-1,-3.01239E-1
-2.59979E-1,-2.86804E-1
-2.65167E-1,-2.73132E-1
-2.69409E-1,-2.58361E-1
-2.72125E-1,-2.45025E-1
-2.71774E-1,-2.28729E-1
-2.69897E-1,-2.21038E-1
-2.70889E-1,-2.16873E-1
-2.75207E-1,-2.11654E-1
-2.79983E-1,-2.06054E-1
-2.86239E-1,-2.01217E-1
-2.95379E-1,-1.93832E-1
-3.02291E-1,-1.82693E-1
-3.06701E-1,-1.71432E-1
-3.10852E-1,-1.64108E-1
-3.17688E-1,-1.56097E-1
-3.26355E-1,-1.45248E-1
-3.33221E-1,-1.32583E-1
-3.37616E-1,-1.18240E-1
-3.40957E-1,-1.05438E-1
-3.42987E-1,-9.26971E-2
-3.45001E-1,-8.17413E-2
-3.49502E-1,-7.07244E-2
-3.54126E-1,-5.79528E-2
-3.58718E-1,-4.31060E-2
-3.59985E-1,-2.75421E-2
-3.60824E-1,-1.20239E-2
-3.59375E-1,0.03295E-1
-3.57025E-1,0.16723E-1
-3.55560E-1,0.29953E-1
-3.53012E-1,0.43411E-1
-3.49472E-1,0.55999E-1
-3.47366E-1,0.68756E-1
-3.43399E-1,0.82153E-1
-3.37585E-1,0.96740E-1
-3.29559E-1,1.09542E-1
-3.18557E-1,1.18881E-1
-3.10623E-1,1.23611E-1
-3.06839E-1,1.28509E-1
-3.04473E-1,1.36169E-1
-3.00933E-1,1.44622E-1
-2.96356E-1,1.52923E-1
-2.92358E-1,1.61819E-1
-2.89032E-1,1.71371E-1
-2.83187E-1,1.81503E-1
-2.76519E-1,1.92199E-1
-2.67730E-1,2.00607E-1
-2.59277E-1,2.06451E-1
-2.52929E-1,2.12127E-1
-2.47604E-1,2.18429E-1
-2.42050E-1,2.24609E-1
-2.36434E-1,2.31544E-1
-2.31521E-1,2.38052E-1
-2.25540E-1,2.46551E-1
-2.19284E-1,2.55249E-1
-2.10449E-1,2.62725E-1
-2.02316E-1,2.69332E-1
-1.94213E-1,2.75573E-1
-1.85577E-1,2.81066E-1
-1.77581E-1,2.86575E-1
-1.68319E-1,2.91503E-1
-1.60186E-1,2.95028E-1
-1.52816E-1,2.99499E-1
-1.44790E-1,3.03848E-1
-1.36261E-1,3.07861E-1
-1.28585E-1,3.10775E-1
-1.22070E-1,3.15750E-1
-1.13632E-1,3.21945E-1
-1.02294E-1,3.26477E-1
-9.18884E-2,3.29101E-1
-8.20159E-2,3.29925E-1
-7.41272E-2,3.31756E-1
-6.62841E-2,3.34259E-1
-5.80749E-2,3.37005E-1
-4.91943E-2,3.40499E-1
-3.90014E-2,3.41812E-1
-2.97241E-2,3.44802E-1
-1.92871E-2,3.46145E-1
-1.00250E-2,3.46466E-1
-7.93457E-4,3.47625E-1
0.07522E-1,3.49578E-1
0.17410E-1,3.51196E-1
0.28060E-1,3.52478E-1
0.39581E-1,3.53866E-1
0.50308E-1,3.55316E-1
0.62316E-1,3.54858E-1
0.74432E-1,3.55529E-1
0.87570E-1,3.53744E-1
1.00891E-1,3.50189E-1
1.12930E-1,3.46221E-1
1.24282E-1,3.41888E-1
1.35284E-1,3.37616E-1
1.46362E-1,3.32366E-1
1.56906E-1,3.27072E-1
1.66687E-1,3.20648E-1
1.76330E-1,3.14788E-1
1.85852E-1,3.08776E-1
1.95678E-1,3.03802E-1
2.07428E-1,2.98736E-1
2.18475E-1,2.89733E-1
2.29888E-1,2.81585E-1
2.37518E-1,2.71331E-1
2.47131E-1,2.60772E-1
2.55127E-1,2.49847E-1
2.62908E-1,2.37915E-1
2.67791E-1,2.25921E-1
2.72033E-1,2.15271E-1
2.75512E-1,2.05352E-1
2.80090E-1,1.96044E-1
2.86499E-1,1.88049E-1
2.92968E-1,1.77368E-1
2.98767E-1,1.65832E-1
3.03894E-1,1.51855E-1
3.06884E-1,1.37420E-1
3.07327E-1,1.23306E-1
3.06778E-1,1.12197E-1
3.07174E-1,1.00891E-1
3.06274E-1,0.89538E-1
3.05603E-1,0.80810E-1
3.07189E-1,0.71533E-1
3.09875E-1,0.60089E-1
3.09967E-1,0.46417E-1
3.08685E-1,0.33920E-1
3.07022E-1,0.21194E-1
3.04733E-1,0.08804E-1
3.01101E-1,-4.48608E-3
2.96508E-1,-1.74102E-2
2.90603E-1,-2.91900E-2
2.82501E-1,-4.11224E-2
2.73864E-1,-5.07049E-2
2.65335E-1,-5.89447E-2
2.57995E-1,-6.63452E-2
2.49893E-1,-7.30972E-2
2.41760E-1,-7.91015E-2
2.35488E-1,-8.51287E-2
2.28820E-1,-9.30328E-2
2.19162E-1,-9.97314E-2
2.08679E-1,-1.03996E-1
2.00447E-1,-1.06102E-1
1.94778E-1,-1.09100E-1
1.88423E-1,-1.14730E-1
1.80084E-1,-1.21498E-1
1.68624E-1,-1.25213E-1
1.58142E-1,-1.26380E-1
1.50596E-1,-1.27235E-1
1.41281E-1,-1.27975E-1
1.33590E-1,-1.27929E-1
1.26312E-1,-1.27189E-1
1.19781E-1,-1.26663E-1
1.12648E-1,-1.26785E-1
1.05369E-1,-1.25038E-1
9.96284E-2,-1.21772E-1
9.62066E-2,-1.19785E-1
9.22927E-2,-1.19110E-1
8.86535E-2,-1.17858E-1
8.65097E-2,-1.16195E-1
8.46023E-2,-1.17374E-1
8.15544E-2,-1.19113E-1
7.77092E-2,-1.21864E-1
7.16514E-2,-1.23848E-1
6.57806E-2,-1.24061E-1
6.01043E-2,-1.23710E-1
5.53093E-2,-1.23706E-1
5.06095E-2,-1.24519E-1
0.45280E-1,-1.25610E-1
0.38963E-1,-1.25701E-1
0.32508E-1,-1.26106E-1
2.40325E-2,-1.24908E-1
1.78489E-2,-1.23062E-1
1.16233E-2,-1.21666E-1
0.50888E-2,-1.20376E-1
-2.18963E-3,-1.18625E-1
-9.17434E-3,-1.15104E-1
-1.54495E-2,-1.10969E-1
-2.02484E-2,-1.06735E-1
-2.49023E-2,-1.02829E-1
-2.88162E-2,-9.87167E-2
-3.26690E-2,-9.51995E-2
-3.64074E-2,-9.13085E-2
-3.93295E-2,-8.76846E-2
-4.27017E-2,-8.43658E-2
-4.54711E-2,-8.16879E-2
-4.94232E-2,-7.88574E-2
-5.31234E-2,-7.53555E-2
-5.65033E-2,-7.18765E-2
-6.00814E-2,-6.85195E-2
-6.41784E-2,-6.52008E-2
-6.90460E-2,-6.11572E-2
-7.37152E-2,-5.54962E-2
-7.68814E-2,-4.88205E-2
-7.90062E-2,-4.30603E-2
-8.14399E-2,-3.77578E-2
-8.44154E-2,-3.20816E-2
-8.65211E-2,-2.56843E-2
-8.77876E-2,-1.95579E-2
-8.87527E-2,-1.43356E-2
-9.07058E-2,-9.40322E-3
-9.37271E-2,-3.81469E-3
-9.66377E-2,0.40969E-2
-9.68933E-2,1.30538E-2
-9.53407E-2,2.08320E-2
-9.35668E-2,2.73933E-2
-9.11941E-2,3.34091E-2
-8.88633E-2,3.85475E-2
-8.69140E-2,4.31251E-2
-8.54911E-2,4.77714E-2
-8.41407E-2,5.32417E-2
-8.09593E-2,5.88455E-2
-7.73849E-2,6.31027E-2
-7.40547E-2,6.60095E-2
-7.19909E-2,6.87904E-2
-7.09877E-2,7.23762E-2
-6.94694E-2,7.74116E-2
-6.66313E-2,8.25080E-2
-6.31637E-2,8.73642E-2
-5.94253E-2,9.20181E-2
-5.50842E-2,9.65957E-2
-4.92858E-2,1.00536E-1
-4.38804E-2,1.02294E-1
-4.01382E-2,1.04522E-1
-3.58123E-2,1.07509E-1
-3.08723E-2,1.09668E-1
-2.65502E-2,1.12041E-1
-2.05802E-2,1.14097E-1
-1.4431E-2,1.14475E-1
-9.16290E-3,1.13849E-1
-4.99725E-3,1.12781E-1
-8.43048E-4,1.12381E-1
0.41618E-2,1.11133E-1
0.79383E-2,1.07986E-1
1.04560E-2,1.04888E-1
1.18904E-2,1.02306E-1
1.25656E-2,1.00078E-1
1.34315E-2,9.88197E-2
1.43852E-2,9.77973E-2
1.60865E-2,9.69390E-2
1.83181E-2,9.43603E-2
1.80435E-2,9.11483E-2
1.70898E-2,9.01718E-2
1.76239E-2,8.89205E-2
1.67541E-2,8.72612E-2
1.55105E-2,8.66699E-2
1.40609E-2,8.74404E-2
1.40152E-2,8.87260E-2
1.48811E-2,8.92219E-2
1.51290E-2,8.90464E-2
1.45797E-2,8.87374E-2
1.33857E-2,8.90579E-2
1.09367E-2,9.04388E-2
0.95977E-2,9.34181E-2
0.86326E-2,9.65499E-2
0.79460E-2,1.00891E-1
0.85868E-2,1.05606E-1
0.99372E-2,1.10225E-1
1.20849E-2,1.14593E-1
1.44958E-2,1.18682E-1
1.69677E-2,1.22970E-1
0.20263E-1,1.27822E-1
0.25131E-1,1.32675E-1
0.30777E-1,1.36077E-1
0.37155E-1,1.39267E-1
0.44052E-1,1.41151E-1
0.51414E-1,1.41868E-1
0.58540E-1,1.40602E-1
0.65071E-1,1.39434E-1
0.71579E-1,1.37443E-1
0.76988E-1,1.33384E-1
0.80513E-1,1.29791E-1
0.83534E-1,1.28250E-1
0.88348E-1,1.27159E-1
0.94429E-1,1.25122E-1
9.96398E-2,1.21154E-1
1.03714E-1,1.16500E-1
1.08230E-1,1.13281E-1
1.12457E-1,1.08139E-1
1.16058E-1,1.02264E-1
1.17515E-1,9.6138E-2
1.18644E-1,9.16595E-2
1.20025E-1,8.79898E-2
1.2117E-1,8.33206E-2
1.22062E-1,7.91626E-2
1.23420E-1,7.49740E-2
1.23977E-1,6.99462E-2
1.22947E-1,6.46362E-2
1.20407E-1,5.97991E-2
1.17431E-1,5.60836E-2
1.14509E-1,5.41610E-2
1.12152E-1,5.41153E-2
1.1203E-1,5.31768E-2
1.11900E-1,5.15747E-2
1.10496E-1,4.92248E-2
1.09344E-1,4.73632E-2
1.08108E-1,4.52880E-2
1.05941E-1,4.28466E-2
1.03149E-1,4.27703E-2
1.01959E-1,4.35028E-2
1.02394E-1,4.37698E-2
1.02569E-1,4.27475E-2
1.01478E-1,4.21066E-2
1.01135E-1,4.29000E-2
1.02684E-1,4.32663E-2
1.04011E-1,4.30069E-2
1.06475E-1,4.24423E-2
1.08810E-1,4.02603E-2
1.10504E-1,3.77578E-2
1.11312E-1,3.59497E-2
1.12564E-1,3.46069E-2
1.15264E-1,3.30200E-2
1.17294E-1,2.98156E-2
1.18469E-1,2.69622E-2
1.20056E-1,2.42157E-2
1.21505E-1,2.09579E-2
1.23397E-1,1.67770E-2
1.24618E-1,1.17492E-2
1.23092E-1,0.64544E-2
1.22169E-1,0.31127E-2
1.21997E-1,-5.11169E-4
1.21563E-1,-5.35202E-3
1.19834E-1,-1.01699E-2
1.17942E-1,-1.46179E-2
1.15799E-1,-1.89209E-2
1.11953E-1,-2.45208E-2
1.08306E-1,-2.98996E-2
1.05018E-1,-3.36608E-2
1.00936E-1,-3.74832E-2
9.70993E-2,-4.12902E-2
9.32464E-2,-4.51889E-2
8.83483E-2,-4.88395E-2
8.32939E-2,-5.26275E-2
7.74307E-2,-5.58433E-2
7.14263E-2,-5.87234E-2
6.44836E-2,-6.05545E-2
5.87883E-2,-6.18953E-2
5.14335E-2,-6.28814E-2
4.48074E-2,-6.21566E-2
3.88565E-2,-6.14929E-2
3.33690E-2,-6.09931E-2
2.72159E-2,-6.08215E-2
1.93691E-2,-5.95722E-2
1.24225E-2,-5.60684E-2
0.68035E-2,-5.32627E-2
-8.77380E-5,-5.05085E-2
-7.13539E-3,-4.56142E-2
-1.24015E-2,-3.95031E-2
-1.66587E-2,-3.40843E-2
-2.07824E-2,-2.85682E-2
-2.44617E-2,-2.25353E-2
-2.70385E-2,-1.66854E-2
-2.91461E-2,-1.15642E-2
-3.17611E-2,-6.66809E-3
-3.46374E-2,-1.10626E-3
-3.65390E-2,0.53825E-2
-3.69987E-2,1.13315E-2
-3.74355E-2,1.68762E-2
-3.71151E-2,2.22339E-2
-3.61747E-2,2.68478E-2
-3.58333E-2,3.07598E-2
-3.56693E-2,3.47881E-2
-3.50189E-2,3.96423E-2
-3.37066E-2,4.39071E-2
-3.26194E-2,4.76417E-2
-3.18489E-2,5.19294E-2
-2.97985E-2,5.66215E-2
-2.69298E-2,6.04324E-2
-2.47077E-2,6.32400E-2
-2.28195E-2,6.62536E-2
-2.13127E-2,6.98661E-2
-1.89895E-2,7.41920E-2
-1.50299E-2,7.84454E-2
-1.10092E-2,8.07876E-2
-8.22448E-3,8.28857E-2
-5.38253E-3,8.51249E-2
-1.97982E-3,8.75892E-2
0.16250E-2,8.97445E-2
0.56190E-2,9.12513E-2
0.99487E-2,9.13391E-2
1.25656E-2,9.00497E-2
1.36146E-2,8.98246E-2
1.46789E-2,9.05075E-2
1.58119E-2,9.16252E-2
1.80625E-2,9.30366E-2
2.13317E-2,9.41124E-2
2.42881E-2,9.27734E-2
2.49671E-2,9.13009E-2
2.56805E-2,9.20562E-2
2.72865E-2,9.21783E-2
2.90069E-2,9.20524E-2
3.03535E-2,9.23614E-2
3.25851E-2,9.29336E-2
3.54385E-2,9.20715E-2
3.72695E-2,9.07745E-2
3.88717E-2,8.95156E-2
4.01535E-2,8.76922E-2
3.93676E-2,8.63037E-2
3.93066E-2,8.62884E-2
3.86657E-2,8.62731E-2
3.90930E-2,8.75854E-2
4.00695E-2,8.87756E-2
4.22821E-2,8.96911E-2
4.42352E-2,8.90197E-2
4.52270E-2,8.87908E-2
4.54101E-2,8.77838E-2
4.54864E-2,8.82415E-2
4.54559E-2,8.89129E-2
4.59899E-2,8.92639E-2
4.51507E-2,8.97369E-2
4.44641E-2,9.15985E-2
4.54254E-2,9.44366E-2
4.71344E-2,9.55963E-2
4.85153E-2,9.65957E-2
4.99572E-2,9.73815E-2
5.07965E-2,9.76562E-2
5.21621E-2,9.86175E-2
5.36117E-2,9.91439E-2
5.46112E-2,9.91745E-2
5.54275E-2,9.96246E-2
5.64346E-2,1.00227E-1
5.75256E-2,1.00753E-1
5.89599E-2,1.01867E-1
6.15997E-2,1.02447E-1
6.38427E-2,1.01837E-1
6.47735E-2,1.01425E-1
6.55212E-2,1.01394E-1
6.5979E-2,1.02203E-1
6.77795E-2,1.0392E-1
7.00149E-2,1.06056E-1
7.25860E-2,1.06926E-1
7.55310E-2,1.07879E-1
7.89108E-2,1.09245E-1
8.27713E-2,1.09672E-1
8.66470E-2,1.09733E-1
9.03778E-2,1.08581E-1
9.24987E-2,1.07376E-1
9.54132E-2,1.07559E-1
9.93499E-2,1.07559E-1
1.01944E-1,1.06063E-1
1.04217E-1,1.05239E-1
1.07101E-1,1.04370E-1
1.10794E-1,1.04171E-1
1.15509E-1,1.02584E-1
1.194E-1,9.88311E-2
1.21597E-1,9.40246E-2
1.22528E-1,9.15069E-2
1.24076E-1,8.88824E-2
1.25671E-1,0.85830E-1
1.27059E-1,0.82855E-1
1.28784E-1,0.79643E-1
1.30554E-1,0.75851E-1
1.31889E-1,0.71243E-1
1.32408E-1,0.66436E-1
1.31439E-1,0.61172E-1
1.29493E-1,0.57701E-1
1.28006E-1,0.54260E-1
1.26358E-1,0.50155E-1
1.23008E-1,4.70199E-2
1.19461E-1,4.61120E-2
1.17790E-1,4.68521E-2
1.17805E-1,4.54101E-2
1.16767E-1,4.36401E-2
1.15509E-1,4.22287E-2
1.12762E-1,4.01611E-2
1.10328E-1,4.02526E-2
1.08757E-1,4.04739E-2
1.06857E-1,4.01840E-2
1.05323E-1,4.03823E-2
1.03889E-1,4.03823E-2
1.01730E-1,4.04205E-2
9.93423E-2,4.08706E-2
9.73815E-2,4.24194E-2
9.61685E-2,4.34799E-2
9.44900E-2,4.44259E-2
9.27352E-2,4.64706E-2
9.22393E-2,4.79507E-2
9.15832E-2,4.87213E-2
8.95843E-2,4.92706E-2
8.77838E-2,5.17578E-2
8.69445E-2,5.56488E-2
8.79669E-2,5.80139E-2
8.88977E-2,5.99517E-2
8.99047E-2,6.15844E-2
9.11407E-2,6.32934E-2
9.30938E-2,6.51245E-2
9.57946E-2,6.53991E-2
9.79690E-2,6.51016E-2
9.89608E-2,6.40869E-2
9.91973E-2,6.36749E-2
9.96856E-2,6.43920E-2
1.00372E-1,6.55136E-2
1.01913E-1,6.57119E-2
1.03141E-1,6.61315E-2
1.04965E-1,6.65435E-2
1.06773E-1,6.66809E-2
1.09359E-1,6.58493E-2
1.11236E-1,6.49337E-2
1.12625E-1,6.24771E-2
1.12594E-1,6.05773E-2
1.12182E-1,5.98449E-2
1.11999E-1,5.92804E-2
1.12335E-1,5.93109E-2
1.12640E-1,5.85022E-2
1.13418E-1,5.82885E-2
1.13372E-1,5.68695E-2
1.12976E-1,5.52673E-2
1.12289E-1,5.45654E-2
1.11511E-1,5.39779E-2
1.10778E-1,5.34057E-2
1.09970E-1,5.24673E-2
1.08467E-1,5.27038E-2
1.07521E-1,5.27648E-2
1.07276E-1,5.35888E-2
1.07238E-1,5.24673E-2
1.06384E-1,5.10635E-2
1.04492E-1,4.99115E-2
1.01196E-1,4.94689E-2
9.90219E-2,5.13839E-2
9.81292E-2,5.32836E-2
9.63668E-2,5.36117E-2
9.41619E-2,5.46569E-2
9.16442E-2,5.71975E-2
9.00573E-2,6.05468E-2
9.02862E-2,6.36825E-2
8.99276E-2,6.52236E-2
8.86917E-2,6.78253E-2
8.75930E-2,7.10067E-2
8.67080E-2,7.44323E-2
8.64563E-2,7.78961E-2
8.67385E-2,8.20388E-2
8.72726E-2,8.61663E-2
8.83255E-2,8.98895E-2
8.93402E-2,9.38797E-2
9.10339E-2,9.78622E-2
9.34448E-2,1.02073E-1
9.65347E-2,1.05346E-1
9.89456E-2,1.07551E-1
1.01402E-1,1.11320E-1
1.04858E-1,1.14578E-1
1.08528E-1,1.17576E-1
1.12213E-1,1.20185E-1
1.16066E-1,1.22650E-1
1.20376E-1,1.25808E-1
1.26251E-1,1.27944E-1
1.30706E-1,1.28936E-1
1.35406E-1,1.30767E-1
1.41784E-1,1.32171E-1
1.48376E-1,1.32598E-1
1.54785E-1,1.31591E-1
1.59622E-1,1.29776E-1
1.6362E-1,1.29531E-1
1.68869E-1,1.29440E-1
1.75003E-1,1.28418E-1
1.80206E-1,1.27075E-1
1.86416E-1,1.25335E-1
1.91909E-1,1.22848E-1
1.97143E-1,1.20086E-1
2.01644E-1,1.17675E-1
2.07428E-1,1.15234E-1
2.12051E-1,1.11480E-1
2.17575E-1,1.08062E-1
2.22778E-1,1.03942E-1
2.27356E-1,0.98892E-1
2.31185E-1,0.94451E-1
2.35702E-1,0.89767E-1
2.39273E-1,0.83633E-1
2.41806E-1,0.77743E-1
2.44781E-1,0.73150E-1
2.47985E-1,0.67749E-1
2.50503E-1,0.61355E-1
2.53463E-1,0.55908E-1
2.56347E-1,0.48416E-1
2.57553E-1,0.41305E-1
2.58789E-1,0.33920E-1
2.59338E-1,0.26672E-1
2.59094E-1,0.18905E-1
2.58377E-1,0.12420E-1
2.58056E-1,0.05142E-1
2.56851E-1,-1.00708E-3
2.56027E-1,-8.71276E-3
2.53967E-1,-1.67083E-2
2.50274E-1,-2.40173E-2
2.45964E-1,-2.9953E-2
2.41653E-1,-3.53927E-2
2.38822E-1,-4.04510E-2
2.35023E-1,-4.63714E-2
2.30140E-1,-5.1651E-2
2.24617E-1,-5.74264E-2
2.18559E-1,-6.17446E-2
2.12608E-1,-6.54678E-2
2.06382E-1,-6.91757E-2
1.99119E-1,-7.23648E-2
1.91467E-1,-7.38601E-2
1.84654E-1,-7.41577E-2
1.78497E-1,-7.38372E-2
1.73103E-1,-7.32574E-2
1.67968E-1,-7.33108E-2
1.62307E-1,-7.33642E-2
1.56906E-1,-7.21740E-2
1.51763E-1,-7.10678E-2
1.45820E-1,-6.97784E-2
1.40998E-1,-6.71310E-2
1.35696E-1,-6.37130E-2
1.32011E-1,-6.01959E-2
1.28356E-1,-5.60913E-2
1.25778E-1,-5.23147E-2
1.23413E-1,-4.85382E-2
1.21025E-1,-4.49600E-2
1.19300E-1,-4.11720E-2
1.17576E-1,-3.63845E-2
1.16912E-1,-3.21083E-2
1.17134E-1,-2.80571E-2
1.17858E-1,-2.43492E-2
1.18621E-1,-2.19612E-2
1.19014E-1,-1.90734E-2
1.19834E-1,-1.66168E-2
1.20685E-1,-1.43127E-2
1.2146E-1,-1.20506E-2
1.21749E-1,-1.02958E-2
1.22566E-1,-8.90731E-3
1.23680E-1,-6.48117E-3
1.23882E-1,-4.00543E-3
1.25228E-1,-2.00653E-3
1.26831E-1,-3.43322E-4
1.28105E-1,0.01907E-1
1.30310E-1,0.03631E-1
1.32820E-1,0.03791E-1
1.33552E-1,0.04318E-1
1.34895E-1,0.05722E-1
1.36833E-1,0.07331E-1
1.39656E-1,0.07988E-1
1.41716E-1,0.07309E-1
1.42128E-1,0.06759E-1
1.43150E-1,0.07637E-1
1.43661E-1,0.08880E-1
1.46011E-1,0.10398E-1
1.47987E-1,0.10459E-1
1.50367E-1,0.11093E-1
1.51619E-1,0.11299E-1
1.52198E-1,0.11024E-1
1.53495E-1,0.11238E-1
1.55113E-1,0.12023E-1
1.56593E-1,0.13076E-1
1.58615E-1,0.13458E-1
1.60308E-1,0.13740E-1
1.61682E-1,0.13702E-1
1.62750E-1,0.14015E-1
1.64611E-1,0.14778E-1
1.67152E-1,0.14823E-1
1.69120E-1,0.13931E-1
1.70440E-1,0.13542E-1
1.71577E-1,0.14343E-1
1.73004E-1,0.14556E-1
1.74743E-1,0.14679E-1
1.77139E-1,0.14755E-1
1.79527E-1,0.14419E-1
1.82060E-1,0.13946E-1
1.83906E-1,0.13313E-1
1.84860E-1,0.13412E-1
1.87034E-1,0.1371E-1
1.90269E-1,0.13740E-1
1.93771E-1,0.13374E-1
1.96006E-1,0.11924E-1
1.98280E-1,0.10871E-1
2.00798E-1,0.11123E-1
2.05215E-1,0.10520E-1
2.08015E-1,0.08049E-1
2.10250E-1,0.06355E-1
2.12341E-1,0.04974E-1
2.15354E-1,0.03120E-1
2.17460E-1,0.00999E-1
2.19139E-1,-6.25610E-4
2.21359E-1,-2.12097E-3
2.23564E-1,-3.38745E-3
2.2612E-1,-5.25665E-3
2.27813E-1,-7.47680E-3
2.29324E-1,-9.97924E-3
2.31437E-1,-1.17645E-2
2.33764E-1,-1.40838E-2
2.36343E-1,-1.60675E-2
2.38456E-1,-1.91497E-2
2.40867E-1,-2.32009E-2
2.42218E-1,-2.63824E-2
2.43331E-1,-2.97088E-2
2.45369E-1,-3.29361E-2
2.46177E-1,-3.68957E-2
2.46879E-1,-4.07638E-2
2.47612E-1,-4.39987E-2
2.48481E-1,-4.71191E-2
2.48695E-1,-5.02700E-2
2.50366E-1,-5.36804E-2
2.51724E-1,-5.70831E-2
2.52838E-1,-6.21185E-2
2.53204E-1,-6.58264E-2
2.52899E-1,-7.09075E-2
2.52487E-1,-7.50579E-2
2.51709E-1,-7.81860E-2
2.51525E-1,-8.29315E-2
2.50366E-1,-8.68988E-2
2.48977E-1,-8.98284E-2
2.48596E-1,-9.36126E-2
2.47627E-1,-9.67712E-2
2.45956E-1,-1.01844E-1
2.43568E-1,-1.05552E-1
2.39799E-1,-1.08848E-1
2.37678E-1,-1.11496E-1
2.35336E-1,-1.13494E-1
2.33108E-1,-1.15730E-1
2.31018E-1,-1.18133E-1
2.28721E-1,-1.2117E-1
2.26371E-1,-1.23107E-1
2.24548E-1,-1.26571E-1
2.21458E-1,-1.29554E-1
2.17750E-1,-1.31668E-1
2.14424E-1,-1.32644E-1
2.11334E-1,-1.33995E-1
2.08663E-1,-1.35017E-1
2.06253E-1,-1.35681E-1
2.03903E-1,-1.3694E-1
2.01797E-1,-1.37680E-1
2.00676E-1,-1.38671E-1
1.98509E-1,-1.40197E-1
1.96929E-1,-1.41403E-1
1.94480E-1,-1.43310E-1
1.91932E-1,-1.44111E-1
1.89849E-1,-1.43417E-1
1.87797E-1,-1.43249E-1
1.87164E-1,-1.43524E-1
1.85981E-1,-1.43981E-1
1.84684E-1,-1.44325E-1
1.83639E-1,-1.45431E-1
1.82403E-1,-1.46499E-1
1.80725E-1,-1.46453E-1
1.79260E-1,-1.47232E-1
1.77734E-1,-1.47987E-1
1.75354E-1,-1.48811E-1
1.72897E-1,-1.48994E-1
1.70471E-1,-1.48155E-1
1.69136E-1,-1.47026E-1
1.67808E-1,-1.45469E-1
1.68342E-1,-1.45301E-1
1.68121E-1,-1.45988E-1
1.67717E-1,-1.46377E-1
1.67465E-1,-1.47094E-1
1.66664E-1,-1.48475E-1
1.65870E-1,-1.50245E-1
1.64459E-1,-1.51489E-1
1.62735E-1,-1.52748E-1
1.60972E-1,-1.52748E-1
1.59080E-1,-1.53160E-1
1.58462E-1,-1.53099E-1
1.58264E-1,-1.53350E-1
1.58065E-1,-1.54007E-1
1.57699E-1,-1.55387E-1
1.56745E-1,-1.57203E-1
1.55593E-1,-1.57798E-1
1.55296E-1,-1.58172E-1
1.5522E-1,-1.59904E-1
1.54579E-1,-1.61171E-1
1.54159E-1,-1.62788E-1
1.53610E-1,-1.64505E-1
1.52259E-1,-1.65672E-1
1.50810E-1,-1.67816E-1
1.48750E-1,-1.69166E-1
1.47247E-1,-1.70425E-1
1.45210E-1,-1.71791E-1
1.42135E-1,-1.72569E-1
1.39755E-1,-1.72203E-1
1.38374E-1,-1.72279E-1
1.36955E-1,-1.72660E-1
1.35177E-1,-1.73759E-1
1.33132E-1,-1.74758E-1
1.30394E-1,-1.75605E-1
1.27304E-1,-1.75354E-1
1.24862E-1,-1.75506E-1
1.22139E-1,-1.75453E-1
1.18682E-1,-1.75529E-1
1.15348E-1,-1.73622E-1
1.13426E-1,-1.71951E-1
1.11228E-1,-1.70448E-1
1.10382E-1,-1.69036E-1
1.09092E-1,-1.67465E-1
1.07566E-1,-1.66343E-1
1.07292E-1,-1.64947E-1
1.06315E-1,-1.63894E-1
1.05644E-1,-1.63398E-1
1.04621E-1,-1.62269E-1
1.03157E-1,-1.61048E-1
1.01959E-1,-1.58836E-1
1.00799E-1,-1.56616E-1
1.01326E-1,-1.53259E-1
1.02546E-1,-1.50825E-1
1.04339E-1,-1.49162E-1
1.06529E-1,-1.47872E-1
1.08291E-1,-1.47010E-1
1.10298E-1,-1.46278E-1
1.12335E-1,-1.46850E-1
1.13273E-1,-1.47277E-1
1.13922E-1,-1.47361E-1
1.14662E-1,-1.46759E-1
1.15501E-1,-1.46446E-1
1.17248E-1,-1.45973E-1
1.18888E-1,-1.46225E-1
1.20353E-1,-1.47094E-1
1.21109E-1,-1.47583E-1
1.23016E-1,-1.4814E-1
1.23802E-1,-1.49902E-1
1.23832E-1,-1.51878E-1
1.23024E-1,-1.53099E-1
1.22421E-1,-1.53411E-1
1.23107E-1,-1.53434E-1
1.23321E-1,-1.54304E-1
1.24511E-1,-1.54670E-1
1.25389E-1,-1.56013E-1
1.26281E-1,-1.57524E-1
1.26907E-1,-1.59523E-1
1.26594E-1,-1.60995E-1
1.25E-1,-1.62803E-1
1.24694E-1,-1.64642E-1
1.25312E-1,-1.66183E-1
1.26098E-1,-1.68365E-1
1.27655E-1,-1.69822E-1
1.27891E-1,-1.72790E-1
1.28288E-1,-1.75918E-1
1.27944E-1,-1.79115E-1
1.27670E-1,-1.82991E-1
1.26617E-1,-1.86279E-1
1.25114E-1,-1.89926E-1
1.22757E-1,-1.92840E-1
1.20796E-1,-1.94931E-1
1.19506E-1,-1.96594E-1
1.18438E-1,-1.98631E-1
1.17065E-1,-2.00782E-1
1.15371E-1,-2.02751E-1
1.14227E-1,-2.05421E-1
1.138E-1,-2.08541E-1
1.11366E-1,-2.11692E-1
1.08314E-1,-2.15354E-1
1.04797E-1,-2.18322E-1
1.00143E-1,-2.19078E-1
0.97351E-1,-2.19848E-1
0.94314E-1,-2.20397E-1
0.91606E-1,-2.21199E-1
0.89492E-1,-2.22328E-1
0.86204E-1,-2.23426E-1
0.83984E-1,-2.24617E-1
