CITIFILE A.01.00
#NA VERSION HP8720D.06.14
NAME DATA
VAR FREQ MAG 1601
DATA S[1,1] RI

SEG_LIST_BEGIN
SEG 1000000000 8000000000 1601
SEG_LIST_END
BEGIN
3.26736E-1,-3.90090E-1
3.11264E-1,-3.97399E-1
2.96173E-1,-4.05380E-1
2.80883E-1,-4.13101E-1
2.68798E-1,-4.23187E-1
2.54058E-1,-4.36157E-1
2.34100E-1,-4.45831E-1
2.15118E-1,-4.54162E-1
1.95510E-1,-4.62799E-1
1.72943E-1,-4.67453E-1
1.51275E-1,-4.70581E-1
1.31790E-1,-4.71664E-1
1.12075E-1,-4.72564E-1
0.95275E-1,-4.72381E-1
0.75744E-1,-4.72915E-1
0.56945E-1,-4.71450E-1
0.41671E-1,-4.67804E-1
0.26733E-1,-4.66354E-1
0.10360E-1,-4.66491E-1
-6.24084E-3,-4.65759E-1
-2.25677E-2,-4.63729E-1
-3.98559E-2,-4.64355E-1
-6.10961E-2,-4.62707E-1
-8.14209E-2,-4.57641E-1
-1.00769E-1,-4.49676E-1
-1.17981E-1,-4.42565E-1
-1.36016E-1,-4.36584E-1
-1.56433E-1,-4.28131E-1
-1.74408E-1,-4.17724E-1
-1.92474E-1,-4.04846E-1
-2.09045E-1,-3.88458E-1
-2.21466E-1,-3.71337E-1
-2.30560E-1,-3.57757E-1
-2.39410E-1,-3.45855E-1
-2.49572E-1,-3.34198E-1
-2.60833E-1,-3.22601E-1
-2.70599E-1,-3.08227E-1
-2.78564E-1,-2.93212E-1
-2.85461E-1,-2.79235E-1
-2.90832E-1,-2.612E-1
-2.92877E-1,-2.49633E-1
-2.96752E-1,-2.40448E-1
-3.01849E-1,-2.30773E-1
-3.07220E-1,-2.22015E-1
-3.13812E-1,-2.13073E-1
-3.22967E-1,-2.02026E-1
-3.29559E-1,-1.87988E-1
-3.33007E-1,-1.73645E-1
-3.35296E-1,-1.62811E-1
-3.39019E-1,-1.52343E-1
-3.45077E-1,-1.40701E-1
-3.49060E-1,-1.27944E-1
-3.51196E-1,-1.14547E-1
-3.54019E-1,-1.02920E-1
-3.56079E-1,-9.11254E-2
-3.58398E-1,-8.09631E-2
-3.63418E-1,-6.91680E-2
-3.68560E-1,-5.65643E-2
-3.72863E-1,-4.19464E-2
-3.76724E-1,-2.43072E-2
-3.76464E-1,-6.51550E-3
-3.73825E-1,0.09719E-1
-3.70620E-1,0.23223E-1
-3.68942E-1,0.36911E-1
-3.65783E-1,0.51223E-1
-3.6203E-1,0.64315E-1
-3.58688E-1,0.77865E-1
-3.53820E-1,0.91857E-1
-3.47656E-1,1.06781E-1
-3.37158E-1,1.19049E-1
-3.27407E-1,1.27304E-1
-3.20114E-1,1.31973E-1
-3.16345E-1,1.37878E-1
-3.12454E-1,1.45309E-1
-3.08990E-1,1.52526E-1
-3.05892E-1,1.61071E-1
-3.03237E-1,1.69982E-1
-3.01452E-1,1.81243E-1
-2.95730E-1,1.93710E-1
-2.88497E-1,2.05856E-1
-2.80151E-1,2.16278E-1
-2.70599E-1,2.24670E-1
-2.62542E-1,2.32055E-1
-2.56256E-1,2.38937E-1
-2.49221E-1,2.46688E-1
-2.42523E-1,2.54547E-1
-2.35977E-1,2.63809E-1
-2.27874E-1,2.73529E-1
-2.18917E-1,2.82989E-1
-2.07855E-1,2.90573E-1
-1.97555E-1,2.97958E-1
-1.85760E-1,3.04977E-1
-1.73538E-1,3.09234E-1
-1.62200E-1,3.125E-1
-1.50863E-1,3.15918E-1
-1.40869E-1,3.17367E-1
-1.32141E-1,3.19122E-1
-1.23413E-1,3.21502E-1
-1.15493E-1,3.24523E-1
-1.07238E-1,3.26980E-1
-9.91516E-2,3.30551E-1
-8.95080E-2,3.36105E-1
-7.74078E-2,3.3992E-1
-6.43920E-2,3.41690E-1
-5.22766E-2,3.40683E-1
-4.16107E-2,3.39157E-1
-3.32183E-2,3.36517E-1
-2.58789E-2,3.35418E-1
-1.90734E-2,3.35891E-1
-1.16882E-2,3.37417E-1
-3.11279E-3,3.40240E-1
0.09246E-1,3.41613E-1
0.19485E-1,3.39614E-1
0.28366E-1,3.38043E-1
0.37124E-1,3.36532E-1
0.45639E-1,3.37448E-1
0.56076E-1,3.36731E-1
0.66177E-1,3.35235E-1
0.76400E-1,3.33267E-1
0.86196E-1,3.30825E-1
0.97183E-1,3.28887E-1
1.08184E-1,3.24585E-1
1.18667E-1,3.18588E-1
1.27090E-1,3.12408E-1
1.33590E-1,3.06579E-1
1.40243E-1,3.03299E-1
1.49139E-1,3.00308E-1
1.58248E-1,2.95654E-1
1.66763E-1,2.88528E-1
1.73965E-1,2.82379E-1
1.80389E-1,2.76947E-1
1.88217E-1,2.72155E-1
1.96914E-1,2.67044E-1
2.04254E-1,2.59948E-1
2.12692E-1,2.53662E-1
2.18582E-1,2.46475E-1
2.26516E-1,2.38281E-1
2.33322E-1,2.29583E-1
2.39715E-1,2.21405E-1
2.45544E-1,2.11486E-1
2.50610E-1,2.02056E-1
2.54760E-1,1.93878E-1
2.58972E-1,1.86035E-1
2.65686E-1,1.77856E-1
2.70675E-1,1.68579E-1
2.76580E-1,1.57379E-1
2.80548E-1,1.45446E-1
2.82501E-1,1.32843E-1
2.82226E-1,1.22238E-1
2.82897E-1,1.14410E-1
2.85720E-1,1.05575E-1
2.87506E-1,0.94696E-1
2.88147E-1,0.85266E-1
2.89703E-1,0.76232E-1
2.92419E-1,0.65673E-1
2.93365E-1,0.53070E-1
2.93579E-1,0.41107E-1
2.92923E-1,0.28411E-1
2.91275E-1,0.15258E-1
2.86956E-1,0.01556E-1
2.81433E-1,-1.03302E-2
2.75238E-1,-2.12402E-2
2.68173E-1,-3.09753E-2
2.60986E-1,-4.00085E-2
2.53356E-1,-4.75463E-2
2.46269E-1,-5.39550E-2
2.39288E-1,-5.99746E-2
2.32589E-1,-6.59103E-2
2.27172E-1,-7.17620E-2
2.21084E-1,-7.86895E-2
2.12371E-1,-8.53271E-2
2.0401E-1,-8.99047E-2
1.96907E-1,-9.29565E-2
1.91909E-1,-9.7435E-2
1.84646E-1,-1.03858E-1
1.75598E-1,-1.10488E-1
1.63452E-1,-1.14158E-1
1.52603E-1,-1.14105E-1
1.44004E-1,-1.13891E-1
1.35627E-1,-1.11854E-1
1.29974E-1,-1.09039E-1
1.26068E-1,-1.07620E-1
1.22692E-1,-1.08123E-1
1.18022E-1,-1.09355E-1
1.12304E-1,-1.09291E-1
1.07185E-1,-1.08650E-1
1.03172E-1,-1.07566E-1
9.93576E-2,-1.06796E-1
9.66720E-2,-1.06384E-1
9.49478E-2,-1.07078E-1
9.20524E-2,-1.09775E-1
8.79325E-2,-1.11381E-1
8.32252E-2,-1.12865E-1
7.81669E-2,-1.14315E-1
7.28607E-2,-1.15623E-1
6.72493E-2,-1.16138E-1
6.20155E-2,-1.15814E-1
5.70793E-2,-1.16024E-1
5.19752E-2,-1.15745E-1
4.74815E-2,-1.15482E-1
4.20723E-2,-1.16565E-1
3.50761E-2,-1.16458E-1
2.85644E-2,-1.15043E-1
2.28004E-2,-1.13246E-1
1.68762E-2,-1.11633E-1
1.12915E-2,-1.09546E-1
0.62637E-2,-1.06800E-1
0.16708E-2,-1.04106E-1
-2.85339E-3,-1.00814E-1
-6.54602E-3,-9.83200E-2
-9.53674E-3,-9.52491E-2
-1.24015E-2,-9.31587E-2
-1.53236E-2,-9.13505E-2
-1.85089E-2,-9.00917E-2
-2.17933E-2,-8.80889E-2
-2.46925E-2,-8.65898E-2
-2.82135E-2,-8.52584E-2
-3.18183E-2,-8.37440E-2
-3.57437E-2,-8.23402E-2
-4.00810E-2,-8.09021E-2
-4.54635E-2,-7.91320E-2
-5.10864E-2,-7.57522E-2
-5.60226E-2,-7.13424E-2
-5.96923E-2,-6.72226E-2
-6.27975E-2,-6.29119E-2
-6.64138E-2,-5.97381E-2
-7.10067E-2,-5.63430E-2
-7.57064E-2,-5.18188E-2
-7.99560E-2,-4.67376E-2
-8.39157E-2,-4.15649E-2
-8.77113E-2,-3.63845E-2
-9.21630E-2,-3.07388E-2
-9.67140E-2,-2.34565E-2
-9.87129E-2,-1.52053E-2
-9.95101E-2,-8.14056E-3
-1.00475E-1,-1.86920E-3
-1.01142E-1,0.42114E-2
-1.02249E-1,1.00669E-2
-1.02996E-1,1.63536E-2
-1.03820E-1,2.28767E-2
-1.03858E-1,3.01818E-2
-1.02142E-1,3.67736E-2
-1.00704E-1,4.23126E-2
-9.92050E-2,4.75425E-2
-9.79232E-2,5.23643E-2
-9.80186E-2,5.74722E-2
-9.77783E-2,6.39076E-2
-9.64965E-2,7.06596E-2
-9.43222E-2,7.79724E-2
-9.14459E-2,8.49914E-2
-8.79898E-2,9.19799E-2
-8.28933E-2,9.82017E-2
-7.79800E-2,1.02699E-1
-7.47871E-2,1.07540E-1
-7.03926E-2,1.13449E-1
-6.52847E-2,1.18221E-1
-6.07872E-2,1.23069E-1
-5.46188E-2,1.27815E-1
-4.83245E-2,1.31187E-1
-4.25949E-2,1.34399E-1
-3.66058E-2,1.36589E-1
-2.99911E-2,1.39152E-1
-2.34680E-2,1.39793E-1
-1.74942E-2,1.39434E-1
-1.26953E-2,1.38923E-1
-8.34655E-3,1.38855E-1
-5.21087E-3,1.39076E-1
-5.41687E-4,1.39526E-1
0.04776E-1,1.40052E-1
0.09956E-1,1.38473E-1
0.14839E-1,1.36291E-1
0.17829E-1,1.3414E-1
0.20629E-1,1.32942E-1
0.23521E-1,1.31141E-1
0.25985E-1,1.29188E-1
0.27168E-1,1.28356E-1
0.28511E-1,1.29104E-1
0.32272E-1,1.30302E-1
0.37002E-1,1.29798E-1
0.40473E-1,1.28356E-1
0.43121E-1,1.27601E-1
0.46737E-1,1.26449E-1
0.48683E-1,1.25221E-1
5.14526E-2,1.24870E-1
5.37948E-2,1.23992E-1
5.57327E-2,1.24229E-1
5.83267E-2,1.24023E-1
6.15921E-2,1.24420E-1
6.50558E-2,1.23558E-1
6.78253E-2,1.22634E-1
7.00683E-2,1.22024E-1
7.26776E-2,1.22421E-1
7.62176E-2,1.22619E-1
8.06274E-2,1.22032E-1
8.48159E-2,1.21200E-1
8.95996E-2,1.19499E-1
9.41009E-2,1.17561E-1
9.89608E-2,1.14173E-1
1.03904E-1,1.10511E-1
1.07826E-1,1.05079E-1
1.10206E-1,9.95636E-2
1.11381E-1,9.41391E-2
1.12342E-1,9.09042E-2
1.14387E-1,8.78143E-2
1.17279E-1,8.34045E-2
1.18667E-1,7.78656E-2
1.19522E-1,7.29827E-2
1.20575E-1,6.89544E-2
1.22665E-1,6.44226E-2
1.23535E-1,5.79071E-2
1.22131E-1,5.24520E-2
1.20697E-1,4.72564E-2
1.19445E-1,4.35104E-2
1.18141E-1,3.91922E-2
1.16050E-1,3.51715E-2
1.14135E-1,3.07922E-2
1.12251E-1,2.69165E-2
1.08612E-1,2.33993E-2
1.04873E-1,1.96571E-2
1.00074E-1,1.65710E-2
9.47456E-2,1.52473E-2
9.02404E-2,1.48735E-2
8.64715E-2,1.46865E-2
8.26263E-2,1.47209E-2
7.90672E-2,1.46522E-2
7.57141E-2,1.51825E-2
7.22122E-2,1.52130E-2
6.78710E-2,1.58615E-2
6.34536E-2,1.82495E-2
6.09054E-2,2.12631E-2
5.98449E-2,2.42729E-2
5.88264E-2,2.60505E-2
5.73768E-2,2.77481E-2
5.61752E-2,3.10516E-2
5.66711E-2,3.41110E-2
5.76248E-2,3.62281E-2
5.87997E-2,3.83720E-2
6.08787E-2,3.96690E-2
6.21337E-2,4.01306E-2
6.29386E-2,4.10461E-2
6.41479E-2,4.25376E-2
6.60514E-2,4.38003E-2
6.81152E-2,4.46929E-2
7.01293E-2,4.52880E-2
7.26776E-2,4.61654E-2
7.57064E-2,4.63790E-2
7.86132E-2,4.5784E-2
8.12072E-2,4.44259E-2
8.29124E-2,4.32014E-2
8.48541E-2,4.21218E-2
8.69140E-2,4.07028E-2
8.90426E-2,3.87344E-2
9.00802E-2,3.61328E-2
9.10415E-2,3.43170E-2
9.18998E-2,3.28407E-2
9.30481E-2,2.96783E-2
9.45968E-2,2.60582E-2
9.44900E-2,2.30636E-2
9.46731E-2,2.05612E-2
9.58480E-2,1.76925E-2
9.59701E-2,1.39846E-2
9.62829E-2,1.03073E-2
9.62142E-2,0.62866E-2
9.56955E-2,0.16784E-2
9.43222E-2,-2.60162E-3
9.25216E-2,-6.32858E-3
9.09309E-2,-1.05781E-2
8.81080E-2,-1.48849E-2
8.48808E-2,-1.78337E-2
8.23707E-2,-2.05383E-2
8.01849E-2,-2.43110E-2
7.61795E-2,-2.85987E-2
7.04841E-2,-3.18908E-2
6.49681E-2,-3.27377E-2
6.08959E-2,-3.40995E-2
5.53607E-2,-3.62148E-2
4.84275E-2,-3.64017E-2
4.30240E-2,-3.50875E-2
3.81202E-2,-3.42788E-2
3.27606E-2,-3.30066E-2
2.79445E-2,-3.11079E-2
2.40116E-2,-2.92339E-2
1.98030E-2,-2.80866E-2
1.49812E-2,-2.65045E-2
0.97351E-2,-2.42080E-2
0.52919E-2,-2.06069E-2
0.19884E-2,-1.75571E-2
-1.48773E-3,-1.41916E-2
-4.01067E-3,-1.09710E-2
-6.10113E-3,-8.27741E-3
-8.53300E-3,-6.21652E-3
-1.17435E-2,-4.08935E-3
-1.50222E-2,-8.30650E-4
-1.79281E-2,0.26416E-2
-2.09474E-2,0.68721E-2
-2.28042E-2,1.19724E-2
-2.30140E-2,1.67560E-2
-2.28862E-2,2.02598E-2
-2.37293E-2,2.28843E-2
-2.53276E-2,2.62775E-2
-2.72483E-2,3.07102E-2
-2.85034E-2,3.64303E-2
-2.75688E-2,4.20875E-2
-2.65960E-2,4.63829E-2
-2.65274E-2,5.08880E-2
-2.55737E-2,5.59654E-2
-2.39486E-2,6.08902E-2
-2.18963E-2,6.55212E-2
-1.91803E-2,6.99157E-2
-1.57585E-2,7.30896E-2
-1.31301E-2,7.49549E-2
-1.16882E-2,7.70454E-2
-1.04370E-2,7.95593E-2
-9.14001E-3,8.24737E-2
-6.80542E-3,8.58039E-2
-3.54385E-3,8.83216E-2
-4.57763E-4,8.93478E-2
0.11634E-2,9.04083E-2
0.34408E-2,9.23309E-2
0.63171E-2,9.30213E-2
0.83923E-2,9.32960E-2
0.96893E-2,9.43908E-2
1.19781E-2,9.54132E-2
1.42898E-2,9.56268E-2
1.60675E-2,9.57794E-2
1.72119E-2,9.62295E-2
1.83258E-2,9.72824E-2
1.98135E-2,9.78164E-2
2.1698E-2,9.95330E-2
2.34451E-2,1.00601E-1
2.43530E-2,1.01776E-1
2.64434E-2,1.04019E-1
2.93273E-2,1.05835E-1
3.23333E-2,1.06689E-1
3.52935E-2,1.07803E-1
3.79028E-2,1.07437E-1
3.94592E-2,1.07452E-1
4.04968E-2,1.08963E-1
4.34265E-2,1.09405E-1
4.53949E-2,1.09558E-1
4.63562E-2,1.10397E-1
4.83551E-2,1.12632E-1
5.15060E-2,1.13166E-1
5.42755E-2,1.13037E-1
5.61447E-2,1.12426E-1
5.79528E-2,1.12228E-1
5.94940E-2,1.12503E-1
6.14166E-2,1.12869E-1
6.35376E-2,1.12281E-1
6.54068E-2,1.12007E-1
6.70929E-2,1.12121E-1
6.88400E-2,1.11824E-1
7.11669E-2,1.11785E-1
7.41119E-2,1.11312E-1
7.64007E-2,1.10336E-1
7.86895E-2,1.09252E-1
7.95593E-2,1.08169E-1
8.11462E-2,1.07955E-1
8.26492E-2,1.08398E-1
8.49456E-2,1.08787E-1
8.80127E-2,1.09504E-1
9.15527E-2,1.09420E-1
9.49249E-2,1.08154E-1
9.71069E-2,1.07467E-1
1.00700E-1,1.07269E-1
1.03866E-1,1.06460E-1
1.06842E-1,1.05026E-1
1.09893E-1,1.04332E-1
1.13227E-1,1.02806E-1
1.15600E-1,1.00158E-1
1.17965E-1,9.86022E-2
1.20483E-1,9.77630E-2
1.24038E-1,9.56268E-2
1.27395E-1,0.92346E-1
1.30218E-1,0.88638E-1
1.31210E-1,0.84732E-1
1.32637E-1,0.81741E-1
1.34002E-1,0.78582E-1
1.35543E-1,0.74234E-1
1.36459E-1,0.70526E-1
1.37199E-1,0.66238E-1
1.37527E-1,0.62339E-1
1.3797E-1,0.57846E-1
1.37382E-1,0.53215E-1
1.36093E-1,0.48858E-1
1.35009E-1,0.45318E-1
1.33750E-1,0.42175E-1
1.32385E-1,0.37994E-1
1.29913E-1,0.33691E-1
1.26785E-1,0.31478E-1
1.25045E-1,0.29266E-1
1.23519E-1,2.67639E-2
1.21238E-1,2.47650E-2
1.19140E-1,2.29492E-2
1.16699E-1,2.04544E-2
1.13922E-1,1.81121E-2
1.10702E-1,1.66549E-2
1.07318E-1,1.53274E-2
1.04213E-1,1.34048E-2
9.98535E-2,1.20391E-2
9.44175E-2,1.13220E-2
8.94203E-2,1.23329E-2
8.51631E-2,1.41410E-2
8.18710E-2,1.57394E-2
7.81211E-2,1.71661E-2
7.42912E-2,1.91726E-2
7.09075E-2,2.12631E-2
6.72912E-2,2.31323E-2
6.34231E-2,2.50778E-2
5.96389E-2,2.81753E-2
5.58242E-2,3.27835E-2
5.40695E-2,3.72009E-2
5.14984E-2,4.16183E-2
4.99420E-2,4.66537E-2
5.01632E-2,5.19943E-2
5.11932E-2,5.6427E-2
5.22766E-2,5.97000E-2
5.40618E-2,6.25228E-2
5.39741E-2,6.46743E-2
5.41153E-2,6.71196E-2
5.33294E-2,7.07244E-2
5.31768E-2,7.54318E-2
5.56488E-2,8.01467E-2
5.78460E-2,8.41827E-2
6.02951E-2,8.76846E-2
6.26831E-2,9.12170E-2
6.62841E-2,9.42840E-2
6.90155E-2,9.69009E-2
7.19146E-2,9.90905E-2
7.44476E-2,1.01501E-1
7.71179E-2,1.04385E-1
8.03833E-2,1.07147E-1
8.48388E-2,1.10443E-1
8.94012E-2,1.12167E-1
9.42535E-2,1.138E-1
9.93499E-2,1.138E-1
1.03515E-1,1.13037E-1
1.06384E-1,1.12541E-1
1.10534E-1,1.12510E-1
1.14402E-1,1.12091E-1
1.17088E-1,1.11381E-1
1.19949E-1,1.10694E-1
1.23428E-1,1.10015E-1
1.27571E-1,1.09420E-1
1.31675E-1,1.06475E-1
1.34132E-1,1.04278E-1
1.37489E-1,1.01425E-1
1.38107E-1,0.98892E-1
1.39373E-1,0.97045E-1
1.41143E-1,0.94604E-1
1.42067E-1,0.92590E-1
1.42684E-1,0.90560E-1
1.42829E-1,0.88981E-1
1.43257E-1,0.88073E-1
1.44233E-1,0.8741E-1
1.45088E-1,0.86647E-1
1.46247E-1,0.85311E-1
1.46843E-1,0.83755E-1
1.46972E-1,0.82435E-1
1.46835E-1,0.81131E-1
1.46904E-1,0.79879E-1
1.46446E-1,0.79322E-1
1.46163E-1,0.78804E-1
1.44821E-1,0.78979E-1
1.44065E-1,0.79162E-1
1.44363E-1,0.81222E-1
1.45690E-1,0.82099E-1
1.46888E-1,0.82466E-1
1.48239E-1,0.83084E-1
1.49734E-1,0.82832E-1
1.50840E-1,0.82794E-1
1.51420E-1,0.82847E-1
1.52092E-1,0.83282E-1
1.53579E-1,0.84091E-1
1.56219E-1,0.84648E-1
1.58012E-1,0.84426E-1
1.59835E-1,0.84899E-1
1.63101E-1,0.85845E-1
1.66748E-1,0.84747E-1
1.69952E-1,0.83740E-1
1.72317E-1,0.81329E-1
1.74018E-1,0.79834E-1
1.76132E-1,0.79116E-1
1.78070E-1,0.77377E-1
1.80297E-1,0.76232E-1
1.82449E-1,0.75622E-1
1.85287E-1,0.73822E-1
1.87255E-1,0.71945E-1
1.89483E-1,0.70770E-1
1.91833E-1,0.69183E-1
1.93893E-1,0.66436E-1
1.95907E-1,0.64514E-1
1.9841E-1,0.62835E-1
2.01477E-1,0.60638E-1
2.03720E-1,0.57174E-1
2.06039E-1,0.54260E-1
2.08129E-1,0.50170E-1
2.09396E-1,0.46768E-1
2.10937E-1,0.43441E-1
2.12394E-1,0.39329E-1
2.13028E-1,0.35018E-1
2.13325E-1,0.31204E-1
2.13615E-1,0.27053E-1
2.13577E-1,0.23246E-1
2.13546E-1,0.19287E-1
2.13096E-1,0.14991E-1
2.12257E-1,0.11047E-1
2.12081E-1,0.08293E-1
2.11525E-1,0.04165E-1
2.10960E-1,-1.22070E-4
2.09716E-1,-4.28009E-3
2.07412E-1,-8.23211E-3
2.04742E-1,-1.18484E-2
2.01789E-1,-1.41449E-2
1.99760E-1,-1.64489E-2
1.97967E-1,-1.86615E-2
1.96060E-1,-2.13775E-2
1.94709E-1,-2.42538E-2
1.91612E-1,-2.77404E-2
1.87835E-1,-3.06701E-2
1.84265E-1,-3.20587E-2
1.80892E-1,-3.33328E-2
1.77467E-1,-3.46832E-2
1.73675E-1,-3.60794E-2
1.70043E-1,-3.57055E-2
1.66290E-1,-3.54995E-2
1.63925E-1,-3.51409E-2
1.61521E-1,-3.46450E-2
1.59126E-1,-3.42483E-2
1.56898E-1,-3.33786E-2
1.55342E-1,-3.28292E-2
1.52343E-1,-3.30505E-2
1.49887E-1,-3.14788E-2
1.47460E-1,-2.96249E-2
1.45835E-1,-2.80609E-2
1.44920E-1,-2.63061E-2
1.43692E-1,-2.51312E-2
1.42242E-1,-2.36434E-2
1.40945E-1,-2.18353E-2
1.40090E-1,-1.94244E-2
1.3974E-1,-1.72424E-2
1.39404E-1,-1.52282E-2
1.39991E-1,-1.32293E-2
1.40190E-1,-1.17263E-2
1.41387E-1,-9.96398E-3
1.41624E-1,-8.97979E-3
1.43318E-1,-7.93457E-3
1.44035E-1,-7.33947E-3
1.44470E-1,-6.65283E-3
1.44439E-1,-6.72149E-3
1.44638E-1,-6.05011E-3
1.44966E-1,-5.63812E-3
1.44752E-1,-4.17327E-3
1.46011E-1,-2.15148E-3
1.47049E-1,-1.32751E-3
1.48475E-1,-5.18798E-4
1.50238E-1,-1.14440E-4
1.52114E-1,-1.37329E-4
1.53518E-1,-9.15527E-5
1.55380E-1,-1.75476E-4
1.56982E-1,-6.25610E-4
1.58447E-1,-1.73950E-3
1.59263E-1,-2.86102E-3
1.59935E-1,-4.19616E-3
1.60400E-1,-4.47082E-3
1.60064E-1,-3.94439E-3
1.61895E-1,-3.66210E-3
1.63147E-1,-3.84521E-3
1.64093E-1,-4.51660E-3
1.65214E-1,-6.17981E-3
1.65351E-1,-7.56835E-3
1.64604E-1,-8.21685E-3
1.64390E-1,-8.10241E-3
1.64436E-1,-7.91931E-3
1.6539E-1,-7.59887E-3
1.65962E-1,-7.8125E-3
1.66206E-1,-8.27789E-3
1.66549E-1,-8.43811E-3
1.67404E-1,-8.48388E-3
1.68220E-1,-9.66644E-3
1.68098E-1,-1.12381E-2
1.67068E-1,-1.21231E-2
1.66397E-1,-1.14746E-2
1.65657E-1,-1.07421E-2
1.65687E-1,-1.05209E-2
1.65634E-1,-1.05438E-2
1.65779E-1,-1.02310E-2
1.66061E-1,-9.70459E-3
1.66030E-1,-9.17053E-3
1.65435E-1,-8.23974E-3
1.65451E-1,-6.81304E-3
1.66572E-1,-5.39398E-3
1.67335E-1,-4.44793E-3
1.67976E-1,-3.36456E-3
1.68998E-1,-5.79834E-4
1.70631E-1,0.00953E-1
1.74102E-1,0.02662E-1
1.75682E-1,0.03425E-1
1.78405E-1,0.03952E-1
1.80091E-1,0.05615E-1
1.83807E-1,0.05966E-1
1.85974E-1,0.06088E-1
1.88072E-1,0.05874E-1
1.89323E-1,0.07270E-1
1.92306E-1,0.08697E-1
1.95556E-1,0.09590E-1
1.98837E-1,0.09826E-1
2.02339E-1,0.09834E-1
2.06520E-1,0.09758E-1
2.09991E-1,0.08316E-1
2.13996E-1,0.07743E-1
2.17422E-1,0.06210E-1
2.21344E-1,0.04386E-1
2.24800E-1,0.02426E-1
2.27386E-1,0.00282E-1
2.31025E-1,-1.12152E-3
2.34474E-1,-3.97491E-3
2.37991E-1,-6.40869E-3
2.41302E-1,-8.99505E-3
2.45063E-1,-1.20010E-2
2.47734E-1,-1.48696E-2
2.52105E-1,-1.84631E-2
2.55493E-1,-2.22473E-2
2.58712E-1,-2.72827E-2
2.61367E-1,-3.12194E-2
2.64007E-1,-3.66821E-2
2.66174E-1,-4.16412E-2
2.67486E-1,-4.58679E-2
2.69714E-1,-5.1651E-2
2.70584E-1,-5.74798E-2
2.71316E-1,-6.21337E-2
2.71530E-1,-6.70776E-2
2.72827E-1,-7.24945E-2
2.72506E-1,-7.82928E-2
2.71804E-1,-8.39843E-2
2.70538E-1,-8.93859E-2
2.68829E-1,-9.45739E-2
2.67715E-1,-9.84954E-2
2.66418E-1,-1.03149E-1
2.65121E-1,-1.07864E-1
2.63015E-1,-1.13433E-1
2.60192E-1,-1.1763E-1
2.58377E-1,-1.22665E-1
2.55783E-1,-1.27456E-1
2.51647E-1,-1.31057E-1
2.47734E-1,-1.34429E-1
2.44575E-1,-1.38145E-1
2.41447E-1,-1.40152E-1
2.38258E-1,-1.42204E-1
2.36442E-1,-1.45225E-1
2.34527E-1,-1.48246E-1
2.32399E-1,-1.51725E-1
2.29576E-1,-1.54846E-1
2.26593E-1,-1.57974E-1
2.23281E-1,-1.60957E-1
2.19772E-1,-1.63345E-1
2.16903E-1,-1.64573E-1
2.13943E-1,-1.66343E-1
2.11677E-1,-1.67892E-1
2.08946E-1,-1.69784E-1
2.06962E-1,-1.71340E-1
2.03903E-1,-1.74057E-1
2.00988E-1,-1.76155E-1
1.97570E-1,-1.77650E-1
1.93885E-1,-1.79039E-1
1.90429E-1,-1.80465E-1
1.86676E-1,-1.81938E-1
1.82472E-1,-1.81945E-1
1.79031E-1,-1.82518E-1
1.75094E-1,-1.81823E-1
1.72584E-1,-1.80786E-1
1.70311E-1,-1.81549E-1
1.68441E-1,-1.82457E-1
1.65435E-1,-1.83433E-1
1.62216E-1,-1.84013E-1
1.59263E-1,-1.84196E-1
1.56608E-1,-1.85081E-1
1.53595E-1,-1.85691E-1
1.49810E-1,-1.85905E-1
1.46095E-1,-1.86126E-1
1.43318E-1,-1.85829E-1
1.39701E-1,-1.85005E-1
1.37168E-1,-1.84738E-1
1.34239E-1,-1.83708E-1
1.33010E-1,-1.83555E-1
1.30424E-1,-1.83029E-1
1.27578E-1,-1.82121E-1
1.26007E-1,-1.81213E-1
1.24572E-1,-1.80252E-1
1.22573E-1,-1.79595E-1
1.21185E-1,-1.79214E-1
1.19094E-1,-1.78306E-1
1.17393E-1,-1.7733E-1
1.15943E-1,-1.76384E-1
1.14486E-1,-1.76002E-1
1.12312E-1,-1.75323E-1
1.10084E-1,-1.74072E-1
1.08039E-1,-1.73034E-1
1.05888E-1,-1.71157E-1
1.04385E-1,-1.69479E-1
1.03263E-1,-1.67633E-1
1.02661E-1,-1.65573E-1
1.01898E-1,-1.65306E-1
0.99952E-1,-1.64878E-1
0.97991E-1,-1.63093E-1
0.96870E-1,-1.61361E-1
0.94932E-1,-1.59881E-1
0.92880E-1,-1.58454E-1
0.91743E-1,-1.55189E-1
0.90881E-1,-1.53175E-1
0.90621E-1,-1.50589E-1
0.90988E-1,-1.48422E-1
0.9095E-1,-1.46743E-1
0.90721E-1,-1.45134E-1
0.91651E-1,-1.43379E-1
0.92201E-1,-1.42120E-1
0.92315E-1,-1.41052E-1
0.92071E-1,-1.39671E-1
0.92361E-1,-1.38053E-1
0.92544E-1,-1.36055E-1
0.93147E-1,-1.33865E-1
0.94535E-1,-1.31324E-1
0.97076E-1,-1.2854E-1
0.99479E-1,-1.27731E-1
1.01509E-1,-1.26136E-1
1.04263E-1,-1.25289E-1
1.06449E-1,-1.24240E-1
1.09172E-1,-1.24080E-1
1.11633E-1,-1.24374E-1
1.13628E-1,-1.24187E-1
1.15711E-1,-1.24046E-1
1.17832E-1,-1.24126E-1
1.20178E-1,-1.24038E-1
1.22364E-1,-1.24500E-1
1.25083E-1,-1.25160E-1
1.26815E-1,-1.25839E-1
1.29524E-1,-1.26586E-1
1.31424E-1,-1.28143E-1
1.33392E-1,-1.30416E-1
1.34666E-1,-1.32576E-1
1.35246E-1,-1.34574E-1
1.36405E-1,-1.36070E-1
1.37062E-1,-1.37863E-1
1.38244E-1,-1.39480E-1
1.39617E-1,-1.41532E-1
1.40197E-1,-1.43325E-1
1.41563E-1,-1.44546E-1
1.43005E-1,-1.47064E-1
1.42013E-1,-1.50299E-1
1.43180E-1,-1.52900E-1
1.44210E-1,-1.56768E-1
1.45416E-1,-1.59736E-1
1.45805E-1,-1.64108E-1
1.46118E-1,-1.67251E-1
1.46415E-1,-1.70204E-1
1.46247E-1,-1.75285E-1
1.45965E-1,-1.79756E-1
1.45599E-1,-1.84028E-1
1.43364E-1,-1.88301E-1
1.41593E-1,-1.91978E-1
1.40144E-1,-1.95571E-1
1.38481E-1,-1.98745E-1
1.36619E-1,-2.02217E-1
1.34498E-1,-2.05490E-1
1.31965E-1,-2.09037E-1
1.30363E-1,-2.11814E-1
1.27777E-1,-2.15995E-1
1.25442E-1,-2.19642E-1
1.21269E-1,-2.23434E-1
1.16821E-1,-2.26272E-1
1.12083E-1,-2.27401E-1
1.08360E-1,-2.29270E-1
1.04377E-1,-2.30186E-1
1.01196E-1,-2.31369E-1
0.97816E-1,-2.32650E-1
0.94268E-1,-2.34672E-1
