CITIFILE A.01.00
#NA VERSION HP8720D.06.14
NAME DATA
VAR FREQ MAG 1601
DATA S[1,1] RI

SEG_LIST_BEGIN
SEG 1000000000 8000000000 1601
SEG_LIST_END
BEGIN
3.18313E-1,-3.62396E-1
3.04595E-1,-3.70147E-1
2.90756E-1,-3.80294E-1
2.76840E-1,-3.86673E-1
2.67028E-1,-3.95752E-1
2.55493E-1,-4.08569E-1
2.3703E-1,-4.20318E-1
2.18414E-1,-4.29992E-1
1.98837E-1,-4.36630E-1
1.81015E-1,-4.40353E-1
1.63024E-1,-4.44549E-1
1.46545E-1,-4.47616E-1
1.29776E-1,-4.51309E-1
1.14730E-1,-4.54467E-1
0.95291E-1,-4.60037E-1
0.74249E-1,-4.60937E-1
0.57312E-1,-4.58725E-1
0.40695E-1,-4.56863E-1
0.24642E-1,-4.55337E-1
0.09460E-1,-4.54147E-1
-6.10351E-3,-4.52011E-1
-2.04925E-2,-4.52972E-1
-3.91845E-2,-4.54589E-1
-6.20117E-2,-4.50134E-1
-7.85217E-2,-4.41406E-1
-9.24987E-2,-4.36798E-1
-1.08917E-1,-4.33593E-1
-1.27594E-1,-4.28924E-1
-1.46545E-1,-4.24072E-1
-1.66229E-1,-4.14794E-1
-1.85211E-1,-4.02954E-1
-2.01080E-1,-3.88824E-1
-2.14874E-1,-3.77502E-1
-2.29431E-1,-3.63739E-1
-2.41363E-1,-3.49334E-1
-2.52349E-1,-3.36212E-1
-2.63031E-1,-3.22784E-1
-2.73803E-1,-3.07556E-1
-2.82592E-1,-2.90588E-1
-2.86224E-1,-2.69317E-1
-2.87109E-1,-2.58789E-1
-2.90924E-1,-2.51129E-1
-2.97393E-1,-2.40936E-1
-3.02490E-1,-2.31750E-1
-3.09204E-1,-2.23236E-1
-3.18481E-1,-2.12066E-1
-3.25134E-1,-1.98181E-1
-3.28308E-1,-1.83868E-1
-3.30413E-1,-1.73034E-1
-3.33526E-1,-1.63848E-1
-3.38867E-1,-1.53228E-1
-3.44451E-1,-1.41906E-1
-3.49029E-1,-1.28936E-1
-3.51226E-1,-1.16470E-1
-3.54293E-1,-1.05011E-1
-3.56643E-1,-9.52758E-2
-3.61740E-1,-8.49304E-2
-3.68011E-1,-7.25860E-2
-3.72985E-1,-5.90515E-2
-3.76998E-1,-4.34570E-2
-3.78601E-1,-2.80609E-2
-3.80416E-1,-1.29241E-2
-3.80584E-1,0.02075E-1
-3.81118E-1,0.17776E-1
-3.79455E-1,0.34088E-1
-3.76159E-1,0.48339E-1
-3.74130E-1,0.62240E-1
-3.71048E-1,0.77270E-1
-3.66134E-1,0.93109E-1
-3.58444E-1,1.07620E-1
-3.48754E-1,1.17965E-1
-3.42056E-1,1.24816E-1
-3.39279E-1,1.32156E-1
-3.36746E-1,1.42364E-1
-3.32611E-1,1.53045E-1
-3.28476E-1,1.64093E-1
-3.24768E-1,1.74438E-1
-3.21380E-1,1.87301E-1
-3.14926E-1,2.01171E-1
-3.07113E-1,2.14538E-1
-2.97103E-1,2.26089E-1
-2.85385E-1,2.35229E-1
-2.75207E-1,2.42828E-1
-2.67532E-1,2.49237E-1
-2.60131E-1,2.55767E-1
-2.54409E-1,2.64205E-1
-2.48336E-1,2.72628E-1
-2.40234E-1,2.83554E-1
-2.30377E-1,2.94677E-1
-2.18490E-1,3.03192E-1
-2.07794E-1,3.10180E-1
-1.96136E-1,3.18008E-1
-1.83563E-1,3.24798E-1
-1.70852E-1,3.29422E-1
-1.57974E-1,3.33190E-1
-1.46392E-1,3.35189E-1
-1.36291E-1,3.38012E-1
-1.25E-1,3.40225E-1
-1.14227E-1,3.41491E-1
-1.05163E-1,3.43215E-1
-9.61303E-2,3.45321E-1
-8.69751E-2,3.48480E-1
-7.62481E-2,3.51455E-1
-6.52465E-2,3.53439E-1
-5.48553E-2,3.54690E-1
-4.53949E-2,3.55102E-1
-3.53546E-2,3.56781E-1
-2.44903E-2,3.58566E-1
-1.31073E-2,3.60244E-1
-1.05285E-3,3.58688E-1
0.10314E-1,3.59649E-1
0.21896E-1,3.59344E-1
0.33554E-1,3.57147E-1
0.43869E-1,3.54675E-1
0.54809E-1,3.52188E-1
0.64056E-1,3.49121E-1
0.73989E-1,3.47106E-1
0.85205E-1,3.44696E-1
0.95306E-1,3.41735E-1
1.05865E-1,3.38028E-1
1.15707E-1,3.35113E-1
1.26937E-1,3.31604E-1
1.39221E-1,3.25531E-1
1.50161E-1,3.19183E-1
1.5979E-1,3.10958E-1
1.67968E-1,3.04382E-1
1.76361E-1,2.96997E-1
1.84799E-1,2.88925E-1
1.91528E-1,2.79983E-1
1.96792E-1,2.71881E-1
2.01950E-1,2.6474E-1
2.08190E-1,2.59277E-1
2.15850E-1,2.54745E-1
2.23663E-1,2.47024E-1
2.32284E-1,2.39837E-1
2.39578E-1,2.30941E-1
2.48184E-1,2.19848E-1
2.53860E-1,2.07931E-1
2.58544E-1,1.95098E-1
2.61474E-1,1.82952E-1
2.62939E-1,1.72149E-1
2.62817E-1,1.62231E-1
2.63977E-1,1.54266E-1
2.66082E-1,1.46575E-1
2.69165E-1,1.37908E-1
2.72064E-1,1.27990E-1
2.74810E-1,1.16027E-1
2.74139E-1,1.03729E-1
2.71637E-1,0.93566E-1
2.69287E-1,0.85968E-1
2.68493E-1,0.78521E-1
2.67059E-1,0.70892E-1
2.66052E-1,0.64514E-1
2.67547E-1,0.58319E-1
2.69165E-1,0.49011E-1
2.68585E-1,0.38314E-1
2.67227E-1,0.29327E-1
2.65655E-1,0.20172E-1
2.63885E-1,0.10467E-1
2.61795E-1,0.00106E-1
2.57492E-1,-9.87243E-3
2.52792E-1,-1.93634E-2
2.46261E-1,-2.90069E-2
2.38922E-1,-3.61328E-2
2.32063E-1,-4.15649E-2
2.26562E-1,-4.70809E-2
2.21366E-1,-5.24444E-2
2.16247E-1,-5.76477E-2
2.1138E-1,-6.29577E-2
2.05398E-1,-6.97937E-2
1.97082E-1,-7.56378E-2
1.89643E-1,-7.80410E-2
1.83830E-1,-8.02612E-2
1.80114E-1,-8.34732E-2
1.75384E-1,-8.87832E-2
1.68357E-1,-9.54818E-2
1.58424E-1,-9.95101E-2
1.49932E-1,-1.00647E-1
1.42761E-1,-1.01944E-1
1.34880E-1,-1.02371E-1
1.28593E-1,-1.01814E-1
1.22909E-1,-1.0186E-1
1.17340E-1,-1.01791E-1
1.10897E-1,-1.01276E-1
1.06052E-1,-9.93690E-2
1.02268E-1,-9.74731E-2
9.95788E-2,-9.69886E-2
9.61647E-2,-9.70420E-2
9.24606E-2,-9.60159E-2
9.14459E-2,-9.48791E-2
9.08699E-2,-9.64698E-2
8.81271E-2,-9.94911E-2
8.40759E-2,-1.03099E-1
7.78312E-2,-1.05106E-1
7.22541E-2,-1.04713E-1
6.77795E-2,-1.04656E-1
6.39801E-2,-1.05411E-1
5.88722E-2,-1.06700E-1
5.31082E-2,-1.06517E-1
4.75235E-2,-1.06205E-1
4.24652E-2,-1.05732E-1
3.61518E-2,-1.04427E-1
3.02810E-2,-1.03580E-1
2.47612E-2,-1.02893E-1
1.90200E-2,-1.01390E-1
1.29318E-2,-9.87129E-2
0.76446E-2,-9.51042E-2
0.34103E-2,-9.11445E-2
0.04463E-2,-8.76922E-2
-1.92260E-3,-8.42132E-2
-3.73077E-3,-8.18061E-2
-6.59179E-3,-7.96814E-2
-9.48333E-3,-7.74917E-2
-1.18713E-2,-7.49282E-2
-1.36222E-2,-7.24601E-2
-1.51138E-2,-7.07893E-2
-1.73187E-2,-6.93817E-2
-1.91993E-2,-6.73599E-2
-2.10800E-2,-6.60667E-2
-2.29415E-2,-6.52313E-2
-2.59285E-2,-6.48231E-2
-3.01513E-2,-6.35757E-2
-3.43246E-2,-6.07605E-2
-3.71894E-2,-5.71899E-2
-3.92608E-2,-5.42526E-2
-4.14886E-2,-5.22918E-2
-4.43534E-2,-5.05676E-2
-4.75997E-2,-4.84314E-2
-5.15098E-2,-4.62989E-2
-5.57327E-2,-4.36286E-2
-6.01158E-2,-4.02107E-2
-6.47697E-2,-3.64723E-2
-6.96334E-2,-3.06854E-2
-7.2052E-2,-2.37960E-2
-7.29866E-2,-1.80053E-2
-7.37457E-2,-1.32560E-2
-7.43293E-2,-9.20486E-3
-7.57789E-2,-5.47790E-3
-7.72514E-2,-1.36566E-3
-7.88383E-2,0.27580E-2
-8.06694E-2,0.78277E-2
-8.07457E-2,1.34315E-2
-8.02230E-2,1.76925E-2
-8.02002E-2,2.15301E-2
-8.08792E-2,2.53105E-2
-8.17832E-2,2.98996E-2
-8.18786E-2,3.52249E-2
-8.12835E-2,4.02374E-2
-8.03222E-2,4.51812E-2
-7.94830E-2,5.02624E-2
-7.78808E-2,5.53436E-2
-7.59162E-2,5.98106E-2
-7.41882E-2,6.33812E-2
-7.34863E-2,6.75659E-2
-7.17582E-2,7.27767E-2
-6.94847E-2,7.71026E-2
-6.78138E-2,8.22296E-2
-6.45675E-2,8.72039E-2
-6.02989E-2,9.09233E-2
-5.64003E-2,9.33799E-2
-5.38215E-2,9.46960E-2
-5.19981E-2,9.73854E-2
-4.90570E-2,1.00246E-1
-4.64401E-2,1.01486E-1
-4.47082E-2,1.02741E-1
-4.32243E-2,1.04324E-1
-4.27627E-2,1.06349E-1
-4.16450E-2,1.09436E-1
-3.96499E-2,1.12644E-1
-3.68957E-2,1.15570E-1
-3.35922E-2,1.17050E-1
-3.22189E-2,1.17843E-1
-3.10516E-2,1.20677E-1
-2.88238E-2,1.23306E-1
-2.65274E-2,1.25091E-1
-2.50701E-2,1.27967E-1
-2.33993E-2,1.31996E-1
-1.91803E-2,1.36192E-1
-1.50909E-2,1.38809E-1
-1.11084E-2,1.41456E-1
-6.91986E-3,1.43119E-1
-3.04412E-3,1.44798E-1
-7.62939E-4,1.46286E-1
0.01213E-1,1.49429E-1
0.03952E-1,1.53816E-1
0.07934E-1,1.58752E-1
0.13496E-1,1.63177E-1
0.20263E-1,1.66748E-1
0.26886E-1,1.69342E-1
0.33309E-1,1.71112E-1
0.39154E-1,1.73751E-1
0.46218E-1,1.76330E-1
0.54245E-1,1.77276E-1
0.61294E-1,1.77902E-1
0.69030E-1,1.78482E-1
0.78384E-1,1.79336E-1
0.88180E-1,1.77764E-1
0.97595E-1,1.74072E-1
1.06475E-1,1.70318E-1
1.15066E-1,1.64825E-1
1.22543E-1,1.58706E-1
1.28341E-1,1.51794E-1
1.32965E-1,1.46255E-1
1.38259E-1,1.40380E-1
1.43249E-1,1.34841E-1
1.48345E-1,1.27197E-1
1.52618E-1,1.20300E-1
1.57135E-1,1.12945E-1
1.61377E-1,1.05041E-1
1.64154E-1,0.96542E-1
1.66206E-1,0.87532E-1
1.66893E-1,0.79139E-1
1.66526E-1,0.71250E-1
1.66381E-1,0.64201E-1
1.65329E-1,0.57037E-1
1.63955E-1,0.50102E-1
1.62513E-1,0.4319E-1
1.60369E-1,0.36453E-1
1.56440E-1,0.30403E-1
1.52603E-1,0.24581E-1
1.48376E-1,0.20156E-1
1.44203E-1,0.16464E-1
1.40907E-1,0.12542E-1
1.37229E-1,0.08606E-1
1.33155E-1,0.04913E-1
1.28807E-1,0.02098E-1
1.24633E-1,-1.48773E-3
1.19499E-1,-4.50897E-3
1.13731E-1,-6.01959E-3
1.09329E-1,-6.50787E-3
1.05995E-1,-6.68335E-3
1.02478E-1,-8.36181E-3
9.75799E-2,-9.17053E-3
9.42153E-2,-7.88116E-3
9.28726E-2,-7.62176E-3
9.06906E-2,-8.72039E-3
8.82988E-2,-8.13293E-3
8.68415E-2,-8.73565E-3
8.46748E-2,-9.64736E-3
8.22410E-2,-1.03836E-2
7.90596E-2,-9.98687E-3
7.73468E-2,-9.48333E-3
7.54547E-2,-9.29641E-3
7.32231E-2,-8.46481E-3
7.19070E-2,-7.03811E-3
7.09800E-2,-6.08444E-3
7.08541E-2,-5.14221E-3
7.09075E-2,-5.55419E-3
6.95953E-2,-6.34765E-3
6.78176E-2,-6.57653E-3
6.67495E-2,-5.99670E-3
6.61087E-2,-6.24084E-3
6.45217E-2,-7.14492E-3
6.23741E-2,-7.26318E-3
6.03122E-2,-6.44683E-3
5.88989E-2,-6.05583E-3
5.85460E-2,-6.51741E-3
5.74379E-2,-7.69805E-3
5.54924E-2,-8.33892E-3
5.43289E-2,-8.36372E-3
5.31978E-2,-9.40895E-3
5.15556E-2,-1.05094E-2
4.96330E-2,-1.16329E-2
4.72335E-2,-1.17378E-2
4.50916E-2,-1.20868E-2
4.31461E-2,-1.15757E-2
4.19139E-2,-1.17912E-2
3.96823E-2,-1.25465E-2
3.67889E-2,-1.19457E-2
3.52230E-2,-1.07917E-2
3.44047E-2,-1.09939E-2
3.24802E-2,-1.22966E-2
2.82030E-2,-1.28135E-2
2.41460E-2,-1.07803E-2
2.20251E-2,-8.91304E-3
1.91116E-2,-8.02230E-3
1.53436E-2,-5.62143E-3
1.30691E-2,-2.45475E-3
1.11532E-2,-1.23024E-4
8.69321E-3,2.55298E-3
7.03096E-3,5.88989E-3
6.46352E-3,8.58783E-3
5.63526E-3,1.01223E-2
3.67689E-3,1.12729E-2
0.78630E-3,1.35426E-2
-1.42955E-3,1.71127E-2
-2.30312E-3,2.08673E-2
-2.89344E-3,2.44541E-2
-2.49195E-3,2.79579E-2
-8.62121E-4,3.05423E-2
0.06561E-2,3.12919E-2
0.04501E-2,3.12309E-2
-3.92913E-4,3.22608E-2
-1.48201E-3,3.36074E-2
-2.76947E-3,3.56159E-2
-3.49044E-3,3.85284E-2
-2.78282E-3,4.16755E-2
-1.12152E-3,4.39605E-2
0.00534E-2,4.45518E-2
-2.70843E-4,4.52899E-2
-1.25885E-3,4.71649E-2
-2.01797E-3,4.98428E-2
-1.57737E-3,5.29785E-2
-1.08146E-3,5.56125E-2
-1.03569E-3,5.83629E-2
-4.59671E-4,6.16550E-2
0.04997E-2,6.47544E-2
0.17738E-2,6.82067E-2
0.40512E-2,7.15866E-2
0.70228E-2,7.39593E-2
0.9552E-2,7.48062E-2
1.08947E-2,7.60231E-2
1.23100E-2,7.74040E-2
1.37634E-2,7.87391E-2
1.54457E-2,8.01200E-2
1.75094E-2,8.13942E-2
1.97105E-2,8.15734E-2
2.08396E-2,8.16764E-2
2.21519E-2,8.27102E-2
2.42919E-2,8.31069E-2
2.61535E-2,8.27636E-2
2.72216E-2,8.25233E-2
2.86941E-2,8.25386E-2
3.03268E-2,8.21266E-2
3.12576E-2,8.16535E-2
3.21579E-2,8.16192E-2
3.36227E-2,8.13751E-2
3.39431E-2,8.05740E-2
3.50799E-2,8.11691E-2
3.55987E-2,8.03451E-2
3.55300E-2,8.09936E-2
3.67050E-2,8.20159E-2
3.84826E-2,8.23211E-2
3.92608E-2,8.19015E-2
3.93829E-2,8.20694E-2
4.07333E-2,8.25958E-2
4.0802E-2,8.23745E-2
4.02679E-2,8.29162E-2
4.07028E-2,8.40301E-2
4.07714E-2,8.41827E-2
4.01916E-2,8.50372E-2
4.00390E-2,8.70819E-2
4.13665E-2,8.87451E-2
4.25567E-2,8.91571E-2
4.29840E-2,8.92334E-2
4.25338E-2,8.95004E-2
4.21218E-2,9.06295E-2
4.21447E-2,9.24224E-2
4.24804E-2,9.40704E-2
4.33654E-2,9.58862E-2
4.48303E-2,9.73053E-2
4.61425E-2,9.79156E-2
4.69512E-2,9.91363E-2
4.84314E-2,1.00174E-1
4.99877E-2,1.01135E-1
5.14373E-2,1.01532E-1
5.16815E-2,1.02218E-1
5.18951E-2,1.04553E-1
5.33752E-2,1.07757E-1
5.68161E-2,1.11106E-1
5.99365E-2,1.12876E-1
6.43158E-2,1.14173E-1
6.81381E-2,1.14662E-1
7.08160E-2,1.15211E-1
7.43560E-2,1.16607E-1
7.73010E-2,1.17744E-1
8.10852E-2,1.18530E-1
8.48999E-2,1.19583E-1
8.97369E-2,1.20697E-1
9.45129E-2,1.19796E-1
9.83276E-2,1.18576E-1
1.02340E-1,1.17828E-1
1.07070E-1,1.17080E-1
1.12243E-1,1.15203E-1
1.16394E-1,1.11160E-1
1.18301E-1,1.07803E-1
1.20246E-1,1.05575E-1
1.22963E-1,1.03515E-1
1.26236E-1,1.00112E-1
1.28921E-1,0.96511E-1
1.30760E-1,0.92277E-1
1.32034E-1,0.88432E-1
1.33544E-1,0.84373E-1
1.34216E-1,0.79994E-1
1.34124E-1,0.76149E-1
1.33590E-1,0.72944E-1
1.33369E-1,0.70426E-1
1.33628E-1,0.66535E-1
1.33018E-1,0.63018E-1
1.31515E-1,0.60867E-1
1.31172E-1,0.59890E-1
1.32385E-1,0.57479E-1
1.32339E-1,0.54573E-1
1.31179E-1,0.51422E-1
1.29791E-1,0.49339E-1
1.29035E-1,0.48217E-1
1.29005E-1,0.45913E-1
1.27357E-1,0.43746E-1
1.25709E-1,0.41786E-1
1.24664E-1,3.96118E-2
1.22665E-1,3.76281E-2
1.19644E-1,3.63693E-2
1.16775E-1,3.53012E-2
1.14288E-1,3.47137E-2
1.11404E-1,3.41110E-2
1.07986E-1,3.48053E-2
1.06155E-1,3.63006E-2
1.04675E-1,3.66668E-2
1.02340E-1,3.67889E-2
9.99908E-2,3.77655E-2
9.85107E-2,3.93524E-2
9.74273E-2,3.97796E-2
9.55200E-2,4.06951E-2
9.39483E-2,4.23431E-2
9.34295E-2,4.52575E-2
9.38262E-2,4.6875E-2
9.43603E-2,4.80804E-2
9.59014E-2,4.89959E-2
9.60311E-2,4.87442E-2
9.57031E-2,4.77371E-2
9.44747E-2,4.78210E-2
9.28421E-2,5.01861E-2
9.37728E-2,5.21011E-2
9.45358E-2,5.33294E-2
9.48257E-2,5.43746E-2
9.55276E-2,5.61676E-2
9.77249E-2,5.71823E-2
9.97314E-2,5.66177E-2
1.00265E-1,5.50613E-2
9.93042E-2,5.46875E-2
9.85488E-2,5.56716E-2
9.87167E-2,5.64956E-2
9.97009E-2,5.78002E-2
9.97467E-2,5.83038E-2
1.00418E-1,5.88836E-2
1.01150E-1,5.88989E-2
1.02035E-1,5.84716E-2
1.01959E-1,5.75408E-2
1.01196E-1,5.75637E-2
1.00807E-1,5.78384E-2
1.00463E-1,5.79528E-2
9.85870E-2,5.90438E-2
9.90219E-2,6.04858E-2
1.00387E-1,6.15615E-2
1.01326E-1,6.09893E-2
1.01104E-1,6.03485E-2
1.00517E-1,6.00280E-2
9.97467E-2,6.06460E-2
9.93194E-2,6.15692E-2
9.89151E-2,6.20575E-2
9.81826E-2,6.26220E-2
9.71145E-2,6.30569E-2
9.56726E-2,6.44912E-2
9.52529E-2,6.64825E-2
9.46273E-2,6.84204E-2
9.45053E-2,7.02667E-2
9.37728E-2,7.23495E-2
9.33914E-2,7.49740E-2
9.42535E-2,7.75375E-2
9.45282E-2,7.95974E-2
9.49478E-2,8.15658E-2
9.42840E-2,8.36410E-2
9.43756E-2,8.67538E-2
9.45816E-2,8.98895E-2
9.49173E-2,9.28268E-2
9.56802E-2,9.71603E-2
9.80072E-2,1.01165E-1
1.00471E-1,1.03744E-1
1.02249E-1,1.07048E-1
1.05201E-1,1.10557E-1
1.08680E-1,1.13250E-1
1.12136E-1,1.15455E-1
1.15486E-1,1.17431E-1
1.18698E-1,1.20353E-1
1.23031E-1,1.23451E-1
1.27258E-1,1.24786E-1
1.31591E-1,1.27319E-1
1.37176E-1,1.29516E-1
1.43310E-1,1.30706E-1
1.49841E-1,1.30401E-1
1.54388E-1,1.29379E-1
1.59317E-1,1.29531E-1
1.65084E-1,1.29547E-1
1.70410E-1,1.28402E-1
1.75567E-1,1.27258E-1
1.81045E-1,1.27334E-1
1.86904E-1,1.25381E-1
1.931E-1,1.23489E-1
1.98471E-1,1.21292E-1
2.04315E-1,1.19064E-1
2.10205E-1,1.15539E-1
2.14752E-1,1.10885E-1
2.19909E-1,1.07971E-1
2.24731E-1,1.03942E-1
2.29309E-1,0.99517E-1
2.34741E-1,0.95001E-1
2.39059E-1,0.88943E-1
2.42660E-1,0.83129E-1
2.46322E-1,0.77789E-1
2.49420E-1,0.70983E-1
2.5177E-1,0.64987E-1
2.54592E-1,0.59188E-1
2.57782E-1,0.51361E-1
2.59017E-1,0.43716E-1
2.59353E-1,0.36514E-1
2.59292E-1,0.29327E-1
2.59002E-1,0.22415E-1
2.58590E-1,0.16967E-1
2.59460E-1,0.10253E-1
2.59368E-1,0.03646E-1
2.58758E-1,-4.31823E-3
2.57263E-1,-1.26342E-2
2.53646E-1,-1.99432E-2
2.49115E-1,-2.67105E-2
2.45201E-1,-3.14483E-2
2.42309E-1,-3.65982E-2
2.39234E-1,-4.19616E-2
2.35702E-1,-4.74853E-2
2.30491E-1,-5.40924E-2
2.24670E-1,-5.92117E-2
2.18246E-1,-6.32019E-2
2.12898E-1,-6.64596E-2
2.06977E-1,-6.96258E-2
2.01110E-1,-7.20977E-2
1.94381E-1,-7.40509E-2
1.87782E-1,-7.53402E-2
1.81602E-1,-7.54013E-2
1.76185E-1,-7.58209E-2
1.69677E-1,-7.61489E-2
1.64733E-1,-7.48443E-2
1.59706E-1,-7.36236E-2
1.54808E-1,-7.24792E-2
1.50245E-1,-7.16095E-2
1.45111E-1,-6.89697E-2
1.40953E-1,-6.72302E-2
1.36978E-1,-6.49414E-2
1.33148E-1,-6.21948E-2
1.29669E-1,-5.90744E-2
1.27059E-1,-5.59768E-2
1.24263E-1,-5.31883E-2
1.21452E-1,-5.03501E-2
1.18625E-1,-4.68215E-2
1.16828E-1,-4.20684E-2
1.15886E-1,-3.78608E-2
1.15421E-1,-3.46260E-2
1.14933E-1,-3.14636E-2
1.14852E-1,-2.89459E-2
1.14368E-1,-2.57225E-2
1.13964E-1,-2.29148E-2
1.13895E-1,-1.94397E-2
1.14250E-1,-1.65672E-2
1.14379E-1,-1.43775E-2
1.14025E-1,-1.11923E-2
1.15112E-1,-7.46154E-3
1.17050E-1,-4.45175E-3
1.18846E-1,-1.70517E-3
1.20651E-1,0.01754E-2
1.22512E-1,0.21095E-2
1.24290E-1,0.40817E-2
1.26762E-1,0.05683E-1
1.29676E-1,0.07286E-1
1.32682E-1,0.07293E-1
1.34445E-1,0.06385E-1
1.35314E-1,0.06164E-1
1.34811E-1,0.06980E-1
1.35612E-1,0.09010E-1
1.37397E-1,0.11230E-1
1.40457E-1,0.12367E-1
1.42837E-1,0.13198E-1
1.44691E-1,0.13275E-1
1.45919E-1,0.13084E-1
1.47071E-1,0.14183E-1
1.48468E-1,0.14335E-1
1.49612E-1,0.15632E-1
1.52359E-1,0.16204E-1
1.53602E-1,0.16471E-1
1.55021E-1,0.17356E-1
1.56646E-1,0.17822E-1
1.58439E-1,0.19073E-1
1.61354E-1,0.19638E-1
1.63642E-1,0.19187E-1
1.65062E-1,0.18234E-1
1.66145E-1,0.19455E-1
1.67846E-1,0.20271E-1
1.69731E-1,0.20462E-1
1.72218E-1,0.20744E-1
1.74179E-1,0.20660E-1
1.77398E-1,0.20614E-1
1.80320E-1,0.21148E-1
1.82441E-1,0.20591E-1
1.84913E-1,0.21141E-1
1.88583E-1,0.20668E-1
1.91291E-1,0.19798E-1
1.93702E-1,0.18455E-1
1.96411E-1,0.18310E-1
1.98371E-1,0.18562E-1
2.02552E-1,0.17952E-1
2.05673E-1,0.15777E-1
2.08129E-1,0.14862E-1
2.10891E-1,0.14320E-1
2.14256E-1,0.13443E-1
2.1772E-1,0.11299E-1
2.20565E-1,0.09719E-1
2.22801E-1,0.08689E-1
2.25563E-1,0.07408E-1
2.27943E-1,0.05500E-1
2.31674E-1,0.03967E-1
2.35214E-1,0.01976E-1
2.37991E-1,-3.05175E-4
2.40997E-1,-3.07464E-3
2.44461E-1,-5.66864E-3
2.48092E-1,-9.16290E-3
2.51113E-1,-1.30767E-2
2.53570E-1,-1.74102E-2
2.55661E-1,-2.20336E-2
2.57644E-1,-2.63061E-2
2.59628E-1,-3.09906E-2
2.60147E-1,-3.59039E-2
2.61245E-1,-3.99322E-2
2.62451E-1,-4.37927E-2
2.63412E-1,-4.83398E-2
2.64877E-1,-5.2948E-2
2.66647E-1,-5.68695E-2
2.6828E-1,-6.26983E-2
2.68325E-1,-6.81610E-2
2.68432E-1,-7.43103E-2
2.67868E-1,-7.98339E-2
2.67135E-1,-8.47930E-2
2.65701E-1,-8.91418E-2
2.64724E-1,-9.45282E-2
2.63229E-1,-9.90600E-2
2.61505E-1,-1.03942E-1
2.59384E-1,-1.08520E-1
2.57217E-1,-1.13906E-1
2.54043E-1,-1.17645E-1
2.50289E-1,-1.21673E-1
2.46330E-1,-1.24969E-1
2.43820E-1,-1.27891E-1
2.40974E-1,-1.31668E-1
2.37075E-1,-1.35314E-1
2.32994E-1,-1.38565E-1
2.29095E-1,-1.40747E-1
2.25563E-1,-1.42822E-1
2.21481E-1,-1.45690E-1
2.17598E-1,-1.48033E-1
2.12707E-1,-1.48979E-1
2.08252E-1,-1.50688E-1
2.04635E-1,-1.50955E-1
2.01286E-1,-1.51527E-1
1.97723E-1,-1.51763E-1
1.95381E-1,-1.52107E-1
1.93420E-1,-1.52748E-1
1.91085E-1,-1.54228E-1
1.88110E-1,-1.55311E-1
1.84577E-1,-1.56051E-1
1.81114E-1,-1.55799E-1
1.78672E-1,-1.54808E-1
1.76132E-1,-1.53961E-1
1.74751E-1,-1.53923E-1
1.72828E-1,-1.53038E-1
1.71585E-1,-1.52984E-1
1.69914E-1,-1.52771E-1
1.68426E-1,-1.52862E-1
1.66664E-1,-1.52458E-1
1.65336E-1,-1.52565E-1
1.62948E-1,-1.52671E-1
1.60636E-1,-1.52732E-1
1.58088E-1,-1.52244E-1
1.55235E-1,-1.51145E-1
1.52885E-1,-1.49406E-1
1.51664E-1,-1.47209E-1
1.51344E-1,-1.45515E-1
1.51222E-1,-1.44958E-1
1.51237E-1,-1.44363E-1
1.50352E-1,-1.43806E-1
1.50131E-1,-1.43730E-1
1.49787E-1,-1.44554E-1
1.48757E-1,-1.45568E-1
1.46896E-1,-1.45286E-1
1.45225E-1,-1.44928E-1
1.44317E-1,-1.44172E-1
1.43928E-1,-1.43516E-1
1.43562E-1,-1.43028E-1
1.44226E-1,-1.42219E-1
1.44477E-1,-1.42669E-1
1.44592E-1,-1.42913E-1
1.44241E-1,-1.43310E-1
1.44699E-1,-1.43028E-1
1.45584E-1,-1.43142E-1
1.46308E-1,-1.43852E-1
1.47338E-1,-1.45080E-1
1.47552E-1,-1.46667E-1
1.47071E-1,-1.47941E-1
1.46293E-1,-1.49025E-1
1.4534E-1,-1.49887E-1
1.44821E-1,-1.5065E-1
1.44470E-1,-1.51466E-1
1.43371E-1,-1.52587E-1
1.42013E-1,-1.52412E-1
1.41326E-1,-1.52465E-1
1.41174E-1,-1.52786E-1
1.40930E-1,-1.53030E-1
1.40808E-1,-1.54556E-1
1.39999E-1,-1.55387E-1
1.38557E-1,-1.56852E-1
1.36947E-1,-1.57646E-1
1.34773E-1,-1.58386E-1
1.32850E-1,-1.58531E-1
1.31263E-1,-1.57684E-1
1.30371E-1,-1.57150E-1
1.29905E-1,-1.56944E-1
1.29539E-1,-1.56494E-1
1.28883E-1,-1.56501E-1
1.28654E-1,-1.56478E-1
1.28730E-1,-1.56913E-1
1.28974E-1,-1.57768E-1
1.28204E-1,-1.58935E-1
1.26831E-1,-1.59584E-1
1.26236E-1,-1.60331E-1
1.24008E-1,-1.59713E-1
1.23832E-1,-1.58676E-1
1.24221E-1,-1.57409E-1
1.24748E-1,-1.56646E-1
1.26419E-1,-1.56745E-1
1.27235E-1,-1.57188E-1
1.28456E-1,-1.57379E-1
1.29051E-1,-1.58378E-1
1.30226E-1,-1.59133E-1
1.30233E-1,-1.60347E-1
1.30203E-1,-1.61010E-1
1.30317E-1,-1.61407E-1
1.30493E-1,-1.62284E-1
1.30828E-1,-1.62857E-1
1.30958E-1,-1.63963E-1
1.31263E-1,-1.65130E-1
1.31111E-1,-1.66069E-1
1.31301E-1,-1.66893E-1
1.31149E-1,-1.68647E-1
1.31256E-1,-1.70494E-1
1.30500E-1,-1.72172E-1
1.29257E-1,-1.73896E-1
1.28807E-1,-1.75758E-1
1.27281E-1,-1.77063E-1
1.26266E-1,-1.78169E-1
1.25450E-1,-1.79840E-1
1.24038E-1,-1.81358E-1
1.22627E-1,-1.82632E-1
1.21254E-1,-1.84265E-1
1.17340E-1,-1.84364E-1
1.16615E-1,-1.85630E-1
1.16478E-1,-1.87492E-1
1.16058E-1,-1.89170E-1
1.15272E-1,-1.90795E-1
1.13502E-1,-1.92436E-1
1.13052E-1,-1.93870E-1
1.12510E-1,-1.96556E-1
1.10870E-1,-2.00004E-1
1.08390E-1,-2.02522E-1
1.05598E-1,-2.04422E-1
1.02844E-1,-2.05970E-1
1.00280E-1,-2.06726E-1
0.98136E-1,-2.07679E-1
0.97305E-1,-2.08862E-1
0.94459E-1,-2.09037E-1
0.93055E-1,-2.10403E-1
0.90812E-1,-2.11807E-1
0.89317E-1,-2.13523E-1
0.86120E-1,-2.15751E-1
0.82893E-1,-2.17063E-1
0.79452E-1,-2.17742E-1
0.75386E-1,-2.17575E-1
0.72197E-1,-2.17056E-1
0.68847E-1,-2.17132E-1
0.66200E-1,-2.16270E-1
0.62995E-1,-2.16095E-1
0.59967E-1,-2.15126E-1
