CITIFILE A.01.00
#NA VERSION HP8720D.06.14
NAME DATA
VAR FREQ MAG 1601
DATA S[1,1] RI

SEG_LIST_BEGIN
SEG 1000000000 8000000000 1601
SEG_LIST_END
BEGIN
2.82730E-1,-3.68301E-1
2.65838E-1,-3.73687E-1
2.49649E-1,-3.78570E-1
2.35046E-1,-3.81820E-1
2.23327E-1,-3.84033E-1
2.10937E-1,-3.90289E-1
1.95220E-1,-3.96667E-1
1.79367E-1,-3.99963E-1
1.65359E-1,-4.02069E-1
1.50665E-1,-4.02572E-1
1.37130E-1,-4.03930E-1
1.25610E-1,-4.03701E-1
1.14685E-1,-4.05426E-1
1.06018E-1,-4.08371E-1
0.92407E-1,-4.14962E-1
0.75790E-1,-4.18258E-1
0.61050E-1,-4.17907E-1
0.46463E-1,-4.17205E-1
0.32135E-1,-4.16397E-1
0.19012E-1,-4.13589E-1
0.09384E-1,-4.12109E-1
-1.34277E-3,-4.15054E-1
-1.69372E-2,-4.19586E-1
-3.70178E-2,-4.17907E-1
-5.18798E-2,-4.12414E-1
-6.43768E-2,-4.08920E-1
-7.75299E-2,-4.09027E-1
-9.55352E-2,-4.08248E-1
-1.13510E-1,-4.04449E-1
-1.31683E-1,-3.99475E-1
-1.51550E-1,-3.89068E-1
-1.65741E-1,-3.77624E-1
-1.79077E-1,-3.68927E-1
-1.93023E-1,-3.57086E-1
-2.03369E-1,-3.44696E-1
-2.11975E-1,-3.35662E-1
-2.22503E-1,-3.26873E-1
-2.34039E-1,-3.16650E-1
-2.44689E-1,-3.05236E-1
-2.53173E-1,-2.88757E-1
-2.58117E-1,-2.79968E-1
-2.65655E-1,-2.72644E-1
-2.74444E-1,-2.63458E-1
-2.82501E-1,-2.55157E-1
-2.90985E-1,-2.46765E-1
-3.02246E-1,-2.36694E-1
-3.11798E-1,-2.23388E-1
-3.18603E-1,-2.09106E-1
-3.22876E-1,-1.96624E-1
-3.28064E-1,-1.85882E-1
-3.34777E-1,-1.74285E-1
-3.41339E-1,-1.62445E-1
-3.45794E-1,-1.48193E-1
-3.49700E-1,-1.35925E-1
-3.54003E-1,-1.23092E-1
-3.57421E-1,-1.12060E-1
-3.64028E-1,-9.92889E-2
-3.68072E-1,-8.45184E-2
-3.71353E-1,-6.96258E-2
-3.73825E-1,-5.55572E-2
-3.74710E-1,-4.10461E-2
-3.75412E-1,-2.75421E-2
-3.76678E-1,-1.50299E-2
-3.78402E-1,-4.88281E-4
-3.78524E-1,0.14968E-1
-3.77487E-1,0.29220E-1
-3.75778E-1,0.44250E-1
-3.73519E-1,0.59173E-1
-3.69110E-1,0.74264E-1
-3.62518E-1,0.87204E-1
-3.55163E-1,0.97885E-1
-3.50235E-1,1.04721E-1
-3.48877E-1,1.13296E-1
-3.47412E-1,1.24588E-1
-3.44848E-1,1.37054E-1
-3.40454E-1,1.49429E-1
-3.35083E-1,1.60476E-1
-3.32641E-1,1.72378E-1
-3.26416E-1,1.86157E-1
-3.19961E-1,1.99127E-1
-3.11080E-1,2.10372E-1
-3.01834E-1,2.20794E-1
-2.93060E-1,2.28759E-1
-2.86071E-1,2.36602E-1
-2.81021E-1,2.44018E-1
-2.75497E-1,2.5354E-1
-2.69516E-1,2.64251E-1
-2.62039E-1,2.76687E-1
-2.52212E-1,2.88970E-1
-2.40097E-1,2.98309E-1
-2.30224E-1,3.05679E-1
-2.19619E-1,3.14254E-1
-2.07687E-1,3.21823E-1
-1.96243E-1,3.28155E-1
-1.84127E-1,3.34640E-1
-1.72378E-1,3.39004E-1
-1.61392E-1,3.42529E-1
-1.51428E-1,3.46954E-1
-1.41357E-1,3.50784E-1
-1.31439E-1,3.55514E-1
-1.20880E-1,3.60504E-1
-1.09222E-1,3.65951E-1
-9.51843E-2,3.70071E-1
-8.23516E-2,3.70834E-1
-7.02819E-2,3.71292E-1
-6.12945E-2,3.72512E-1
-5.13763E-2,3.74542E-1
-3.98559E-2,3.77716E-1
-2.78472E-2,3.79867E-1
-1.66778E-2,3.81347E-1
-4.83703E-3,3.83178E-1
0.08850E-1,3.84964E-1
0.23132E-1,3.85040E-1
0.36804E-1,3.83453E-1
0.49545E-1,3.80889E-1
0.61157E-1,3.78997E-1
0.73593E-1,3.76983E-1
0.87112E-1,3.75595E-1
1.00112E-1,3.72543E-1
1.13311E-1,3.67767E-1
1.26571E-1,3.64242E-1
1.40838E-1,3.57666E-1
1.55304E-1,3.48846E-1
1.66778E-1,3.40271E-1
1.75872E-1,3.29834E-1
1.83593E-1,3.20892E-1
1.91711E-1,3.13537E-1
2.00927E-1,3.06060E-1
2.08892E-1,2.97027E-1
2.1698E-1,2.87475E-1
2.23388E-1,2.77954E-1
2.29553E-1,2.70507E-1
2.36816E-1,2.62451E-1
2.43225E-1,2.54180E-1
2.52288E-1,2.47345E-1
2.59735E-1,2.37274E-1
2.67852E-1,2.24563E-1
2.72888E-1,2.11593E-1
2.78015E-1,1.98516E-1
2.79998E-1,1.87042E-1
2.82806E-1,1.75506E-1
2.83966E-1,1.65283E-1
2.85766E-1,1.55670E-1
2.88360E-1,1.46087E-1
2.92373E-1,1.36306E-1
2.95379E-1,1.24084E-1
2.97363E-1,1.10961E-1
2.96264E-1,0.96679E-1
2.92724E-1,0.8461E-1
2.89581E-1,0.76049E-1
2.88635E-1,0.67840E-1
2.87323E-1,0.58624E-1
2.86254E-1,0.50048E-1
2.86773E-1,0.41076E-1
2.85888E-1,0.29144E-1
2.82897E-1,0.17440E-1
2.78503E-1,0.07583E-1
2.75222E-1,-1.64794E-3
2.71698E-1,-1.12152E-2
2.67425E-1,-2.20184E-2
2.60635E-1,-3.18450E-2
2.54074E-1,-4.00848E-2
2.46749E-1,-4.82406E-2
2.38678E-1,-5.53436E-2
2.30751E-1,-6.10046E-2
2.23892E-1,-6.58874E-2
2.16781E-1,-7.12204E-2
2.09762E-1,-7.52868E-2
2.03552E-1,-7.97729E-2
1.96273E-1,-8.48999E-2
1.87393E-1,-8.81195E-2
1.79229E-1,-8.87374E-2
1.73637E-1,-8.87451E-2
1.70898E-1,-8.98590E-2
1.68083E-1,-9.47036E-2
1.61994E-1,-1.01799E-1
1.52717E-1,-1.05934E-1
1.44073E-1,-1.07261E-1
1.37489E-1,-1.08085E-1
1.29600E-1,-1.09458E-1
1.22394E-1,-1.08882E-1
1.16333E-1,-1.0886E-1
1.10752E-1,-1.08215E-1
1.04930E-1,-1.07189E-1
9.99145E-2,-1.04862E-1
9.67636E-2,-1.03141E-1
9.40399E-2,-1.02664E-1
9.15527E-2,-1.02993E-1
8.86611E-2,-1.02912E-1
8.70132E-2,-1.03874E-1
8.48350E-2,-1.06578E-1
7.98797E-2,-1.10103E-1
7.43751E-2,-1.12068E-1
6.80694E-2,-1.13605E-1
6.12793E-2,-1.14028E-1
5.51834E-2,-1.13861E-1
4.91523E-2,-1.13330E-1
4.31442E-2,-1.12243E-1
3.75251E-2,-1.11183E-1
3.16925E-2,-1.10160E-1
2.61535E-2,-1.08966E-1
1.93367E-2,-1.06987E-1
1.28288E-2,-1.04530E-1
0.71182E-2,-1.01749E-1
0.16975E-2,-9.91096E-2
-4.04739E-3,-9.65881E-2
-1.03302E-2,-9.21478E-2
-1.58691E-2,-8.71505E-2
-1.92718E-2,-8.10928E-2
-2.17742E-2,-7.59811E-2
-2.36091E-2,-7.15065E-2
-2.53601E-2,-6.77871E-2
-2.75955E-2,-6.41136E-2
-2.98881E-2,-5.99136E-2
-3.12423E-2,-5.52024E-2
-3.15284E-2,-5.10635E-2
-3.22837E-2,-4.74281E-2
-3.20777E-2,-4.34532E-2
-3.12881E-2,-4.03633E-2
-3.00827E-2,-3.88755E-2
-3.08609E-2,-3.83262E-2
-3.28674E-2,-3.70254E-2
-3.55796E-2,-3.40385E-2
-3.63998E-2,-2.97889E-2
-3.56578E-2,-2.65007E-2
-3.48415E-2,-2.51407E-2
-3.59420E-2,-2.45742E-2
-3.79219E-2,-2.32410E-2
-4.00314E-2,-2.09999E-2
-4.17594E-2,-1.86176E-2
-4.36592E-2,-1.63478E-2
-4.62551E-2,-1.41181E-2
-4.89845E-2,-1.00650E-2
-5.02719E-2,-5.35965E-3
-5.02986E-2,-8.14437E-4
-4.94060E-2,0.26035E-2
-4.83779E-2,0.46386E-2
-4.86068E-2,0.58784E-2
-4.98199E-2,0.76751E-2
-5.09090E-2,1.00250E-2
-5.22632E-2,1.30195E-2
-5.21392E-2,1.66511E-2
-5.15766E-2,1.90219E-2
-5.13458E-2,2.08091E-2
-5.17139E-2,2.27813E-2
-5.25646E-2,2.51312E-2
-5.29575E-2,2.79483E-2
-5.31883E-2,3.06243E-2
-5.34400E-2,3.35731E-2
-5.39321E-2,3.71360E-2
-5.36441E-2,4.08706E-2
-5.19847E-2,4.46186E-2
-5.03501E-2,4.60701E-2
-5.0951E-2,4.81872E-2
-5.11283E-2,5.1754E-2
-5.04741E-2,5.52368E-2
-5.00946E-2,5.91735E-2
-4.81224E-2,6.28318E-2
-4.57344E-2,6.60171E-2
-4.33082E-2,6.77299E-2
-4.22058E-2,6.83326E-2
-4.17366E-2,7.03964E-2
-4.05082E-2,7.24945E-2
-3.96652E-2,7.34825E-2
-3.94516E-2,7.47108E-2
-3.95851E-2,7.64846E-2
-3.95698E-2,7.86514E-2
-3.91426E-2,8.10546E-2
-3.81698E-2,8.31527E-2
-3.71780E-2,8.49685E-2
-3.63388E-2,8.61053E-2
-3.65982E-2,8.71429E-2
-3.71017E-2,8.97903E-2
-3.64303E-2,9.24758E-2
-3.57818E-2,9.44633E-2
-3.54957E-2,9.71221E-2
-3.55186E-2,1.00177E-1
-3.43475E-2,1.04072E-1
-3.26499E-2,1.07265E-1
-3.11164E-2,1.10134E-1
-2.95906E-2,1.13033E-1
-2.83355E-2,1.15303E-1
-2.86750E-2,1.18698E-1
-2.82211E-2,1.23825E-1
-2.65426E-2,1.29356E-1
-2.41699E-2,1.35833E-1
-2.03476E-2,1.41708E-1
-1.57241E-2,1.46339E-1
-1.12381E-2,1.51451E-1
-6.59179E-3,1.55456E-1
-1.61743E-3,1.59866E-1
0.03784E-1,1.64413E-1
0.09475E-1,1.68197E-1
0.15289E-1,1.71676E-1
0.22628E-1,1.75605E-1
0.31021E-1,1.78878E-1
0.40412E-1,1.80061E-1
0.48843E-1,1.79519E-1
0.56823E-1,1.79206E-1
0.65033E-1,1.77902E-1
0.74050E-1,1.75735E-1
0.80993E-1,1.71386E-1
0.86212E-1,1.68167E-1
0.92468E-1,1.65618E-1
0.97503E-1,1.62735E-1
1.03027E-1,1.58538E-1
1.08795E-1,1.55487E-1
1.14959E-1,1.52313E-1
1.21490E-1,1.47369E-1
1.26831E-1,1.41845E-1
1.31057E-1,1.36505E-1
1.34765E-1,1.30706E-1
1.38015E-1,1.26205E-1
1.41189E-1,1.20971E-1
1.43905E-1,1.16027E-1
1.46087E-1,1.10916E-1
1.48468E-1,1.05270E-1
1.49574E-1,1.00471E-1
1.50215E-1,0.95703E-1
1.50756E-1,0.91278E-1
1.50726E-1,0.87616E-1
1.51329E-1,0.84648E-1
1.53869E-1,0.81581E-1
1.55479E-1,0.76416E-1
1.55906E-1,0.70671E-1
1.55418E-1,0.66276E-1
1.54815E-1,0.61935E-1
1.54129E-1,0.57830E-1
1.53106E-1,0.54931E-1
1.53228E-1,0.52429E-1
1.54541E-1,0.49041E-1
1.55723E-1,0.43663E-1
1.54296E-1,0.38856E-1
1.53564E-1,0.36468E-1
1.54701E-1,0.33386E-1
1.55502E-1,0.28823E-1
1.55975E-1,0.24398E-1
1.55693E-1,0.19676E-1
1.56189E-1,0.14343E-1
1.55029E-1,0.09307E-1
1.54129E-1,0.03891E-1
1.52694E-1,-1.52587E-4
1.51275E-1,-3.90625E-3
1.49742E-1,-7.94982E-3
1.48887E-1,-1.18560E-2
1.46438E-1,-1.63955E-2
1.45484E-1,-2.04238E-2
1.44554E-1,-2.47955E-2
1.41586E-1,-2.98538E-2
1.38435E-1,-3.40271E-2
1.35917E-1,-3.75824E-2
1.33934E-1,-4.18472E-2
1.30271E-1,-4.71115E-2
1.26174E-1,-5.14373E-2
1.21254E-1,-5.49011E-2
1.15654E-1,-5.89447E-2
1.11686E-1,-6.26983E-2
1.07406E-1,-6.69097E-2
1.01844E-1,-7.03659E-2
9.71717E-2,-7.29217E-2
9.19303E-2,-7.67669E-2
8.64715E-2,-7.97500E-2
8.09097E-2,-8.36219E-2
7.40852E-2,-8.64868E-2
6.68678E-2,-8.84780E-2
5.96962E-2,-8.91838E-2
5.38749E-2,-8.99276E-2
4.70695E-2,-9.23538E-2
3.90396E-2,-9.21478E-2
3.17573E-2,-9.18693E-2
2.51274E-2,-9.08927E-2
1.85241E-2,-9.07363E-2
0.93231E-2,-9.03930E-2
0.02670E-2,-8.70170E-2
-7.09533E-3,-8.27713E-2
-1.41983E-2,-7.92121E-2
-2.20680E-2,-7.43408E-2
-2.83737E-2,-6.81648E-2
-3.36303E-2,-6.25E-2
-3.88984E-2,-5.67588E-2
-4.36821E-2,-5.06134E-2
-4.75730E-2,-4.47959E-2
-5.12809E-2,-3.99284E-2
-5.60684E-2,-3.51409E-2
-6.14776E-2,-2.88963E-2
-6.56356E-2,-2.11563E-2
-6.83288E-2,-1.36680E-2
-7.09648E-2,-6.23321E-3
-7.23190E-2,0.16861E-2
-7.20405E-2,0.91934E-2
-7.12432E-2,1.46484E-2
-7.15522E-2,1.93138E-2
-7.20443E-2,2.47497E-2
-7.27500E-2,3.01170E-2
-7.38525E-2,3.59039E-2
-7.45468E-2,4.32434E-2
-7.27539E-2,5.13839E-2
-6.94427E-2,5.78689E-2
-6.66732E-2,6.25534E-2
-6.42700E-2,6.72721E-2
-6.29501E-2,7.19947E-2
-6.07757E-2,7.76100E-2
-5.78918E-2,8.33320E-2
-5.48896E-2,8.76350E-2
-5.32264E-2,9.21936E-2
-5.05828E-2,9.80377E-2
-4.72908E-2,1.03321E-1
-4.33044E-2,1.08783E-1
-3.86810E-2,1.14059E-1
-3.31611E-2,1.18175E-1
-2.78358E-2,1.20544E-1
-2.39486E-2,1.22734E-1
-2.03628E-2,1.25534E-1
-1.69143E-2,1.28105E-1
-1.30844E-2,1.31324E-1
-7.74383E-3,1.34674E-1
-1.73950E-3,1.35917E-1
0.02639E-1,1.36001E-1
0.06462E-1,1.37321E-1
0.10948E-1,1.38397E-1
0.15716E-1,1.38946E-1
0.20736E-1,1.39190E-1
0.25970E-1,1.38893E-1
0.30380E-1,1.37901E-1
0.34423E-1,1.37123E-1
0.38742E-1,1.35978E-1
0.43235E-1,1.33735E-1
0.45631E-1,1.31904E-1
0.48156E-1,1.30767E-1
0.50811E-1,1.29684E-1
0.53421E-1,1.29592E-1
0.57312E-1,1.28646E-1
0.60745E-1,1.27243E-1
0.63690E-1,1.25259E-1
6.57653E-2,1.24069E-1
6.76879E-2,1.22497E-1
6.99462E-2,1.20590E-1
7.09686E-2,1.20117E-1
7.28454E-2,1.18942E-1
7.40051E-2,1.16836E-1
7.42797E-2,1.16043E-1
7.47833E-2,1.16775E-1
7.76977E-2,1.16729E-1
8.00018E-2,1.15478E-1
8.16268E-2,1.14296E-1
8.22219E-2,1.12663E-1
8.28552E-2,1.11892E-1
8.40301E-2,1.11671E-1
8.50296E-2,1.10534E-1
8.54187E-2,1.10084E-1
8.71200E-2,1.10443E-1
8.91876E-2,1.09893E-1
9.13238E-2,1.09054E-1
9.44213E-2,1.08581E-1
9.66186E-2,1.05880E-1
9.74273E-2,1.03500E-1
9.72747E-2,1.02012E-1
9.74960E-2,1.02287E-1
9.93576E-2,1.03363E-1
1.02043E-1,1.03744E-1
1.05369E-1,1.03668E-1
1.08680E-1,1.02607E-1
1.12274E-1,1.00723E-1
1.14440E-1,9.89913E-2
1.16653E-1,9.70382E-2
1.18026E-1,9.51995E-2
1.19995E-1,9.42382E-2
1.22375E-1,9.37805E-2
1.26571E-1,0.93124E-1
1.29669E-1,0.89706E-1
1.31347E-1,0.8638E-1
1.33331E-1,0.84396E-1
1.35955E-1,0.81909E-1
1.38427E-1,0.77804E-1
1.40007E-1,0.72387E-1
1.38717E-1,0.68183E-1
1.38465E-1,0.65383E-1
1.37878E-1,0.63110E-1
1.38298E-1,0.59982E-1
1.38740E-1,0.56602E-1
1.39442E-1,0.52627E-1
1.39373E-1,0.48118E-1
1.38046E-1,0.43281E-1
1.36238E-1,0.3936E-1
1.34048E-1,0.36155E-1
1.31805E-1,0.33409E-1
1.29875E-1,0.31326E-1
1.28196E-1,0.27679E-1
1.24839E-1,2.48870E-2
1.20964E-1,2.39563E-2
1.19148E-1,2.41928E-2
1.18911E-1,2.29568E-2
1.16981E-1,2.06069E-2
1.14227E-1,1.85318E-2
1.11396E-1,1.82876E-2
1.09283E-1,1.79214E-2
1.07940E-1,1.72233E-2
1.05426E-1,1.61247E-2
1.02668E-1,1.54609E-2
1.00097E-1,1.41906E-2
9.56497E-2,1.37748E-2
9.16786E-2,1.44691E-2
8.82186E-2,1.60064E-2
8.5392E-2,1.70555E-2
8.18710E-2,1.86767E-2
7.82318E-2,2.15301E-2
7.72209E-2,2.39715E-2
7.53746E-2,2.43949E-2
7.18460E-2,2.49099E-2
6.72073E-2,2.78625E-2
6.45904E-2,3.22189E-2
6.40182E-2,3.60565E-2
6.24389E-2,3.86352E-2
6.05316E-2,4.21142E-2
5.94635E-2,4.70809E-2
6.04171E-2,5.20019E-2
6.27517E-2,5.50994E-2
6.47621E-2,5.65338E-2
6.51588E-2,5.73349E-2
6.49452E-2,5.90477E-2
6.37817E-2,6.18782E-2
6.43081E-2,6.66046E-2
6.67800E-2,7.03353E-2
6.92138E-2,7.26394E-2
7.14416E-2,7.48901E-2
7.31506E-2,7.73010E-2
7.58590E-2,8.00552E-2
7.94296E-2,8.17489E-2
8.23135E-2,8.21838E-2
8.35723E-2,8.31756E-2
8.52356E-2,8.47015E-2
8.75701E-2,8.66241E-2
9.06372E-2,8.86383E-2
9.38415E-2,8.97369E-2
9.70611E-2,9.11254E-2
1.00555E-1,9.11712E-2
1.04064E-1,9.06066E-2
1.07009E-1,8.95233E-2
1.09375E-1,8.84552E-2
1.12213E-1,8.74328E-2
1.13098E-1,8.59756E-2
1.14715E-1,8.45413E-2
1.16226E-1,8.47015E-2
1.19087E-1,8.43811E-2
1.22230E-1,8.19320E-2
1.23794E-1,7.94296E-2
1.24359E-1,7.63702E-2
1.24137E-1,7.44705E-2
1.24389E-1,7.29293E-2
1.24664E-1,7.17392E-2
1.25244E-1,0.69320E-1
1.24427E-1,6.72226E-2
1.22840E-1,6.59408E-2
1.21109E-1,6.57196E-2
1.20971E-1,6.56433E-2
1.20536E-1,6.45446E-2
1.18965E-1,6.34689E-2
1.17073E-1,6.36901E-2
1.15135E-1,6.51168E-2
1.14242E-1,6.55365E-2
1.12983E-1,6.56204E-2
1.10733E-1,6.66351E-2
1.08535E-1,6.85424E-2
1.07574E-1,7.13195E-2
1.05789E-1,7.30743E-2
1.04255E-1,7.71713E-2
1.04423E-1,8.10699E-2
1.0495E-1,8.47015E-2
1.05766E-1,8.82110E-2
1.07437E-1,9.20715E-2
1.10137E-1,9.48181E-2
1.12266E-1,9.74273E-2
1.14936E-1,1.00029E-1
1.1763E-1,1.02294E-1
1.20483E-1,1.04797E-1
1.22894E-1,1.07208E-1
1.26052E-1,1.10672E-1
1.31607E-1,1.13311E-1
1.37115E-1,1.15005E-1
1.42578E-1,1.15661E-1
1.47888E-1,1.15417E-1
1.52175E-1,1.15615E-1
1.57913E-1,1.14944E-1
1.62582E-1,1.13830E-1
1.67282E-1,1.12838E-1
1.72119E-1,1.12045E-1
1.77291E-1,1.09832E-1
1.81762E-1,1.08108E-1
1.86569E-1,1.06048E-1
1.91940E-1,1.03637E-1
1.96121E-1,0.99731E-1
1.99935E-1,0.95535E-1
2.03399E-1,0.91415E-1
2.06543E-1,0.87753E-1
2.08740E-1,0.83618E-1
2.12036E-1,0.79635E-1
2.14355E-1,0.74020E-1
2.15667E-1,0.69412E-1
2.1698E-1,0.65567E-1
2.18063E-1,0.60791E-1
2.18689E-1,0.56396E-1
2.20184E-1,0.52810E-1
2.20779E-1,0.47256E-1
2.20092E-1,0.42526E-1
2.19696E-1,0.38696E-1
2.19101E-1,0.34706E-1
2.18597E-1,0.31127E-1
2.17697E-1,0.28114E-1
2.17842E-1,0.24581E-1
2.17659E-1,0.21278E-1
2.17544E-1,0.17227E-1
2.15477E-1,0.12321E-1
2.12722E-1,0.09254E-1
2.09259E-1,0.07515E-1
2.08358E-1,0.06019E-1
2.07458E-1,0.0457E-1
2.05886E-1,0.02586E-1
2.05703E-1,0.01129E-1
2.05963E-1,-2.42614E-3
2.03857E-1,-5.63049E-3
2.02095E-1,-7.66754E-3
1.99577E-1,-9.15527E-3
1.96876E-1,-1.10015E-2
1.94885E-1,-1.14975E-2
1.92871E-1,-1.24054E-2
1.90979E-1,-1.30386E-2
1.89750E-1,-1.32904E-2
1.88812E-1,-1.34887E-2
1.87698E-1,-1.41601E-2
1.86996E-1,-1.36108E-2
1.86683E-1,-1.40533E-2
1.85936E-1,-1.53121E-2
1.85897E-1,-1.53350E-2
1.84692E-1,-1.60446E-2
1.84898E-1,-1.66091E-2
1.8396E-1,-1.71890E-2
1.8293E-1,-1.77002E-2
1.82815E-1,-1.71737E-2
1.82975E-1,-1.76925E-2
1.83448E-1,-1.80206E-2
1.84104E-1,-1.84631E-2
1.84249E-1,-1.93405E-2
1.84639E-1,-2.02179E-2
1.85188E-1,-2.13775E-2
1.85928E-1,-2.35137E-2
1.85104E-1,-2.53524E-2
1.84547E-1,-2.69393E-2
1.83998E-1,-2.85491E-2
1.82327E-1,-2.99148E-2
1.81953E-1,-3.10745E-2
1.80694E-1,-3.23104E-2
1.80145E-1,-3.33328E-2
1.78947E-1,-3.47900E-2
1.77726E-1,-3.48358E-2
1.77688E-1,-3.56903E-2
1.76773E-1,-3.68499E-2
1.75903E-1,-3.88336E-2
1.74255E-1,-4.01840E-2
1.72653E-1,-4.04815E-2
1.72142E-1,-4.06951E-2
1.72233E-1,-4.12674E-2
1.72431E-1,-4.25643E-2
1.71180E-1,-4.49142E-2
1.69075E-1,-4.64248E-2
1.66336E-1,-4.69894E-2
1.64596E-1,-4.62799E-2
1.63711E-1,-4.57916E-2
1.63009E-1,-4.62417E-2
1.61674E-1,-4.62036E-2
1.61102E-1,-4.66461E-2
1.59065E-1,-4.74014E-2
1.56875E-1,-4.72335E-2
1.55410E-1,-4.68215E-2
1.53587E-1,-4.54788E-2
1.52526E-1,-4.48379E-2
1.51138E-1,-4.43420E-2
1.49490E-1,-4.38537E-2
1.48025E-1,-4.26330E-2
1.47178E-1,-4.07714E-2
1.46339E-1,-3.93600E-2
1.45858E-1,-3.91082E-2
1.44149E-1,-3.85131E-2
1.43302E-1,-3.66745E-2
1.42486E-1,-3.51715E-2
1.41586E-1,-3.41644E-2
1.40670E-1,-3.26995E-2
1.39564E-1,-3.08532E-2
1.39190E-1,-2.89382E-2
1.38900E-1,-2.66189E-2
1.38473E-1,-2.36969E-2
1.38557E-1,-2.04467E-2
1.40609E-1,-1.78527E-2
1.41723E-1,-1.62658E-2
1.42494E-1,-1.45492E-2
1.43661E-1,-1.26571E-2
1.44706E-1,-9.99450E-3
1.47285E-1,-7.60650E-3
1.48597E-1,-6.29425E-3
1.49688E-1,-4.13513E-3
1.51733E-1,-6.63757E-4
1.55632E-1,0.01716E-1
1.58851E-1,0.03082E-1
1.61033E-1,0.04348E-1
1.63665E-1,0.06042E-1
1.66954E-1,0.0811E-1
1.70768E-1,0.09269E-1
1.73736E-1,0.09903E-1
1.78192E-1,0.11146E-1
1.82472E-1,0.11962E-1
1.86836E-1,0.11840E-1
1.91230E-1,0.10757E-1
1.9561E-1,0.09811E-1
1.99859E-1,0.08682E-1
2.03826E-1,0.06286E-1
2.0681E-1,0.03860E-1
2.10159E-1,0.02380E-1
2.13401E-1,-6.25610E-4
2.15843E-1,-2.62451E-3
2.19635E-1,-5.18035E-3
2.22564E-1,-8.02612E-3
2.25166E-1,-1.03836E-2
2.28828E-1,-1.34811E-2
2.32208E-1,-1.62963E-2
2.35855E-1,-2.07290E-2
2.38266E-1,-2.51388E-2
2.39677E-1,-3.01284E-2
2.40821E-1,-3.45611E-2
2.41539E-1,-3.77273E-2
2.43377E-1,-4.12292E-2
2.44346E-1,-4.53262E-2
2.45063E-1,-4.85305E-2
2.46109E-1,-5.23834E-2
2.46963E-1,-5.64804E-2
2.47024E-1,-6.07986E-2
2.46452E-1,-6.46209E-2
2.45636E-1,-6.85348E-2
2.45475E-1,-7.25708E-2
2.43873E-1,-7.60116E-2
2.42569E-1,-7.93762E-2
2.42225E-1,-8.29772E-2
2.41043E-1,-8.60595E-2
2.39357E-1,-8.97293E-2
2.37243E-1,-9.24835E-2
2.35443E-1,-9.53521E-2
2.33772E-1,-9.72671E-2
2.32292E-1,-9.97543E-2
2.30697E-1,-1.01310E-1
2.28820E-1,-1.03683E-1
2.27272E-1,-1.05636E-1
2.26532E-1,-1.07368E-1
2.25708E-1,-1.08894E-1
2.25868E-1,-1.10244E-1
2.25418E-1,-1.13319E-1
2.25097E-1,-1.15448E-1
2.23960E-1,-1.18415E-1
2.22747E-1,-1.20231E-1
2.22480E-1,-1.21444E-1
2.22084E-1,-1.23718E-1
2.21984E-1,-1.25747E-1
2.21298E-1,-1.27952E-1
2.20939E-1,-1.29890E-1
2.20726E-1,-1.32141E-1
2.20253E-1,-1.34544E-1
2.19947E-1,-1.36917E-1
2.19291E-1,-1.39938E-1
2.18277E-1,-1.43241E-1
2.16629E-1,-1.46171E-1
2.14546E-1,-1.48956E-1
2.11906E-1,-1.51786E-1
2.09457E-1,-1.52694E-1
2.07443E-1,-1.54052E-1
2.06970E-1,-1.55571E-1
2.06855E-1,-1.58424E-1
2.05268E-1,-1.62391E-1
2.02728E-1,-1.65527E-1
1.99813E-1,-1.67846E-1
1.97082E-1,-1.70280E-1
1.94374E-1,-1.73126E-1
1.91665E-1,-1.75788E-1
1.88095E-1,-1.77619E-1
1.84860E-1,-1.79328E-1
1.81884E-1,-1.80259E-1
1.79412E-1,-1.81556E-1
1.77307E-1,-1.82838E-1
1.75666E-1,-1.84982E-1
1.73004E-1,-1.87004E-1
1.69685E-1,-1.88232E-1
1.67213E-1,-1.88896E-1
1.65451E-1,-1.90437E-1
1.63269E-1,-1.91757E-1
1.61399E-1,-1.93710E-1
1.58271E-1,-1.95671E-1
1.55090E-1,-1.97174E-1
1.51413E-1,-1.98478E-1
1.4785E-1,-1.99508E-1
1.44172E-1,-1.99600E-1
1.40541E-1,-2.00149E-1
1.36230E-1,-2.00035E-1
1.32247E-1,-1.99455E-1
1.28311E-1,-1.98104E-1
1.25320E-1,-1.96601E-1
1.23115E-1,-1.95076E-1
1.20620E-1,-1.94694E-1
1.16989E-1,-1.93977E-1
1.13731E-1,-1.92939E-1
1.10084E-1,-1.91528E-1
1.06834E-1,-1.89216E-1
1.03004E-1,-1.87477E-1
1.00288E-1,-1.83929E-1
0.98259E-1,-1.80625E-1
0.97312E-1,-1.77917E-1
0.96656E-1,-1.74789E-1
0.96664E-1,-1.72706E-1
0.96153E-1,-1.70112E-1
0.96984E-1,-1.68312E-1
0.97396E-1,-1.67083E-1
0.97404E-1,-1.65969E-1
0.96977E-1,-1.65252E-1
0.96595E-1,-1.64367E-1
0.96054E-1,-1.62223E-1
0.95657E-1,-1.60186E-1
0.96450E-1,-1.57348E-1
0.98625E-1,-1.55235E-1
1.00585E-1,-1.54266E-1
1.02485E-1,-1.53839E-1
1.03286E-1,-1.53511E-1
1.05186E-1,-1.52603E-1
1.07070E-1,-1.52473E-1
1.08947E-1,-1.53137E-1
1.09764E-1,-1.53579E-1
1.10031E-1,-1.53541E-1
1.10748E-1,-1.53076E-1
1.11999E-1,-1.52816E-1
1.13388E-1,-1.53495E-1
1.14128E-1,-1.54556E-1
1.14372E-1,-1.55044E-1
1.15036E-1,-1.55036E-1
1.15760E-1,-1.55868E-1
1.16416E-1,-1.57218E-1
1.16752E-1,-1.58851E-1
1.16928E-1,-1.60034E-1
1.16424E-1,-1.61056E-1
1.15921E-1,-1.62155E-1
1.15669E-1,-1.62712E-1
1.16043E-1,-1.63375E-1
1.16127E-1,-1.64245E-1
1.16615E-1,-1.66069E-1
1.16340E-1,-1.66900E-1
1.14265E-1,-1.68563E-1
1.14479E-1,-1.70005E-1
1.14807E-1,-1.72096E-1
1.15486E-1,-1.74346E-1
1.14807E-1,-1.76902E-1
1.14692E-1,-1.78970E-1
1.14456E-1,-1.80290E-1
1.13761E-1,-1.83906E-1
1.12541E-1,-1.86897E-1
1.10740E-1,-1.90109E-1
1.08879E-1,-1.92695E-1
1.06765E-1,-1.93336E-1
1.0466E-1,-1.94702E-1
1.03653E-1,-1.95755E-1
1.02470E-1,-1.96571E-1
1.01577E-1,-1.98211E-1
1.00120E-1,-1.99653E-1
0.99922E-1,-2.01767E-1
0.98297E-1,-2.03834E-1
0.96260E-1,-2.06413E-1
0.93322E-1,-2.08862E-1
0.90660E-1,-2.10693E-1
0.87379E-1,-2.10968E-1
0.85914E-1,-2.12532E-1
0.82695E-1,-2.13119E-1
