CITIFILE A.01.00
#NA VERSION HP8720D.06.14
NAME DATA
VAR FREQ MAG 1601
DATA S[1,1] RI

SEG_LIST_BEGIN
SEG 1000000000 8000000000 1601
SEG_LIST_END
BEGIN
2.17361E-1,-4.23706E-1
1.98867E-1,-4.24469E-1
1.78268E-1,-4.25445E-1
1.59179E-1,-4.25354E-1
1.42517E-1,-4.21325E-1
1.26617E-1,-4.20562E-1
1.08154E-1,-4.19586E-1
0.90576E-1,-4.16931E-1
0.72219E-1,-4.12826E-1
0.54824E-1,-4.06219E-1
0.37780E-1,-3.98407E-1
0.23315E-1,-3.86276E-1
0.14495E-1,-3.74496E-1
0.09613E-1,-3.65921E-1
0.02410E-1,-3.61694E-1
-6.51550E-3,-3.56170E-1
-1.24054E-2,-3.49594E-1
-1.82189E-2,-3.44589E-1
-2.59857E-2,-3.40011E-1
-3.26385E-2,-3.35205E-1
-3.66058E-2,-3.29772E-1
-4.04357E-2,-3.28674E-1
-4.80346E-2,-3.29528E-1
-5.88378E-2,-3.26416E-1
-6.58416E-2,-3.19595E-1
-7.02514E-2,-3.15490E-1
-7.45849E-2,-3.15643E-1
-8.29925E-2,-3.16635E-1
-9.30786E-2,-3.16589E-1
-1.04568E-1,-3.13995E-1
-1.16149E-1,-3.09555E-1
-1.26358E-1,-3.02734E-1
-1.34872E-1,-2.96844E-1
-1.42913E-1,-2.90603E-1
-1.48681E-1,-2.83691E-1
-1.53442E-1,-2.79830E-1
-1.59484E-1,-2.7771E-1
-1.67175E-1,-2.74810E-1
-1.763E-1,-2.71026E-1
-1.84371E-1,-2.61901E-1
-1.89254E-1,-2.59460E-1
-1.97525E-1,-2.59582E-1
-2.08999E-1,-2.57537E-1
-2.20932E-1,-2.55325E-1
-2.34237E-1,-2.50106E-1
-2.48153E-1,-2.41958E-1
-2.60376E-1,-2.32040E-1
-2.71026E-1,-2.19741E-1
-2.79129E-1,-2.08145E-1
-2.86621E-1,-1.97662E-1
-2.93960E-1,-1.86401E-1
-3.01635E-1,-1.75338E-1
-3.08044E-1,-1.62719E-1
-3.13247E-1,-1.50909E-1
-3.19320E-1,-1.38656E-1
-3.24951E-1,-1.27838E-1
-3.31512E-1,-1.14730E-1
-3.36608E-1,-9.98687E-2
-3.40103E-1,-8.51287E-2
-3.41857E-1,-7.04345E-2
-3.41308E-1,-5.62133E-2
-3.39843E-1,-4.47540E-2
-3.40911E-1,-3.57971E-2
-3.44772E-1,-2.41088E-2
-3.46633E-1,-9.64355E-3
-3.45367E-1,0.04394E-1
-3.43414E-1,0.17410E-1
-3.40683E-1,0.29556E-1
-3.36776E-1,0.41534E-1
-3.31039E-1,0.51574E-1
-3.25332E-1,0.58609E-1
-3.22647E-1,0.61294E-1
-3.25866E-1,0.65704E-1
-3.30322E-1,0.74722E-1
-3.33953E-1,0.87677E-1
-3.33618E-1,1.03027E-1
-3.29666E-1,1.17828E-1
-3.25759E-1,1.31210E-1
-3.18618E-1,1.43142E-1
-3.11706E-1,1.53305E-1
-3.05114E-1,1.61239E-1
-3.00277E-1,1.67114E-1
-2.95837E-1,1.74346E-1
-2.95074E-1,1.81564E-1
-2.94616E-1,1.90017E-1
-2.93167E-1,2.02850E-1
-2.89413E-1,2.14630E-1
-2.84668E-1,2.28576E-1
-2.77923E-1,2.41073E-1
-2.69928E-1,2.50930E-1
-2.63809E-1,2.60986E-1
-2.56027E-1,2.72308E-1
-2.47818E-1,2.83325E-1
-2.38449E-1,2.93136E-1
-2.27645E-1,3.02764E-1
-2.16812E-1,3.10577E-1
-2.06756E-1,3.17550E-1
-1.96121E-1,3.23303E-1
-1.86767E-1,3.28308E-1
-1.79199E-1,3.33877E-1
-1.71615E-1,3.41522E-1
-1.62780E-1,3.49990E-1
-1.51107E-1,3.58718E-1
-1.38702E-1,3.64517E-1
-1.27380E-1,3.70071E-1
-1.16149E-1,3.76236E-1
-1.03088E-1,3.82064E-1
-9.08508E-2,3.85879E-1
-7.89337E-2,3.90869E-1
-6.56127E-2,3.95843E-1
-5.21240E-2,4.00253E-1
-3.66668E-2,4.0448E-1
-2.01568E-2,4.04510E-1
-5.72204E-3,4.04251E-1
0.06668E-1,4.03076E-1
0.19500E-1,4.02755E-1
0.30990E-1,4.02694E-1
0.44204E-1,4.04007E-1
0.57830E-1,4.05181E-1
0.73165E-1,4.03884E-1
0.88348E-1,4.02893E-1
1.04187E-1,3.99963E-1
1.21490E-1,3.94897E-1
1.36383E-1,3.87695E-1
1.49108E-1,3.79943E-1
1.60247E-1,3.73443E-1
1.72485E-1,3.67462E-1
1.85699E-1,3.60107E-1
1.96685E-1,3.50860E-1
2.06939E-1,3.43017E-1
2.17102E-1,3.35571E-1
2.28759E-1,3.28765E-1
2.42126E-1,3.21197E-1
2.53662E-1,3.09661E-1
2.65228E-1,2.99499E-1
2.74749E-1,2.87384E-1
2.85888E-1,2.73010E-1
2.93640E-1,2.58636E-1
2.99865E-1,2.43042E-1
3.02978E-1,2.29431E-1
3.07189E-1,2.17102E-1
3.11340E-1,2.05932E-1
3.15734E-1,1.93237E-1
3.19610E-1,1.80450E-1
3.22998E-1,1.68228E-1
3.26568E-1,1.55853E-1
3.29834E-1,1.40625E-1
3.30261E-1,1.25152E-1
3.28094E-1,1.11526E-1
3.25592E-1,1.00647E-1
3.24371E-1,0.9021E-1
3.22937E-1,0.79711E-1
3.21777E-1,0.70495E-1
3.22143E-1,0.61645E-1
3.22265E-1,0.50384E-1
3.21502E-1,0.38665E-1
3.20144E-1,0.27816E-1
3.19335E-1,0.15869E-1
3.17428E-1,0.03402E-1
3.14392E-1,-9.21630E-3
3.09768E-1,-2.15606E-2
3.0513E-1,-3.35388E-2
2.98019E-1,-4.50897E-2
2.89505E-1,-5.63507E-2
2.81127E-1,-6.49261E-2
2.73269E-1,-7.24182E-2
2.64480E-1,-7.97729E-2
2.56713E-1,-8.51745E-2
2.50351E-1,-9.07745E-2
2.43347E-1,-9.73968E-2
2.33856E-1,-1.03591E-1
2.25654E-1,-1.05293E-1
2.20260E-1,-1.06979E-1
2.1875E-1,-1.10420E-1
2.15705E-1,-1.18156E-1
2.09823E-1,-1.28501E-1
1.99798E-1,-1.36215E-1
1.90124E-1,-1.39877E-1
1.82174E-1,-1.44142E-1
1.73561E-1,-1.47819E-1
1.65542E-1,-1.51062E-1
1.58325E-1,-1.53816E-1
1.51245E-1,-1.57333E-1
1.42936E-1,-1.60812E-1
1.34483E-1,-1.63658E-1
1.25373E-1,-1.65062E-1
1.18682E-1,-1.66336E-1
1.11557E-1,-1.67556E-1
1.04843E-1,-1.68670E-1
0.99273E-1,-1.71035E-1
0.91857E-1,-1.75926E-1
0.82000E-1,-1.80015E-1
0.70625E-1,-1.82060E-1
0.59181E-1,-1.82266E-1
0.48362E-1,-1.80000E-1
0.39299E-1,-1.78222E-1
0.30265E-1,-1.76078E-1
0.21179E-1,-1.74285E-1
0.11894E-1,-1.70883E-1
0.03776E-1,-1.67274E-1
-4.76074E-3,-1.64947E-1
-1.50070E-2,-1.60026E-1
-2.28195E-2,-1.56440E-1
-3.16009E-2,-1.51367E-1
-3.93905E-2,-1.46225E-1
-4.66461E-2,-1.40945E-1
-5.35278E-2,-1.34468E-1
-5.96084E-2,-1.27929E-1
-6.50329E-2,-1.21688E-1
-7.01293E-2,-1.16127E-1
-7.47070E-2,-1.10008E-1
-7.91397E-2,-1.04225E-1
-8.36410E-2,-9.88235E-2
-8.83636E-2,-9.19342E-2
-9.21325E-2,-8.57849E-2
-9.55810E-2,-7.94754E-2
-9.97619E-2,-7.26776E-2
-1.02653E-1,-6.51779E-2
-1.04538E-1,-5.78765E-2
-1.06094E-1,-5.15823E-2
-1.08619E-1,-4.61273E-2
-1.12159E-1,-3.88183E-2
-1.15181E-1,-3.03878E-2
-1.15791E-1,-2.09503E-2
-1.15325E-1,-1.26876E-2
-1.14666E-1,-5.74874E-3
-1.14746E-1,0.12474E-2
-1.14662E-1,0.86860E-2
-1.13208E-1,1.68876E-2
-1.10576E-1,2.34718E-2
-1.09508E-1,2.87208E-2
-1.09348E-1,3.49426E-2
-1.08177E-1,4.27055E-2
-1.05583E-1,5.03730E-2
-1.01501E-1,5.69572E-2
-9.76600E-2,6.21719E-2
-9.35668E-2,6.63375E-2
-9.05532E-2,7.03353E-2
-8.72383E-2,7.43217E-2
-8.42361E-2,7.74307E-2
-8.21304E-2,8.15162E-2
-7.89680E-2,8.55178E-2
-7.55310E-2,8.94050E-2
-7.15446E-2,9.33227E-2
-6.74705E-2,9.64546E-2
-6.36749E-2,9.90409E-2
-5.99556E-2,1.01852E-1
-5.65033E-2,1.04080E-1
-5.30014E-2,1.06353E-1
-4.98657E-2,1.09199E-1
-4.60395E-2,1.11999E-1
-4.18396E-2,1.14440E-1
-3.80249E-2,1.15535E-1
-3.58276E-2,1.17450E-1
-3.29170E-2,1.20655E-1
-2.91633E-2,1.23432E-1
-2.52838E-2,1.26686E-1
-2.00500E-2,1.29264E-1
-1.49002E-2,1.30378E-1
-1.01623E-2,1.31103E-1
-6.50024E-3,1.30775E-1
-3.31878E-3,1.31721E-1
0.00808E-1,1.32507E-1
0.04158E-1,1.32522E-1
0.07629E-1,1.32537E-1
0.10643E-1,1.32202E-1
0.13336E-1,1.32461E-1
0.16189E-1,1.32995E-1
0.20019E-1,1.33239E-1
0.23757E-1,1.32583E-1
0.27053E-1,1.31393E-1
0.29190E-1,1.30020E-1
0.30944E-1,1.30325E-1
0.33592E-1,1.30691E-1
0.36483E-1,1.30958E-1
0.39505E-1,1.31118E-1
0.42312E-1,1.32026E-1
0.46379E-1,1.33338E-1
0.51208E-1,1.33819E-1
0.56648E-1,1.34399E-1
0.62667E-1,1.33407E-1
0.68206E-1,1.30699E-1
0.71083E-1,1.28112E-1
0.74638E-1,1.27426E-1
0.77987E-1,1.26197E-1
0.82244E-1,1.25396E-1
8.68682E-2,1.24786E-1
9.18579E-2,1.22634E-1
9.63287E-2,1.20468E-1
1.01043E-1,1.18164E-1
1.05529E-1,1.14852E-1
1.09878E-1,1.11496E-1
1.138E-1,1.07345E-1
1.16661E-1,1.03408E-1
1.20964E-1,1.00555E-1
1.26403E-1,0.95794E-1
1.30340E-1,0.89218E-1
1.33270E-1,0.81710E-1
1.35688E-1,0.74264E-1
1.37710E-1,0.65750E-1
1.38168E-1,0.57479E-1
1.35734E-1,0.48553E-1
1.32331E-1,0.41351E-1
1.30920E-1,0.36239E-1
1.28479E-1,0.29968E-1
1.25244E-1,0.24169E-1
1.22070E-1,1.85089E-2
1.18682E-1,1.36413E-2
1.1586E-1,0.90332E-2
1.12266E-1,0.29830E-2
1.06712E-1,-1.49536E-3
1.00330E-1,-5.30242E-3
9.41581E-2,-7.44628E-3
8.84933E-2,-9.03701E-3
8.22067E-2,-9.26208E-3
7.75833E-2,-8.66699E-3
7.34748E-2,-8.95690E-3
6.84013E-2,-9.30404E-3
6.28509E-2,-8.94546E-3
5.64975E-2,-8.11958E-3
5.00412E-2,-5.41305E-3
4.52575E-2,-5.56945E-4
4.30717E-2,0.40016E-2
4.12044E-2,0.66661E-2
3.84178E-2,0.91571E-2
3.60508E-2,1.23214E-2
3.42502E-2,1.46102E-2
3.15761E-2,1.6922E-2
2.90546E-2,2.07653E-2
2.77404E-2,2.50930E-2
2.82135E-2,2.89535E-2
2.85987E-2,3.09829E-2
2.70805E-2,3.29589E-2
2.60543E-2,3.75289E-2
2.78625E-2,4.18052E-2
2.97737E-2,4.44717E-2
3.21197E-2,4.70581E-2
3.48968E-2,4.83779E-2
3.69148E-2,4.92973E-2
3.86657E-2,4.97779E-2
3.97453E-2,5.08728E-2
4.12025E-2,5.17654E-2
4.21867E-2,5.26771E-2
4.29496E-2,5.46226E-2
4.52232E-2,5.71250E-2
4.76417E-2,5.85022E-2
5.05905E-2,5.99975E-2
5.42907E-2,6.00967E-2
5.57403E-2,5.8815E-2
5.60913E-2,5.94177E-2
5.81741E-2,6.12793E-2
6.16378E-2,6.15539E-2
6.39343E-2,6.02111E-2
6.47964E-2,5.93795E-2
6.52122E-2,5.98373E-2
6.71157E-2,5.95321E-2
6.98242E-2,5.93566E-2
7.27691E-2,5.89599E-2
7.50579E-2,5.74340E-2
7.75604E-2,5.60607E-2
7.99102E-2,5.45196E-2
8.27941E-2,5.22613E-2
8.48236E-2,4.89349E-2
8.58917E-2,4.64630E-2
8.66088E-2,4.40673E-2
8.82720E-2,4.25109E-2
9.07592E-2,4.02069E-2
9.23919E-2,3.68042E-2
9.36584E-2,3.40194E-2
9.57870E-2,3.06053E-2
9.75379E-2,2.60467E-2
9.81903E-2,2.00576E-2
9.57298E-2,1.42784E-2
9.29489E-2,1.14784E-2
9.16824E-2,0.84724E-2
8.93058E-2,0.49324E-2
8.66279E-2,0.21820E-2
8.39576E-2,-4.08172E-4
8.09135E-2,-2.80380E-3
7.68661E-2,-4.56619E-3
7.36122E-2,-5.02395E-3
7.19528E-2,-6.00433E-3
7.01026E-2,-8.24356E-3
6.67533E-2,-1.12800E-2
6.22482E-2,-1.34334E-2
5.77716E-2,-1.44519E-2
5.34629E-2,-1.54495E-2
4.89311E-2,-1.55201E-2
4.52747E-2,-1.50947E-2
4.22649E-2,-1.54418E-2
3.87897E-2,-1.60293E-2
3.48930E-2,-1.68666E-2
3.03020E-2,-1.72510E-2
2.51665E-2,-1.69191E-2
1.97744E-2,-1.56574E-2
1.42750E-2,-1.30491E-2
1.05152E-2,-8.94784E-3
8.52584E-3,-5.38873E-3
6.20746E-3,-3.45921E-3
2.83300E-3,-5.68985E-4
-2.32935E-4,3.20923E-3
-2.80904E-3,7.52329E-3
-4.05788E-3,1.21555E-2
-5.06591E-3,1.59549E-2
-6.51550E-3,2.00872E-2
-7.75241E-3,2.49128E-2
-7.69901E-3,3.00359E-2
-7.04002E-3,3.47614E-2
-5.39016E-3,3.91311E-2
-3.53813E-3,4.23927E-2
-1.81388E-3,4.44793E-2
-1.37710E-3,4.6381E-2
-1.13678E-3,4.88452E-2
-1.11389E-3,5.17292E-2
0.00057E-2,5.54599E-2
0.30384E-2,5.8321E-2
0.57373E-2,5.88645E-2
0.65307E-2,5.91239E-2
0.72174E-2,6.06727E-2
0.86479E-2,6.19010E-2
1.03378E-2,6.26220E-2
1.20048E-2,6.30874E-2
1.37634E-2,6.26182E-2
1.42364E-2,6.20842E-2
1.51329E-2,6.24733E-2
1.63841E-2,6.17828E-2
1.66435E-2,6.00242E-2
1.43127E-2,5.91278E-2
1.27716E-2,6.09054E-2
1.21917E-2,6.26525E-2
1.24893E-2,6.50634E-2
1.35955E-2,6.59561E-2
1.36871E-2,6.66732E-2
1.30767E-2,6.77566E-2
1.26571E-2,6.94046E-2
1.25808E-2,7.11364E-2
1.20925E-2,7.25021E-2
1.15509E-2,7.50427E-2
1.19247E-2,7.67746E-2
1.09329E-2,7.8125E-2
0.96130E-2,8.09402E-2
0.92086E-2,8.48541E-2
0.96664E-2,8.83178E-2
1.06773E-2,9.14382E-2
1.15051E-2,9.44404E-2
1.22222E-2,9.72023E-2
1.36795E-2,1.00174E-1
1.53007E-2,1.02844E-1
1.63497E-2,1.05129E-1
1.77230E-2,1.07986E-1
1.97143E-2,1.11045E-1
2.24456E-2,1.13380E-1
2.49176E-2,1.15402E-1
2.75421E-2,1.17507E-1
3.02581E-2,1.18667E-1
3.23028E-2,1.20742E-1
3.48968E-2,1.22802E-1
0.37323E-1,1.25427E-1
0.41153E-1,1.28952E-1
0.46402E-1,1.31774E-1
0.51712E-1,1.33453E-1
0.56518E-1,1.34079E-1
0.61073E-1,1.34162E-1
0.65643E-1,1.33949E-1
0.70015E-1,1.34452E-1
0.73379E-1,1.34368E-1
0.77575E-1,1.35116E-1
0.82122E-1,1.36123E-1
0.87768E-1,1.36497E-1
0.93406E-1,1.35017E-1
0.97778E-1,1.33667E-1
1.02752E-1,1.31561E-1
1.07681E-1,1.29394E-1
1.11602E-1,1.26541E-1
1.15264E-1,1.22207E-1
1.17462E-1,1.18225E-1
1.19689E-1,1.15173E-1
1.20750E-1,1.12083E-1
1.22360E-1,1.09130E-1
1.24221E-1,1.07009E-1
1.26304E-1,1.03965E-1
1.28326E-1,1.00044E-1
1.29371E-1,0.95436E-1
1.29493E-1,0.91613E-1
1.29043E-1,0.88851E-1
1.29303E-1,0.86639E-1
1.29364E-1,0.84754E-1
1.30401E-1,0.81405E-1
1.29653E-1,0.77911E-1
1.27883E-1,0.76286E-1
1.27189E-1,0.76652E-1
1.29592E-1,0.76065E-1
1.30592E-1,0.73387E-1
1.30241E-1,0.71052E-1
1.29104E-1,0.69465E-1
1.28891E-1,0.68435E-1
1.28944E-1,0.67390E-1
1.28501E-1,0.66291E-1
1.28463E-1,0.65437E-1
1.28349E-1,0.64567E-1
1.28143E-1,0.63331E-1
1.27433E-1,0.62454E-1
1.26754E-1,0.61935E-1
1.26442E-1,0.61447E-1
1.25473E-1,0.60089E-1
1.23748E-1,6.08291E-2
1.23863E-1,6.19735E-2
1.24778E-1,6.20651E-2
1.25289E-1,0.60852E-1
1.25E-1,0.59936E-1
1.24725E-1,5.95855E-2
1.24374E-1,5.98907E-2
1.24877E-1,6.07299E-2
1.26022E-1,0.59997E-1
1.26937E-1,0.59051E-1
1.27456E-1,0.58914E-1
1.28913E-1,0.58105E-1
1.30622E-1,0.57014E-1
1.31866E-1,0.54817E-1
1.32446E-1,0.51239E-1
1.31462E-1,0.49720E-1
1.30271E-1,0.48820E-1
1.30554E-1,0.48332E-1
1.30867E-1,0.47721E-1
1.31202E-1,0.47218E-1
1.32064E-1,0.46157E-1
1.32873E-1,0.44616E-1
1.33552E-1,0.42488E-1
1.33674E-1,0.39642E-1
1.32232E-1,0.36727E-1
1.29196E-1,0.35141E-1
1.26815E-1,0.35263E-1
1.26571E-1,0.36453E-1
1.26373E-1,0.36590E-1
1.27182E-1,0.36270E-1
1.27227E-1,0.33584E-1
1.25824E-1,0.31936E-1
1.24420E-1,3.02124E-2
1.22512E-1,2.99911E-2
1.20948E-1,2.84500E-2
1.20117E-1,2.74581E-2
1.17149E-1,2.73895E-2
1.15402E-1,2.75573E-2
1.14593E-1,2.84652E-2
1.15058E-1,2.73971E-2
1.13952E-1,2.48107E-2
1.11778E-1,2.29644E-2
1.07528E-1,2.18353E-2
1.04484E-1,2.24075E-2
1.0186E-1,2.29454E-2
9.88655E-2,2.36969E-2
9.60197E-2,2.41203E-2
9.23156E-2,2.51045E-2
8.95347E-2,2.80342E-2
8.69026E-2,3.06472E-2
8.44879E-2,3.31802E-2
8.25767E-2,3.55758E-2
8.05854E-2,3.88908E-2
7.83577E-2,4.17175E-2
7.67059E-2,4.51545E-2
7.47833E-2,4.85649E-2
7.28988E-2,5.26847E-2
7.19451E-2,5.68313E-2
7.05032E-2,6.11801E-2
6.95419E-2,6.62231E-2
6.95571E-2,7.19070E-2
7.04422E-2,7.71865E-2
7.13882E-2,8.22525E-2
7.29675E-2,8.79974E-2
7.58056E-2,9.33990E-2
7.91931E-2,9.78546E-2
8.33816E-2,1.01875E-1
8.71048E-2,1.0466E-1
9.08203E-2,1.07887E-1
9.45739E-2,1.11007E-1
9.82360E-2,1.13494E-1
1.01272E-1,1.17141E-1
1.06308E-1,1.21307E-1
1.12838E-1,1.24282E-1
1.20590E-1,1.25228E-1
1.25732E-1,1.24893E-1
1.30279E-1,1.25183E-1
1.35818E-1,1.26464E-1
1.41693E-1,1.26373E-1
1.47262E-1,1.26068E-1
1.52847E-1,1.25152E-1
1.58142E-1,1.24588E-1
1.63818E-1,1.23291E-1
1.69296E-1,1.21200E-1
1.74652E-1,1.19171E-1
1.78604E-1,1.16180E-1
1.82220E-1,1.14303E-1
1.87530E-1,1.12869E-1
1.92230E-1,1.10397E-1
1.97052E-1,1.07803E-1
2.02713E-1,1.03897E-1
2.07412E-1,0.98724E-1
2.11456E-1,0.93338E-1
2.13562E-1,0.87783E-1
2.15042E-1,0.82977E-1
2.17071E-1,0.78231E-1
2.19284E-1,0.74142E-1
2.21557E-1,0.69091E-1
2.22442E-1,0.64209E-1
2.22808E-1,0.59738E-1
2.23465E-1,0.55526E-1
2.24700E-1,0.51651E-1
2.25677E-1,0.4776E-1
2.27188E-1,0.42724E-1
2.27752E-1,0.38360E-1
2.27722E-1,0.32638E-1
2.26463E-1,0.27565E-1
2.24487E-1,0.23445E-1
2.21824E-1,0.2034E-1
2.20954E-1,0.18882E-1
2.22106E-1,0.16487E-1
2.21107E-1,0.12420E-1
2.21008E-1,0.09094E-1
2.20199E-1,0.04768E-1
2.18147E-1,0.01922E-1
2.17330E-1,-8.16345E-4
2.15606E-1,-4.18853E-3
2.13233E-1,-7.09533E-3
2.10983E-1,-9.20105E-3
2.09350E-1,-1.06124E-2
2.07954E-1,-1.25656E-2
2.06092E-1,-1.46102E-2
2.04620E-1,-1.60827E-2
2.03254E-1,-1.77764E-2
2.02026E-1,-1.93328E-2
2.01293E-1,-2.03857E-2
2.00431E-1,-2.29339E-2
1.99234E-1,-2.51922E-2
1.97052E-1,-2.70614E-2
1.95205E-1,-2.85491E-2
1.92543E-1,-2.96249E-2
1.91017E-1,-3.06243E-2
1.89460E-1,-3.10897E-2
1.88133E-1,-3.19519E-2
1.86340E-1,-3.2341E-2
1.84906E-1,-3.24783E-2
1.84227E-1,-3.27987E-2
1.83708E-1,-3.33404E-2
1.82754E-1,-3.38363E-2
1.82563E-1,-3.42636E-2
1.82357E-1,-3.52706E-2
1.82083E-1,-3.78875E-2
1.80419E-1,-4.04281E-2
1.77314E-1,-4.18472E-2
1.74408E-1,-4.20455E-2
1.72119E-1,-4.21295E-2
1.70913E-1,-4.21676E-2
1.68678E-1,-4.23584E-2
1.66008E-1,-4.14352E-2
1.65489E-1,-4.05807E-2
1.65267E-1,-4.04739E-2
1.65367E-1,-4.15802E-2
1.63353E-1,-4.24804E-2
1.60903E-1,-4.30526E-2
1.59065E-1,-4.17099E-2
1.58737E-1,-3.97644E-2
1.59797E-1,-3.96270E-2
1.59729E-1,-4.07943E-2
1.57966E-1,-4.23126E-2
1.55342E-1,-4.16641E-2
1.53808E-1,-3.96575E-2
1.54167E-1,-3.77044E-2
1.54434E-1,-3.80554E-2
1.53884E-1,-3.79562E-2
1.53183E-1,-3.83224E-2
1.51756E-1,-3.74374E-2
1.50993E-1,-3.68042E-2
1.50543E-1,-3.62548E-2
1.49276E-1,-3.48587E-2
1.48841E-1,-3.36151E-2
1.48727E-1,-3.27377E-2
1.48559E-1,-3.14407E-2
1.48254E-1,-3.00521E-2
1.48529E-1,-2.87475E-2
1.48712E-1,-2.86483E-2
1.48078E-1,-2.87399E-2
1.46919E-1,-2.85720E-2
1.46453E-1,-2.70004E-2
1.45957E-1,-2.52380E-2
1.45774E-1,-2.37960E-2
1.45408E-1,-2.30331E-2
1.45088E-1,-2.15683E-2
1.45713E-1,-1.98898E-2
1.45660E-1,-1.87225E-2
1.45149E-1,-1.66320E-2
1.44973E-1,-1.35879E-2
1.48002E-1,-1.09024E-2
1.50528E-1,-9.83429E-3
1.51603E-1,-9.57489E-3
1.51542E-1,-7.50732E-3
1.53183E-1,-4.76837E-3
1.56806E-1,-2.49481E-3
1.60049E-1,-2.44140E-3
1.61483E-1,-1.44958E-3
1.62834E-1,-2.05993E-4
1.65145E-1,0.01503E-1
1.67877E-1,0.02555E-1
1.70188E-1,0.03746E-1
1.72386E-1,0.05073E-1
1.75804E-1,0.06576E-1
1.79122E-1,0.07453E-1
1.82609E-1,0.07995E-1
1.86218E-1,0.08651E-1
1.90719E-1,0.08651E-1
1.94641E-1,0.07263E-1
1.97601E-1,0.06919E-1
2.00859E-1,0.05973E-1
2.04978E-1,0.05027E-1
2.08946E-1,0.03280E-1
2.12234E-1,0.00862E-1
2.15744E-1,-1.19781E-3
2.18849E-1,-3.80706E-3
2.21756E-1,-6.57653E-3
2.24105E-1,-8.91113E-3
2.27508E-1,-1.15966E-2
2.30155E-1,-1.40914E-2
2.33482E-1,-1.72805E-2
2.36991E-1,-2.01339E-2
2.40463E-1,-2.47345E-2
2.42881E-1,-2.93273E-2
2.44331E-1,-3.45230E-2
2.44934E-1,-3.85208E-2
2.45994E-1,-4.21142E-2
2.47650E-1,-4.64935E-2
2.47886E-1,-5.03692E-2
2.48519E-1,-5.32226E-2
2.49435E-1,-5.67627E-2
2.50534E-1,-6.11572E-2
2.51129E-1,-6.55212E-2
2.50412E-1,-6.92749E-2
2.49961E-1,-7.38983E-2
2.49816E-1,-7.83462E-2
2.47596E-1,-8.18939E-2
2.46093E-1,-8.45336E-2
2.44911E-1,-8.74176E-2
2.44918E-1,-9.06753E-2
2.44018E-1,-9.43908E-2
2.41767E-1,-9.83581E-2
2.40676E-1,-1.01623E-1
2.38952E-1,-1.04835E-1
2.36808E-1,-1.07597E-1
2.35275E-1,-1.10366E-1
2.33299E-1,-1.12899E-1
2.31590E-1,-1.15249E-1
2.29934E-1,-1.18209E-1
2.27973E-1,-1.20086E-1
2.27645E-1,-1.21948E-1
2.26905E-1,-1.24885E-1
2.25288E-1,-1.28150E-1
2.23259E-1,-1.30683E-1
2.21084E-1,-1.32812E-1
2.20092E-1,-1.33232E-1
2.18971E-1,-1.35513E-1
2.18284E-1,-1.37207E-1
2.17788E-1,-1.38938E-1
2.17445E-1,-1.41029E-1
2.16323E-1,-1.43692E-1
2.15469E-1,-1.46797E-1
2.14279E-1,-1.49154E-1
2.11761E-1,-1.52000E-1
2.09938E-1,-1.53961E-1
2.07977E-1,-1.56463E-1
2.05818E-1,-1.58691E-1
2.03094E-1,-1.60568E-1
2.00073E-1,-1.61842E-1
1.98089E-1,-1.62437E-1
1.96846E-1,-1.63772E-1
1.95449E-1,-1.65855E-1
1.93252E-1,-1.68968E-1
1.90780E-1,-1.71043E-1
1.88346E-1,-1.72866E-1
1.85974E-1,-1.75155E-1
1.82991E-1,-1.77673E-1
1.78833E-1,-1.79794E-1
1.75590E-1,-1.80748E-1
1.72172E-1,-1.82243E-1
1.69441E-1,-1.82373E-1
1.66450E-1,-1.84303E-1
1.64367E-1,-1.84722E-1
1.62399E-1,-1.86065E-1
1.59156E-1,-1.87507E-1
1.55578E-1,-1.875E-1
1.53984E-1,-1.87469E-1
1.52183E-1,-1.88537E-1
1.49826E-1,-1.89903E-1
1.47239E-1,-1.90895E-1
1.44187E-1,-1.90849E-1
1.42242E-1,-1.90734E-1
1.39480E-1,-1.91803E-1
1.36070E-1,-1.92710E-1
1.32858E-1,-1.93061E-1
1.29417E-1,-1.92138E-1
1.26091E-1,-1.90963E-1
1.23092E-1,-1.89353E-1
1.20796E-1,-1.88064E-1
1.18804E-1,-1.87187E-1
1.16462E-1,-1.86477E-1
1.13876E-1,-1.85340E-1
1.10611E-1,-1.83715E-1
1.0849E-1,-1.82724E-1
1.06170E-1,-1.81404E-1
1.03004E-1,-1.8013E-1
0.99876E-1,-1.77810E-1
0.97366E-1,-1.75102E-1
0.96130E-1,-1.71768E-1
0.95901E-1,-1.68693E-1
0.95909E-1,-1.66709E-1
0.95573E-1,-1.65046E-1
0.95336E-1,-1.63765E-1
0.95100E-1,-1.61705E-1
0.95481E-1,-1.60423E-1
0.95794E-1,-1.59469E-1
0.95306E-1,-1.58584E-1
0.95008E-1,-1.57897E-1
0.94276E-1,-1.55372E-1
0.94421E-1,-1.53251E-1
0.95649E-1,-1.50779E-1
0.97976E-1,-1.49116E-1
0.99525E-1,-1.48864E-1
1.00608E-1,-1.48216E-1
1.01799E-1,-1.47308E-1
1.03080E-1,-1.46484E-1
1.04972E-1,-1.45408E-1
1.07055E-1,-1.45820E-1
1.07490E-1,-1.45736E-1
1.08810E-1,-1.45484E-1
1.09657E-1,-1.44752E-1
1.12014E-1,-1.44584E-1
1.13548E-1,-1.45431E-1
1.14723E-1,-1.46705E-1
1.14921E-1,-1.47071E-1
1.15837E-1,-1.47247E-1
1.16760E-1,-1.48643E-1
1.17248E-1,-1.49734E-1
1.17378E-1,-1.50863E-1
1.17057E-1,-1.51023E-1
1.18202E-1,-1.52023E-1
1.18148E-1,-1.53083E-1
1.18476E-1,-1.54434E-1
1.18576E-1,-1.55509E-1
1.18263E-1,-1.56326E-1
1.18995E-1,-1.56967E-1
1.19674E-1,-1.58233E-1
1.18064E-1,-1.60354E-1
1.18110E-1,-1.62010E-1
1.18576E-1,-1.63795E-1
1.19407E-1,-1.65359E-1
1.19712E-1,-1.68319E-1
1.19621E-1,-1.70234E-1
1.20361E-1,-1.73027E-1
1.19758E-1,-1.76132E-1
1.18278E-1,-1.79573E-1
1.17027E-1,-1.81884E-1
1.15135E-1,-1.83555E-1
1.14151E-1,-1.85218E-1
1.12968E-1,-1.86904E-1
1.11785E-1,-1.88888E-1
1.10839E-1,-1.90490E-1
1.09428E-1,-1.92009E-1
1.08795E-1,-1.94007E-1
1.08009E-1,-1.96197E-1
1.06552E-1,-1.98761E-1
1.04476E-1,-2.01118E-1
1.01593E-1,-2.0327E-1
1.00006E-1,-2.04902E-1
0.97457E-1,-2.05452E-1
0.95550E-1,-2.07542E-1
0.92506E-1,-2.09533E-1
0.89492E-1,-2.10311E-1
0.86341E-1,-2.09976E-1
0.84465E-1,-2.10365E-1
