CITIFILE A.01.00
#NA VERSION HP8720D.06.14
NAME DATA
VAR FREQ MAG 1601
DATA S[1,1] RI

SEG_LIST_BEGIN
SEG 1000000000 8000000000 1601
SEG_LIST_END
BEGIN
2.09259E-1,-4.28512E-1
1.90673E-1,-4.26071E-1
1.72973E-1,-4.24850E-1
1.56890E-1,-4.22302E-1
1.43554E-1,-4.21630E-1
1.28997E-1,-4.23461E-1
1.09863E-1,-4.25506E-1
0.90789E-1,-4.24148E-1
0.70785E-1,-4.20822E-1
0.51742E-1,-4.13711E-1
0.34332E-1,-4.05670E-1
0.18539E-1,-3.94821E-1
0.07110E-1,-3.83117E-1
0.00045E-1,-3.73001E-1
-7.59887E-3,-3.65707E-1
-1.49078E-2,-3.58947E-1
-2.14080E-2,-3.52539E-1
-2.78015E-2,-3.46649E-1
-3.44848E-2,-3.41964E-1
-4.06646E-2,-3.37112E-1
-4.57458E-2,-3.32321E-1
-5.11474E-2,-3.30444E-1
-5.92651E-2,-3.29559E-1
-6.97021E-2,-3.26568E-1
-7.97576E-2,-3.20602E-1
-8.66088E-2,-3.14575E-1
-9.37652E-2,-3.10226E-1
-1.01760E-1,-3.06488E-1
-1.10824E-1,-3.01376E-1
-1.18560E-1,-2.93289E-1
-1.24557E-1,-2.86132E-1
-1.28967E-1,-2.79235E-1
-1.31759E-1,-2.74520E-1
-1.35299E-1,-2.71972E-1
-1.39968E-1,-2.69470E-1
-1.45996E-1,-2.68447E-1
-1.5242E-1,-2.66677E-1
-1.59637E-1,-2.63519E-1
-1.66000E-1,-2.60818E-1
-1.74057E-1,-2.556E-1
-1.80618E-1,-2.55447E-1
-1.90033E-1,-2.55127E-1
-2.02362E-1,-2.52975E-1
-2.14157E-1,-2.48580E-1
-2.24639E-1,-2.42904E-1
-2.36373E-1,-2.36984E-1
-2.47421E-1,-2.29629E-1
-2.57736E-1,-2.19085E-1
-2.66479E-1,-2.10968E-1
-2.75482E-1,-2.01919E-1
-2.85980E-1,-1.91574E-1
-2.95211E-1,-1.80236E-1
-3.02841E-1,-1.67144E-1
-3.08609E-1,-1.54632E-1
-3.14514E-1,-1.42501E-1
-3.20098E-1,-1.30966E-1
-3.26400E-1,-1.18637E-1
-3.31466E-1,-1.04110E-1
-3.35586E-1,-9.04693E-2
-3.38699E-1,-7.47680E-2
-3.38165E-1,-5.98754E-2
-3.36273E-1,-4.76379E-2
-3.35769E-1,-3.79943E-2
-3.37432E-1,-2.88848E-2
-3.39538E-1,-1.64337E-2
-3.39340E-1,-4.57763E-3
-3.3815E-1,0.06271E-1
-3.37829E-1,0.17593E-1
-3.36135E-1,0.29144E-1
-3.32428E-1,0.38192E-1
-3.30291E-1,0.45440E-1
-3.30429E-1,0.50643E-1
-3.33969E-1,0.58685E-1
-3.37402E-1,0.69915E-1
-3.39538E-1,0.82122E-1
-3.40255E-1,0.97274E-1
-3.38012E-1,1.12289E-1
-3.33511E-1,1.27227E-1
-3.25607E-1,1.39160E-1
-3.19305E-1,1.48620E-1
-3.14895E-1,1.56402E-1
-3.11264E-1,1.64138E-1
-3.08807E-1,1.73431E-1
-3.08441E-1,1.83044E-1
-3.05328E-1,1.95907E-1
-3.00628E-1,2.08984E-1
-2.96371E-1,2.20764E-1
-2.90817E-1,2.32467E-1
-2.84423E-1,2.45132E-1
-2.77481E-1,2.56622E-1
-2.70416E-1,2.67791E-1
-2.61581E-1,2.79785E-1
-2.52487E-1,2.91198E-1
-2.42172E-1,3.01666E-1
-2.29965E-1,3.11401E-1
-2.18536E-1,3.18481E-1
-2.08114E-1,3.24920E-1
-1.97296E-1,3.31314E-1
-1.875E-1,3.36593E-1
-1.79199E-1,3.42117E-1
-1.70822E-1,3.49716E-1
-1.60583E-1,3.58612E-1
-1.47979E-1,3.66653E-1
-1.35238E-1,3.73107E-1
-1.22451E-1,3.78356E-1
-1.10000E-1,3.83239E-1
-9.66491E-2,3.86856E-1
-8.41369E-2,3.90396E-1
-7.22351E-2,3.94958E-1
-5.86700E-2,3.98864E-1
-4.46624E-2,4.03198E-1
-2.80914E-2,4.05151E-1
-1.26495E-2,4.05197E-1
0.00564E-1,4.03396E-1
0.12344E-1,4.01702E-1
0.23956E-1,4.00528E-1
0.33737E-1,4.00711E-1
0.46661E-1,4.03152E-1
0.61019E-1,4.05777E-1
0.76370E-1,4.05014E-1
0.92956E-1,4.03747E-1
1.09222E-1,3.99841E-1
1.25274E-1,3.94805E-1
1.40258E-1,3.88305E-1
1.53595E-1,3.80737E-1
1.66076E-1,3.74542E-1
1.79199E-1,3.67309E-1
1.92413E-1,3.58703E-1
2.03613E-1,3.49121E-1
2.13989E-1,3.40545E-1
2.24853E-1,3.31512E-1
2.35656E-1,3.22265E-1
2.46978E-1,3.13110E-1
2.56897E-1,3.02093E-1
2.66601E-1,2.91839E-1
2.74505E-1,2.80059E-1
2.84698E-1,2.67272E-1
2.92205E-1,2.53723E-1
2.98889E-1,2.39135E-1
3.02917E-1,2.26318E-1
3.07983E-1,2.14172E-1
3.12377E-1,2.01599E-1
3.16101E-1,1.87713E-1
3.18740E-1,1.74408E-1
3.20220E-1,1.61865E-1
3.2164E-1,1.51031E-1
3.24218E-1,1.38092E-1
3.23822E-1,1.24664E-1
3.22555E-1,1.13983E-1
3.22662E-1,1.0495E-1
3.24005E-1,0.95077E-1
3.25561E-1,0.83618E-1
3.25622E-1,0.72662E-1
3.25897E-1,0.61828E-1
3.25744E-1,0.50079E-1
3.24981E-1,0.38024E-1
3.24783E-1,0.26367E-1
3.24783E-1,0.13656E-1
3.23211E-1,-5.95092E-4
3.19107E-1,-1.44653E-2
3.13476E-1,-2.78015E-2
3.07159E-1,-4.03900E-2
2.99240E-1,-5.21087E-2
2.91320E-1,-6.34460E-2
2.81723E-1,-7.29370E-2
2.72949E-1,-8.10394E-2
2.63793E-1,-8.83178E-2
2.54516E-1,-9.35363E-2
2.46765E-1,-9.84039E-2
2.39379E-1,-1.04873E-1
2.29782E-1,-1.10366E-1
2.20603E-1,-1.13105E-1
2.14790E-1,-1.14975E-1
2.10914E-1,-1.18339E-1
2.06596E-1,-1.25274E-1
1.99249E-1,-1.33712E-1
1.87934E-1,-1.39968E-1
1.78093E-1,-1.42219E-1
1.70753E-1,-1.44104E-1
1.63017E-1,-1.46789E-1
1.55509E-1,-1.48376E-1
1.48658E-1,-1.50505E-1
1.42272E-1,-1.53251E-1
1.35543E-1,-1.56364E-1
1.27441E-1,-1.5905E-1
1.19606E-1,-1.59744E-1
1.12770E-1,-1.60408E-1
1.06567E-1,-1.61956E-1
0.99700E-1,-1.63085E-1
0.95115E-1,-1.64558E-1
0.89607E-1,-1.69303E-1
0.80864E-1,-1.74247E-1
0.69221E-1,-1.77055E-1
0.58036E-1,-1.76895E-1
0.47470E-1,-1.75270E-1
0.39115E-1,-1.73645E-1
0.30426E-1,-1.72920E-1
0.20233E-1,-1.71592E-1
0.10520E-1,-1.68418E-1
0.01480E-1,-1.64550E-1
-6.34765E-3,-1.60743E-1
-1.56173E-2,-1.55822E-1
-2.39105E-2,-1.51893E-1
-3.22418E-2,-1.47079E-1
-3.94897E-2,-1.41876E-1
-4.6875E-2,-1.37291E-1
-5.30395E-2,-1.31042E-1
-5.93872E-2,-1.25412E-1
-6.55975E-2,-1.19125E-1
-7.16857E-2,-1.13075E-1
-7.60879E-2,-1.06330E-1
-8.04977E-2,-9.98611E-2
-8.42971E-2,-9.35897E-2
-8.78448E-2,-8.72497E-2
-9.09500E-2,-8.05206E-2
-9.41314E-2,-7.48214E-2
-9.68246E-2,-6.89010E-2
-1.00387E-1,-6.27288E-2
-1.03469E-1,-5.59768E-2
-1.05926E-1,-4.87976E-2
-1.08390E-1,-4.22134E-2
-1.10900E-1,-3.43017E-2
-1.13754E-1,-2.61154E-2
-1.14112E-1,-1.64871E-2
-1.12995E-1,-8.30459E-3
-1.12026E-1,-1.16729E-3
-1.11431E-1,0.57601E-2
-1.10088E-1,1.32789E-2
-1.08100E-1,1.99165E-2
-1.05762E-1,2.53295E-2
-1.05274E-1,3.03955E-2
-1.05384E-1,3.65142E-2
-1.04702E-1,4.42924E-2
-1.01787E-1,5.20744E-2
-9.76600E-2,5.82618E-2
-9.39254E-2,6.32057E-2
-9.01451E-2,6.75621E-2
-8.70971E-2,7.17887E-2
-8.34922E-2,7.60955E-2
-7.97271E-2,7.91931E-2
-7.67707E-2,8.28437E-2
-7.33223E-2,8.63533E-2
-6.97822E-2,8.94775E-2
-6.57081E-2,9.22584E-2
-6.15234E-2,9.41391E-2
-5.91201E-2,9.57756E-2
-5.66711E-2,9.84497E-2
-5.37719E-2,1.00982E-1
-5.06820E-2,1.03508E-1
-4.80346E-2,1.06346E-1
-4.49829E-2,1.09046E-1
-4.16755E-2,1.12007E-1
-3.85704E-2,1.14505E-1
-3.57856E-2,1.17889E-1
-3.20243E-2,1.21624E-1
-2.72445E-2,1.24916E-1
-2.23541E-2,1.27830E-1
-1.66931E-2,1.29859E-1
-1.14364E-2,1.30867E-1
-6.30188E-3,1.31538E-1
-1.83868E-3,1.31195E-1
0.02212E-1,1.31057E-1
0.06187E-1,1.30973E-1
0.09986E-1,1.29905E-1
0.12634E-1,1.28799E-1
0.15327E-1,1.28356E-1
0.17532E-1,1.27899E-1
0.19683E-1,1.28112E-1
0.23269E-1,1.28494E-1
0.26931E-1,1.27304E-1
0.29678E-1,1.25915E-1
3.16009E-2,1.24465E-1
3.29208E-2,1.24099E-1
3.49655E-2,1.23642E-1
3.66668E-2,1.23642E-1
3.88336E-2,1.24023E-1
4.10919E-2,1.24992E-1
0.44036E-1,1.26442E-1
0.47966E-1,1.27700E-1
0.52742E-1,1.27777E-1
0.57479E-1,1.27990E-1
0.62713E-1,1.26884E-1
0.66352E-1,1.25495E-1
7.02819E-2,1.24588E-1
7.33108E-2,1.23024E-1
7.6828E-2,1.23283E-1
8.10394E-2,1.22924E-1
8.56475E-2,1.22009E-1
9.00726E-2,1.20773E-1
9.49401E-2,1.19628E-1
1.00112E-1,1.17858E-1
1.05682E-1,1.15051E-1
1.10511E-1,1.12022E-1
1.15402E-1,1.08268E-1
1.20819E-1,1.03973E-1
1.26266E-1,0.98449E-1
1.30561E-1,0.91674E-1
1.34254E-1,0.83915E-1
1.36825E-1,0.75874E-1
1.37886E-1,0.67001E-1
1.37931E-1,0.58609E-1
1.36398E-1,0.50155E-1
1.34292E-1,0.43113E-1
1.32270E-1,0.36483E-1
1.30096E-1,0.30258E-1
1.27059E-1,0.23651E-1
1.23214E-1,1.78222E-2
1.19949E-1,1.37634E-2
1.17225E-1,0.85678E-2
1.13197E-1,0.29068E-2
1.08024E-1,-1.97601E-3
1.01917E-1,-5.41305E-3
9.58824E-2,-7.57598E-3
9.04502E-2,-9.33837E-3
8.45260E-2,-1.03607E-2
7.92808E-2,-1.01814E-2
7.49816E-2,-1.00097E-2
7.05299E-2,-1.00936E-2
6.55822E-2,-9.75418E-3
6.04171E-2,-9.62448E-3
5.44529E-2,-8.44383E-3
4.88700E-2,-5.23376E-3
4.54444E-2,-1.47819E-3
4.28504E-2,0.12741E-2
3.99208E-2,0.30746E-2
3.68404E-2,0.55503E-2
3.38840E-2,0.78544E-2
3.07769E-2,1.02329E-2
2.75116E-2,1.33056E-2
2.46429E-2,1.73378E-2
2.38685E-2,2.17285E-2
2.30331E-2,2.43187E-2
2.10743E-2,2.74391E-2
1.99813E-2,3.22856E-2
2.09026E-2,3.68232E-2
2.19936E-2,4.00905E-2
2.34413E-2,4.34455E-2
2.51350E-2,4.62989E-2
2.69165E-2,4.88243E-2
2.90107E-2,5.11055E-2
3.06930E-2,5.32760E-2
3.27415E-2,5.55381E-2
3.51982E-2,5.77659E-2
3.75328E-2,5.97267E-2
4.05769E-2,6.17866E-2
4.38232E-2,6.26602E-2
4.63409E-2,6.35833E-2
4.91485E-2,6.43463E-2
5.16281E-2,6.45752E-2
5.32913E-2,6.54068E-2
5.61218E-2,6.68945E-2
5.99517E-2,6.67724E-2
6.24237E-2,6.55822E-2
6.36062E-2,6.49185E-2
6.48040E-2,6.55288E-2
6.80160E-2,6.56433E-2
7.11517E-2,6.52694E-2
7.46917E-2,6.47659E-2
7.80792E-2,6.29119E-2
8.17108E-2,6.09588E-2
8.49762E-2,5.81817E-2
8.76922E-2,5.44586E-2
8.97216E-2,5.06134E-2
9.12017E-2,4.71038E-2
9.21325E-2,4.33502E-2
9.31854E-2,4.01763E-2
9.44366E-2,3.64685E-2
9.45663E-2,3.24783E-2
9.44938E-2,2.93197E-2
9.51843E-2,2.61993E-2
9.59320E-2,2.18009E-2
9.55390E-2,1.63841E-2
9.23385E-2,1.17416E-2
8.93631E-2,0.93994E-2
8.75968E-2,0.69084E-2
8.50563E-2,0.40321E-2
8.21151E-2,0.22163E-2
7.96470E-2,0.04882E-2
7.69805E-2,-1.93405E-3
7.30361E-2,-3.72314E-3
6.95762E-2,-4.14276E-3
6.69479E-2,-4.71496E-3
6.42547E-2,-5.90515E-3
6.12354E-2,-6.89888E-3
5.79738E-2,-7.87925E-3
5.52005E-2,-8.71467E-3
5.17883E-2,-1.04885E-2
4.70733E-2,-1.12724E-2
4.32910E-2,-1.09405E-2
3.98998E-2,-1.14173E-2
3.55472E-2,-1.14421E-2
3.16181E-2,-1.10797E-2
2.77910E-2,-1.06010E-2
2.33240E-2,-9.96017E-3
1.81083E-2,-8.12530E-3
1.37414E-2,-4.25672E-3
1.17163E-2,-2.26020E-4
1.07083E-2,2.49624E-3
8.73994E-3,4.26340E-3
5.85126E-3,6.51884E-3
2.65598E-3,1.01890E-2
0.75435E-3,1.53722E-2
0.09889E-2,2.02007E-2
0.15287E-2,2.33316E-2
0.11463E-2,2.60810E-2
0.05741E-2,2.92358E-2
0.00076E-2,3.30848E-2
0.05149E-2,3.72657E-2
0.19035E-2,4.09202E-2
0.36125E-2,4.33845E-2
0.46615E-2,4.48608E-2
0.44498E-2,4.62493E-2
0.38776E-2,4.91046E-2
0.41389E-2,5.22689E-2
0.55656E-2,5.54180E-2
0.77285E-2,5.77697E-2
0.99639E-2,5.89408E-2
1.10778E-2,5.95474E-2
1.22528E-2,6.05926E-2
1.35765E-2,6.12716E-2
1.49650E-2,6.17637E-2
1.64604E-2,6.19506E-2
1.77116E-2,6.15348E-2
1.79519E-2,6.10008E-2
1.83639E-2,6.11801E-2
1.87454E-2,6.12640E-2
1.91421E-2,6.05392E-2
1.77841E-2,5.97839E-2
1.63040E-2,6.11724E-2
1.54342E-2,6.29653E-2
1.58767E-2,6.55593E-2
1.71203E-2,6.70547E-2
1.79901E-2,6.77719E-2
1.76467E-2,6.85958E-2
1.67846E-2,7.05947E-2
1.69372E-2,7.31582E-2
1.80511E-2,7.56073E-2
1.94015E-2,7.72705E-2
2.01568E-2,7.81173E-2
1.98669E-2,7.90100E-2
1.92642E-2,8.10623E-2
1.93939E-2,8.39691E-2
2.00729E-2,8.68148E-2
2.18124E-2,8.92715E-2
2.36053E-2,9.05838E-2
2.42233E-2,9.14917E-2
2.47573E-2,9.31091E-2
2.57034E-2,9.53140E-2
2.72140E-2,9.68093E-2
2.88543E-2,9.78012E-2
2.98004E-2,9.83963E-2
3.02124E-2,9.93881E-2
3.09143E-2,1.01150E-1
3.23638E-2,1.02859E-1
3.33099E-2,1.05163E-1
3.53393E-2,1.07345E-1
3.75366E-2,1.08886E-1
3.94897E-2,1.10992E-1
4.16717E-2,1.12701E-1
4.48913E-2,1.15020E-1
4.78134E-2,1.16676E-1
5.08041E-2,1.18148E-1
5.40237E-2,1.20246E-1
5.76095E-2,1.22055E-1
6.17370E-2,1.23565E-1
6.60705E-2,1.24527E-1
0.70159E-1,1.25137E-1
0.74096E-1,1.25915E-1
0.79086E-1,1.26464E-1
0.83496E-1,1.25671E-1
0.87265E-1,1.25015E-1
9.09423E-2,1.24221E-1
9.52301E-2,1.2323E-1
9.94720E-2,1.22116E-1
1.03546E-1,1.19552E-1
1.06567E-1,1.16210E-1
1.08398E-1,1.13616E-1
1.10107E-1,1.11328E-1
1.12365E-1,1.09718E-1
1.15150E-1,1.07643E-1
1.18118E-1,1.04339E-1
1.20483E-1,1.00631E-1
1.21917E-1,9.66339E-2
1.22222E-1,9.30328E-2
1.21948E-1,9.07745E-2
1.23199E-1,8.81118E-2
1.23909E-1,8.56399E-2
1.24229E-1,8.20007E-2
1.23214E-1,7.88955E-2
1.21818E-1,7.75909E-2
1.21620E-1,7.74307E-2
1.23107E-1,7.65533E-2
1.23909E-1,7.44171E-2
1.23786E-1,7.18383E-2
1.22810E-1,7.11364E-2
1.23199E-1,7.09533E-2
1.23741E-1,6.93206E-2
1.23886E-1,6.83136E-2
1.24221E-1,6.71997E-2
1.23893E-1,6.54907E-2
1.23321E-1,6.41098E-2
1.22070E-1,6.30035E-2
1.20956E-1,6.24389E-2
1.20132E-1,6.18438E-2
1.18614E-1,6.19354E-2
1.17889E-1,6.20575E-2
1.16668E-1,6.30569E-2
1.17019E-1,6.35986E-2
1.17721E-1,6.30798E-2
1.17340E-1,6.23779E-2
1.16684E-1,6.25762E-2
1.16210E-1,6.32324E-2
1.16424E-1,6.37054E-2
1.17218E-1,6.42089E-2
1.17599E-1,6.39343E-2
1.18286E-1,6.47888E-2
1.20086E-1,6.50329E-2
1.22497E-1,6.38275E-2
1.23710E-1,6.25305E-2
1.24557E-1,6.05545E-2
1.24015E-1,5.86013E-2
1.23367E-1,5.82885E-2
1.23466E-1,5.85403E-2
1.24397E-1,5.91583E-2
1.26022E-1,0.58601E-1
1.27525E-1,0.58029E-1
1.29097E-1,0.56686E-1
1.29791E-1,0.54809E-1
1.30577E-1,0.52780E-1
1.29882E-1,0.50659E-1
1.28921E-1,0.49301E-1
1.28089E-1,0.48645E-1
1.27838E-1,0.48294E-1
1.27288E-1,0.48568E-1
1.27899E-1,0.48553E-1
1.28616E-1,0.46264E-1
1.27792E-1,0.44036E-1
1.26373E-1,0.43472E-1
1.25793E-1,0.43487E-1
1.25091E-1,0.42640E-1
1.24931E-1,4.19998E-2
1.24031E-1,4.13284E-2
1.23626E-1,4.07409E-2
1.23855E-1,4.01916E-2
1.24244E-1,3.80477E-2
1.22963E-1,3.60412E-2
1.21383E-1,3.40881E-2
1.18835E-1,3.24173E-2
1.15730E-1,3.18450E-2
1.12518E-1,3.24325E-2
1.10733E-1,3.39355E-2
1.09100E-1,3.42559E-2
1.06918E-1,3.46984E-2
1.05201E-1,3.56521E-2
1.03179E-1,3.65600E-2
1.01043E-1,3.74755E-2
9.81750E-2,3.91540E-2
9.57641E-2,4.16030E-2
9.37805E-2,4.48379E-2
9.23461E-2,4.76837E-2
9.14688E-2,5.09109E-2
9.08355E-2,5.36804E-2
9.02099E-2,5.62744E-2
8.88443E-2,5.96084E-2
8.84780E-2,6.27212E-2
8.79440E-2,6.68563E-2
8.83865E-2,7.08007E-2
8.90121E-2,7.43179E-2
8.96148E-2,7.85598E-2
9.12246E-2,8.27865E-2
9.45053E-2,8.66546E-2
9.72137E-2,8.89816E-2
9.87854E-2,9.11941E-2
1.00822E-1,9.49020E-2
1.04492E-1,9.81521E-2
1.07925E-1,1.00158E-1
1.11526E-1,1.03134E-1
1.15295E-1,1.05621E-1
1.20727E-1,1.07605E-1
1.25778E-1,1.07894E-1
1.29493E-1,1.07910E-1
1.32453E-1,1.08871E-1
1.36703E-1,1.10603E-1
1.41746E-1,1.11328E-1
1.46499E-1,1.11648E-1
1.51397E-1,1.11984E-1
1.56906E-1,1.10885E-1
1.62124E-1,1.10153E-1
1.66976E-1,1.08932E-1
1.71112E-1,1.06521E-1
1.75140E-1,1.04568E-1
1.78283E-1,1.02066E-1
1.82861E-1,1.00723E-1
1.86874E-1,0.98831E-1
1.91299E-1,0.96633E-1
1.96121E-1,0.93368E-1
1.99386E-1,0.88531E-1
2.02301E-1,0.84579E-1
2.04193E-1,0.80749E-1
2.06420E-1,0.77529E-1
2.08999E-1,0.74462E-1
2.12585E-1,0.71121E-1
2.15744E-1,0.65887E-1
2.17392E-1,0.60592E-1
2.18414E-1,0.55603E-1
2.18994E-1,0.50750E-1
2.19406E-1,0.46493E-1
2.19741E-1,0.43136E-1
2.20489E-1,0.39306E-1
2.21115E-1,0.35209E-1
2.21878E-1,0.31494E-1
2.21595E-1,0.26275E-1
2.20901E-1,0.21987E-1
2.19635E-1,0.18592E-1
2.19070E-1,0.15983E-1
2.19650E-1,0.12794E-1
2.19818E-1,0.08407E-1
2.19101E-1,0.03791E-1
2.16774E-1,-8.23974E-4
2.13752E-1,-4.19616E-3
2.12150E-1,-6.76727E-3
2.10365E-1,-9.42993E-3
2.08129E-1,-1.23214E-2
2.05604E-1,-1.50909E-2
2.03262E-1,-1.68457E-2
2.01339E-1,-1.82495E-2
1.98982E-1,-2.12936E-2
1.95816E-1,-2.31246E-2
1.93069E-1,-2.39410E-2
1.91032E-1,-2.43988E-2
1.90147E-1,-2.43530E-2
1.88720E-1,-2.54440E-2
1.87599E-1,-2.73590E-2
1.85157E-1,-2.83966E-2
1.8396E-1,-2.90985E-2
1.81968E-1,-3.01818E-2
1.79557E-1,-3.06167E-2
1.77742E-1,-3.05099E-2
1.76506E-1,-3.09906E-2
1.74285E-1,-3.09600E-2
1.72683E-1,-3.0159E-2
1.71310E-1,-2.95944E-2
1.70814E-1,-2.95257E-2
1.70036E-1,-2.83508E-2
1.70097E-1,-2.80532E-2
1.70372E-1,-2.79007E-2
1.70311E-1,-2.91290E-2
1.69677E-1,-3.07388E-2
1.67289E-1,-3.18298E-2
1.65069E-1,-3.19366E-2
1.63414E-1,-3.13568E-2
1.62597E-1,-3.12194E-2
1.60957E-1,-3.04565E-2
1.59858E-1,-2.94036E-2
1.59896E-1,-2.82287E-2
1.60369E-1,-2.75497E-2
1.61468E-1,-2.75878E-2
1.60995E-1,-2.89535E-2
1.5979E-1,-2.89764E-2
1.58691E-1,-2.80685E-2
1.58920E-1,-2.66189E-2
1.60102E-1,-2.63748E-2
1.61537E-1,-2.73590E-2
1.61293E-1,-2.91671E-2
1.59652E-1,-2.91824E-2
1.58645E-1,-2.84957E-2
1.59637E-1,-2.74581E-2
1.60057E-1,-2.83432E-2
1.59988E-1,-2.93655E-2
1.59553E-1,-2.94799E-2
1.58271E-1,-2.96325E-2
1.57768E-1,-2.94570E-2
1.57051E-1,-2.91824E-2
1.56074E-1,-2.81372E-2
1.56379E-1,-2.71759E-2
1.56433E-1,-2.71987E-2
1.55784E-1,-2.72140E-2
1.55181E-1,-2.67257E-2
1.55357E-1,-2.59399E-2
1.55311E-1,-2.56576E-2
1.54327E-1,-2.60925E-2
1.53167E-1,-2.57186E-2
1.52549E-1,-2.388E-2
1.52107E-1,-2.26211E-2
1.51924E-1,-2.17056E-2
1.51756E-1,-2.11868E-2
1.51474E-1,-2.01263E-2
1.51771E-1,-1.87454E-2
1.51390E-1,-1.78299E-2
1.50772E-1,-1.58462E-2
1.50917E-1,-1.31073E-2
1.52954E-1,-1.03454E-2
1.55571E-1,-9.04846E-3
1.57005E-1,-8.63647E-3
1.57730E-1,-6.82067E-3
1.59156E-1,-4.86755E-3
1.62338E-1,-3.19671E-3
1.65115E-1,-2.6474E-3
1.66626E-1,-2.60925E-3
1.68266E-1,-1.35040E-3
1.70715E-1,0.00511E-1
1.73095E-1,0.00793E-1
1.75506E-1,0.01388E-1
1.76925E-1,0.02586E-1
1.79847E-1,0.04875E-1
1.83624E-1,0.06095E-1
1.86828E-1,0.05775E-1
1.90033E-1,0.06111E-1
1.93710E-1,0.05790E-1
1.97280E-1,0.04882E-1
1.99882E-1,0.04409E-1
2.03292E-1,0.03639E-1
2.07138E-1,0.02899E-1
2.11151E-1,0.01052E-1
2.14065E-1,-1.23596E-3
2.17399E-1,-2.47955E-3
2.20222E-1,-5.40924E-3
2.22946E-1,-7.55310E-3
2.26028E-1,-9.91821E-3
2.28836E-1,-1.22451E-2
2.31658E-1,-1.47171E-2
2.34649E-1,-1.73873E-2
2.39097E-1,-1.97830E-2
2.43293E-1,-2.47192E-2
2.45811E-1,-2.95028E-2
2.46315E-1,-3.45459E-2
2.47360E-1,-3.80477E-2
2.49206E-1,-4.10919E-2
2.51236E-1,-4.54864E-2
2.52716E-1,-5.00183E-2
2.54180E-1,-5.37719E-2
2.54806E-1,-5.83801E-2
2.55905E-1,-6.29272E-2
2.55859E-1,-6.75811E-2
2.55706E-1,-7.26623E-2
2.55157E-1,-7.71331E-2
2.53524E-1,-8.1604E-2
2.51571E-1,-8.51593E-2
2.50381E-1,-8.80279E-2
2.49656E-1,-9.14764E-2
2.49183E-1,-9.51690E-2
2.47016E-1,-9.90982E-2
2.45071E-1,-1.03057E-1
2.43278E-1,-1.05636E-1
2.41798E-1,-1.09046E-1
2.39990E-1,-1.12106E-1
2.38067E-1,-1.14975E-1
2.36000E-1,-1.18064E-1
2.33863E-1,-1.20391E-1
2.32185E-1,-1.23367E-1
2.30331E-1,-1.25663E-1
2.29629E-1,-1.27632E-1
2.28157E-1,-1.30806E-1
2.26318E-1,-1.33163E-1
2.24952E-1,-1.35635E-1
2.23648E-1,-1.38069E-1
2.22793E-1,-1.39633E-1
2.20779E-1,-1.42662E-1
2.19757E-1,-1.44409E-1
2.18360E-1,-1.47064E-1
2.17575E-1,-1.49490E-1
2.15835E-1,-1.52671E-1
2.13386E-1,-1.55296E-1
2.11250E-1,-1.57150E-1
2.08816E-1,-1.58889E-1
2.07382E-1,-1.60392E-1
2.04917E-1,-1.63032E-1
2.02140E-1,-1.65054E-1
1.99073E-1,-1.67266E-1
1.95968E-1,-1.68273E-1
1.93908E-1,-1.68823E-1
1.91680E-1,-1.69860E-1
1.90223E-1,-1.71630E-1
1.87690E-1,-1.74202E-1
1.84394E-1,-1.74926E-1
1.82708E-1,-1.76597E-1
1.79473E-1,-1.78337E-1
1.76979E-1,-1.80503E-1
1.73637E-1,-1.81610E-1
1.70372E-1,-1.83136E-1
1.67709E-1,-1.83738E-1
1.64955E-1,-1.84600E-1
1.62300E-1,-1.85791E-1
1.59904E-1,-1.86813E-1
1.57440E-1,-1.87797E-1
1.54075E-1,-1.89552E-1
1.50970E-1,-1.88842E-1
1.49490E-1,-1.88987E-1
1.47872E-1,-1.89903E-1
1.45164E-1,-1.91238E-1
1.42395E-1,-1.92001E-1
1.39579E-1,-1.91749E-1
1.37908E-1,-1.91711E-1
1.36024E-1,-1.92787E-1
1.32934E-1,-1.93389E-1
1.29783E-1,-1.94114E-1
1.26205E-1,-1.94213E-1
1.22520E-1,-1.94046E-1
1.18866E-1,-1.92092E-1
1.16325E-1,-1.90826E-1
1.14044E-1,-1.90002E-1
1.10664E-1,-1.89506E-1
1.07040E-1,-1.88522E-1
1.03775E-1,-1.86500E-1
1.01577E-1,-1.84356E-1
0.99105E-1,-1.82975E-1
0.96344E-1,-1.82083E-1
0.93078E-1,-1.79733E-1
0.90278E-1,-1.76429E-1
0.88661E-1,-1.73835E-1
0.87104E-1,-1.70723E-1
0.86166E-1,-1.68426E-1
0.85296E-1,-1.66343E-1
0.83931E-1,-1.63932E-1
0.82778E-1,-1.60636E-1
0.82809E-1,-1.57531E-1
0.83351E-1,-1.55181E-1
0.83839E-1,-1.53694E-1
0.83717E-1,-1.51725E-1
0.83999E-1,-1.49040E-1
0.84236E-1,-1.46591E-1
0.85273E-1,-1.43745E-1
0.87379E-1,-1.41471E-1
0.89279E-1,-1.39488E-1
0.91140E-1,-1.37924E-1
0.92956E-1,-1.36085E-1
0.95298E-1,-1.34201E-1
0.98144E-1,-1.33132E-1
1.00738E-1,-1.33132E-1
1.02592E-1,-1.32904E-1
1.04324E-1,-1.31874E-1
1.06689E-1,-1.31218E-1
1.09474E-1,-1.30813E-1
1.11984E-1,-1.31736E-1
1.13983E-1,-1.32827E-1
1.15081E-1,-1.33895E-1
1.16714E-1,-1.34101E-1
1.17645E-1,-1.35467E-1
1.19308E-1,-1.36192E-1
1.20376E-1,-1.37168E-1
1.21337E-1,-1.38610E-1
1.22558E-1,-1.39450E-1
1.23039E-1,-1.40708E-1
1.23535E-1,-1.42265E-1
1.24816E-1,-1.43379E-1
1.25373E-1,-1.44783E-1
1.27151E-1,-1.46118E-1
1.28318E-1,-1.48094E-1
1.27265E-1,-1.51222E-1
1.27731E-1,-1.53167E-1
1.28601E-1,-1.56326E-1
1.29051E-1,-1.59408E-1
1.29402E-1,-1.62422E-1
1.29524E-1,-1.64741E-1
1.30485E-1,-1.67388E-1
1.29898E-1,-1.71539E-1
1.28685E-1,-1.75209E-1
1.28013E-1,-1.78497E-1
1.26586E-1,-1.81411E-1
1.25259E-1,-1.84204E-1
1.23115E-1,-1.86592E-1
1.21910E-1,-1.89041E-1
1.19873E-1,-1.91757E-1
1.18392E-1,-1.92855E-1
1.15936E-1,-1.94686E-1
1.15173E-1,-1.96228E-1
1.14013E-1,-1.987E-1
1.12098E-1,-2.01225E-1
1.09489E-1,-2.03704E-1
1.07383E-1,-2.05085E-1
1.05094E-1,-2.05741E-1
1.03721E-1,-2.07992E-1
1.00723E-1,-2.09930E-1
0.97793E-1,-2.10983E-1
0.94886E-1,-2.11525E-1
0.92659E-1,-2.11898E-1
0.91552E-1,-2.12417E-1
