CITIFILE A.01.00
#NA VERSION HP8720D.06.14
NAME DATA
VAR FREQ MAG 1601
DATA S[1,1] RI

SEG_LIST_BEGIN
SEG 1000000000 8000000000 1601
SEG_LIST_END
BEGIN
2.24304E-1,-3.61602E-1
2.15301E-1,-3.61465E-1
2.06008E-1,-3.64273E-1
1.92825E-1,-3.68270E-1
1.81366E-1,-3.71246E-1
1.66931E-1,-3.74755E-1
1.49749E-1,-3.75183E-1
1.35742E-1,-3.73687E-1
1.23168E-1,-3.71231E-1
1.10168E-1,-3.69186E-1
0.95657E-1,-3.64776E-1
0.86074E-1,-3.55636E-1
0.82458E-1,-3.47946E-1
0.83145E-1,-3.45489E-1
0.80886E-1,-3.48770E-1
0.75775E-1,-3.52371E-1
0.71380E-1,-3.56033E-1
0.63552E-1,-3.61923E-1
0.52505E-1,-3.65722E-1
0.43380E-1,-3.67935E-1
0.35339E-1,-3.70819E-1
0.26672E-1,-3.76800E-1
0.12908E-1,-3.81958E-1
-2.31933E-3,-3.83758E-1
-1.54266E-2,-3.82354E-1
-2.69928E-2,-3.81988E-1
-3.80096E-2,-3.84063E-1
-5.15441E-2,-3.86367E-1
-6.70471E-2,-3.86825E-1
-8.35418E-2,-3.85452E-1
-9.99298E-2,-3.82446E-1
-1.13357E-1,-3.78219E-1
-1.2677E-1,-3.75564E-1
-1.43096E-1,-3.73168E-1
-1.58050E-1,-3.68591E-1
-1.72668E-1,-3.64563E-1
-1.88964E-1,-3.6026E-1
-2.06420E-1,-3.51562E-1
-2.21801E-1,-3.42407E-1
-2.32971E-1,-3.29589E-1
-2.46215E-1,-3.21991E-1
-2.60681E-1,-3.12805E-1
-2.76062E-1,-3.02490E-1
-2.90588E-1,-2.89276E-1
-3.01849E-1,-2.75146E-1
-3.14086E-1,-2.60711E-1
-3.24707E-1,-2.45086E-1
-3.33313E-1,-2.28210E-1
-3.39965E-1,-2.12249E-1
-3.46283E-1,-1.96167E-1
-3.52294E-1,-1.80481E-1
-3.56384E-1,-1.64215E-1
-3.58856E-1,-1.48315E-1
-3.60412E-1,-1.33941E-1
-3.62609E-1,-1.19110E-1
-3.64334E-1,-1.05697E-1
-3.66592E-1,-9.17968E-2
-3.66119E-1,-8.01086E-2
-3.68911E-1,-6.85272E-2
-3.72345E-1,-5.45349E-2
-3.74298E-1,-3.84674E-2
-3.72894E-1,-2.22625E-2
-3.69964E-1,-9.42993E-3
-3.68728E-1,0.02380E-1
-3.6763E-1,0.14709E-1
-3.65707E-1,0.26748E-1
-3.63494E-1,0.38635E-1
-3.60839E-1,0.50582E-1
-3.58413E-1,0.62286E-1
-3.54324E-1,0.73883E-1
-3.49609E-1,0.83511E-1
-3.46649E-1,0.91461E-1
-3.45764E-1,1.00219E-1
-3.44146E-1,1.11160E-1
-3.41613E-1,1.21948E-1
-3.39508E-1,1.33499E-1
-3.35647E-1,1.45431E-1
-3.31588E-1,1.56829E-1
-3.26217E-1,1.67007E-1
-3.22753E-1,1.77291E-1
-3.17947E-1,1.87606E-1
-3.13262E-1,1.98303E-1
-3.08746E-1,2.07916E-1
-3.06655E-1,2.20321E-1
-3.00582E-1,2.33306E-1
-2.93060E-1,2.46749E-1
-2.85186E-1,2.57690E-1
-2.76657E-1,2.69180E-1
-2.67639E-1,2.80838E-1
-2.5737E-1,2.89764E-1
-2.49008E-1,2.97164E-1
-2.41226E-1,3.07281E-1
-2.32345E-1,3.17215E-1
-2.22168E-1,3.28369E-1
-2.09549E-1,3.38348E-1
-1.97143E-1,3.46160E-1
-1.84494E-1,3.53485E-1
-1.71020E-1,3.59741E-1
-1.58294E-1,3.64669E-1
-1.46423E-1,3.69415E-1
-1.34689E-1,3.75808E-1
-1.20788E-1,3.81942E-1
-1.05606E-1,3.86886E-1
-8.96453E-2,3.89831E-1
-7.45239E-2,3.90014E-1
-6.06536E-2,3.90548E-1
-4.69512E-2,3.89663E-1
-3.41033E-2,3.87771E-1
-2.29797E-2,3.86550E-1
-1.24664E-2,3.84857E-1
-2.92968E-3,3.84277E-1
0.09094E-1,3.84353E-1
0.19439E-1,3.83468E-1
0.29724E-1,3.82354E-1
0.39856E-1,3.81347E-1
0.49972E-1,3.81225E-1
0.60485E-1,3.81698E-1
0.72326E-1,3.82675E-1
0.84915E-1,3.83667E-1
0.99212E-1,3.82034E-1
1.14807E-1,3.80218E-1
1.30310E-1,3.75E-1
1.45324E-1,3.68560E-1
1.58721E-1,3.61633E-1
1.69830E-1,3.53393E-1
1.80938E-1,3.47320E-1
1.93847E-1,3.40148E-1
2.06695E-1,3.30505E-1
2.16735E-1,3.19458E-1
2.26043E-1,3.08837E-1
2.33703E-1,2.97637E-1
2.41851E-1,2.90039E-1
2.51525E-1,2.80456E-1
2.59582E-1,2.68829E-1
2.67089E-1,2.56774E-1
2.71484E-1,2.46582E-1
2.78106E-1,2.35351E-1
2.83905E-1,2.23846E-1
2.88452E-1,2.11364E-1
2.93060E-1,2.00775E-1
2.97241E-1,1.89697E-1
3.00750E-1,1.77673E-1
3.02887E-1,1.66076E-1
3.06243E-1,1.55044E-1
3.09433E-1,1.44073E-1
3.12255E-1,1.32782E-1
3.15399E-1,1.19781E-1
3.15185E-1,1.06781E-1
3.14666E-1,0.94650E-1
3.14163E-1,0.83770E-1
3.14590E-1,0.73684E-1
3.14910E-1,0.61737E-1
3.13995E-1,0.49926E-1
3.13659E-1,0.38848E-1
3.12896E-1,0.25848E-1
3.10257E-1,0.12268E-1
3.07220E-1,0.00473E-1
3.03909E-1,-1.22375E-2
2.99011E-1,-2.48718E-2
2.93518E-1,-3.73992E-2
2.86132E-1,-4.98962E-2
2.77679E-1,-6.14166E-2
2.67608E-1,-7.16857E-2
2.57309E-1,-8.03680E-2
2.47161E-1,-8.72421E-2
2.37022E-1,-9.27276E-2
2.27447E-1,-9.81445E-2
2.17529E-1,-1.01608E-1
2.09335E-1,-1.05270E-1
1.99951E-1,-1.09191E-1
1.89758E-1,-1.11953E-1
1.80320E-1,-1.11236E-1
1.74400E-1,-1.10382E-1
1.70921E-1,-1.11724E-1
1.66435E-1,-1.15119E-1
1.60430E-1,-1.20109E-1
1.51718E-1,-1.23825E-1
1.43417E-1,-1.24778E-1
1.37374E-1,-1.25717E-1
1.31080E-1,-1.27807E-1
1.24321E-1,-1.29020E-1
1.17858E-1,-1.30462E-1
1.10755E-1,-1.32186E-1
1.03096E-1,-1.32453E-1
0.95352E-1,-1.31706E-1
0.88920E-1,-1.28997E-1
0.85327E-1,-1.27090E-1
0.82260E-1,-1.27944E-1
0.77255E-1,-1.28997E-1
0.72525E-1,-1.28929E-1
0.67878E-1,-1.30577E-1
0.61668E-1,-1.32850E-1
0.54733E-1,-1.33590E-1
0.46737E-1,-1.33674E-1
0.39535E-1,-1.31904E-1
0.32981E-1,-1.30340E-1
0.26809E-1,-1.29875E-1
0.19386E-1,-1.29013E-1
0.11528E-1,-1.27121E-1
0.38642E-2,-1.23939E-1
-3.37600E-3,-1.19453E-1
-9.70840E-3,-1.13025E-1
-1.49993E-2,-1.08871E-1
-2.13851E-2,-1.04980E-1
-2.74887E-2,-1.00082E-1
-3.24783E-2,-9.41238E-2
-3.66821E-2,-8.77685E-2
-3.91502E-2,-8.27789E-2
-4.15420E-2,-7.80029E-2
-4.50096E-2,-7.30247E-2
-4.72793E-2,-6.78672E-2
-4.92172E-2,-6.31675E-2
-5.08346E-2,-5.86929E-2
-5.27153E-2,-5.46722E-2
-5.45196E-2,-5.03311E-2
-5.62934E-2,-4.63142E-2
-5.84259E-2,-4.18624E-2
-5.98144E-2,-3.65562E-2
-6.03179E-2,-3.19480E-2
-6.11648E-2,-2.77900E-2
-6.32019E-2,-2.31742E-2
-6.48613E-2,-1.73378E-2
-6.47888E-2,-9.97543E-3
-6.21643E-2,-3.51333E-3
-5.91316E-2,0.00991E-2
-5.76534E-2,0.21858E-2
-5.81359E-2,0.50201E-2
-5.79567E-2,0.94184E-2
-5.66444E-2,1.34143E-2
-5.52368E-2,1.62773E-2
-5.50975E-2,1.87606E-2
-5.54409E-2,2.19574E-2
-5.56831E-2,2.61535E-2
-5.46932E-2,3.10821E-2
-5.22117E-2,3.49044E-2
-5.02281E-2,3.77273E-2
-4.79488E-2,4.02088E-2
-4.61101E-2,4.20494E-2
-4.46319E-2,4.39853E-2
-4.30641E-2,4.58564E-2
-4.17652E-2,4.74319E-2
-4.01878E-2,4.89444E-2
-3.93486E-2,5.04303E-2
-3.79161E-2,5.24463E-2
-3.63369E-2,5.36155E-2
-3.57475E-2,5.46207E-2
-3.52459E-2,5.65109E-2
-3.44295E-2,5.86013E-2
-3.33595E-2,6.08634E-2
-3.22265E-2,6.35376E-2
-3.05252E-2,6.59484E-2
-2.84347E-2,6.80313E-2
-2.67715E-2,6.97097E-2
-2.59857E-2,7.19528E-2
-2.44979E-2,7.50961E-2
-2.17781E-2,7.81402E-2
-1.86767E-2,8.06503E-2
-1.51100E-2,8.25309E-2
-1.15814E-2,8.34083E-2
-8.41140E-3,8.34503E-2
-6.30950E-3,8.30497E-2
-4.43649E-3,8.31909E-2
-2.28118E-3,8.33244E-2
-5.26428E-4,8.24890E-2
0.10299E-2,8.14018E-2
0.14152E-2,8.04290E-2
0.14686E-2,8.01048E-2
0.16250E-2,8.01200E-2
0.24108E-2,8.05778E-2
0.36048E-2,8.02116E-2
0.41008E-2,7.93685E-2
0.39749E-2,7.86438E-2
0.40626E-2,7.86972E-2
0.44708E-2,7.80983E-2
0.34446E-2,7.70645E-2
0.16021E-2,7.74269E-2
-2.36511E-4,7.93838E-2
-8.20159E-4,8.26988E-2
0.01335E-2,8.55255E-2
0.13465E-2,8.76426E-2
0.29258E-2,8.98971E-2
0.48904E-2,9.08241E-2
0.45166E-2,9.19647E-2
0.44212E-2,9.49363E-2
0.50239E-2,9.86900E-2
0.69999E-2,1.02905E-1
0.97274E-2,1.06620E-1
1.31683E-2,1.09836E-1
1.65863E-2,1.12609E-1
2.03094E-2,1.15287E-1
2.47192E-2,1.17523E-1
2.91137E-2,1.19140E-1
3.35998E-2,1.20468E-1
3.84979E-2,1.20895E-1
4.35867E-2,1.20918E-1
4.87976E-2,1.19804E-1
5.31997E-2,1.17691E-1
5.62057E-2,1.15463E-1
6.02264E-2,1.13754E-1
6.41937E-2,1.10466E-1
6.63909E-2,1.06933E-1
6.73141E-2,1.04019E-1
6.83898E-2,1.00860E-1
7.03506E-2,9.97085E-2
7.14569E-2,9.76409E-2
7.32574E-2,9.35974E-2
7.35473E-2,9.10186E-2
7.37152E-2,8.91876E-2
7.42950E-2,8.77990E-2
7.53631E-2,8.60443E-2
7.55004E-2,8.39614E-2
7.53173E-2,8.22601E-2
7.53021E-2,8.15506E-2
7.58667E-2,8.10546E-2
7.57675E-2,8.01696E-2
7.53479E-2,7.93304E-2
7.50503E-2,7.89947E-2
7.46994E-2,7.96508E-2
7.44705E-2,8.03146E-2
7.50045E-2,8.05053E-2
7.46002E-2,8.08410E-2
7.40127E-2,8.17260E-2
7.39898E-2,8.38317E-2
7.53936E-2,8.62197E-2
7.74688E-2,8.75625E-2
7.98416E-2,8.85772E-2
8.23211E-2,8.83789E-2
8.39538E-2,8.78753E-2
8.47778E-2,8.78448E-2
8.60748E-2,8.84094E-2
8.86383E-2,8.92105E-2
9.15756E-2,8.92868E-2
9.40246E-2,8.91723E-2
9.65118E-2,8.95462E-2
1.00158E-1,8.96911E-2
1.04103E-1,8.91418E-2
1.08169E-1,8.89129E-2
1.13029E-1,8.71810E-2
1.17126E-1,8.59985E-2
1.21337E-1,8.39233E-2
1.25549E-1,0.81314E-1
1.30241E-1,0.79635E-1
1.35513E-1,0.76416E-1
1.40716E-1,0.73181E-1
1.45736E-1,0.68786E-1
1.50436E-1,0.63095E-1
1.54151E-1,0.57144E-1
1.57470E-1,0.51147E-1
1.59797E-1,0.44685E-1
1.61315E-1,0.38551E-1
1.63375E-1,0.32936E-1
1.65023E-1,0.25543E-1
1.65748E-1,0.17639E-1
1.65649E-1,0.10025E-1
1.64596E-1,0.02784E-1
1.60415E-1,-7.67517E-3
1.57630E-1,-1.51138E-2
1.54823E-1,-2.17361E-2
1.51733E-1,-2.84576E-2
1.48681E-1,-3.54156E-2
1.44912E-1,-4.27398E-2
1.39663E-1,-5.00335E-2
1.33926E-1,-5.60607E-2
1.28219E-1,-6.22406E-2
1.20578E-1,-6.68449E-2
1.14154E-1,-7.09343E-2
1.08402E-1,-7.52487E-2
1.00776E-1,-7.96775E-2
9.27734E-2,-8.16726E-2
8.53614E-2,-8.29162E-2
7.93418E-2,-8.39767E-2
7.31239E-2,-8.56399E-2
6.50901E-2,-8.83369E-2
5.57403E-2,-8.83979E-2
4.75082E-2,-8.74633E-2
3.93028E-2,-8.54454E-2
3.16391E-2,-8.22830E-2
2.56347E-2,-7.84683E-2
2.02827E-2,-7.53593E-2
1.47857E-2,-7.26089E-2
0.94375E-2,-6.95648E-2
0.45471E-2,-6.65550E-2
-4.95910E-5,-6.37321E-2
-5.06591E-3,-6.09931E-2
-1.00898E-2,-5.79605E-2
-1.46637E-2,-5.48820E-2
-1.98707E-2,-5.22041E-2
-2.51083E-2,-4.81109E-2
-2.89077E-2,-4.38995E-2
-3.30276E-2,-4.04357E-2
-3.74374E-2,-3.66058E-2
-4.12101E-2,-3.21693E-2
-4.41894E-2,-2.79998E-2
-4.80155E-2,-2.46849E-2
-5.30242E-2,-2.02217E-2
-5.76858E-2,-1.35612E-2
-5.96771E-2,-5.59997E-3
-5.96542E-2,0.09765E-2
-5.95207E-2,0.55389E-2
-6.07109E-2,1.02005E-2
-6.23664E-2,1.53617E-2
-6.35414E-2,2.12745E-2
-6.37550E-2,2.79007E-2
-6.27784E-2,3.32756E-2
-6.26907E-2,3.77426E-2
-6.36634E-2,4.24804E-2
-6.48269E-2,4.85649E-2
-6.46324E-2,5.58242E-2
-6.31027E-2,6.21795E-2
-6.12754E-2,6.76498E-2
-6.04171E-2,7.21130E-2
-6.06155E-2,7.76100E-2
-5.98182E-2,8.47396E-2
-5.79414E-2,9.18426E-2
-5.46188E-2,9.86785E-2
-4.97856E-2,1.04847E-1
-4.46968E-2,1.08829E-1
-4.08515E-2,1.12167E-1
-3.68995E-2,1.16066E-1
-3.22990E-2,1.18705E-1
-2.85949E-2,1.21124E-1
-2.49786E-2,1.24206E-1
-2.04925E-2,1.26739E-1
-1.67388E-2,1.28936E-1
-1.20849E-2,1.31042E-1
-7.24029E-3,1.33041E-1
-1.83105E-3,1.33895E-1
0.01632E-1,1.33964E-1
0.04470E-1,1.34582E-1
0.07377E-1,1.36947E-1
0.12184E-1,1.39236E-1
0.17303E-1,1.39991E-1
0.21835E-1,1.40045E-1
0.25070E-1,1.40029E-1
0.28060E-1,1.41006E-1
0.31845E-1,1.42868E-1
0.37078E-1,1.43814E-1
0.41610E-1,1.43981E-1
0.46005E-1,1.43203E-1
0.49392E-1,1.42120E-1
0.51452E-1,1.41059E-1
0.53817E-1,1.41983E-1
0.57418E-1,1.42532E-1
0.61843E-1,1.42669E-1
0.66101E-1,1.41586E-1
0.69442E-1,1.39122E-1
0.71479E-1,1.37008E-1
0.73707E-1,1.35940E-1
0.76438E-1,1.34475E-1
0.78331E-1,1.32438E-1
0.79689E-1,1.31027E-1
0.81504E-1,1.30035E-1
0.83862E-1,1.28967E-1
0.85968E-1,1.27136E-1
0.87249E-1,1.25671E-1
8.87756E-2,1.24923E-1
9.01794E-2,1.23367E-1
9.14001E-2,1.22558E-1
9.25445E-2,1.22764E-1
9.43603E-2,1.23794E-1
9.73129E-2,1.24481E-1
1.01051E-1,1.25106E-1
1.04301E-1,1.24298E-1
1.07437E-1,1.24305E-1
1.11808E-1,1.24015E-1
1.15890E-1,1.22757E-1
1.18957E-1,1.21353E-1
1.21658E-1,1.20826E-1
1.25427E-1,1.20086E-1
1.29974E-1,1.18392E-1
1.33163E-1,1.15432E-1
1.36093E-1,1.12869E-1
1.39389E-1,1.11404E-1
1.43005E-1,1.08505E-1
1.46011E-1,1.04736E-1
1.48178E-1,1.01608E-1
1.50787E-1,0.98571E-1
1.53114E-1,0.94909E-1
1.55235E-1,0.91270E-1
1.57371E-1,0.87379E-1
1.59706E-1,0.82672E-1
1.61346E-1,0.78018E-1
1.62468E-1,0.72761E-1
1.62696E-1,0.67794E-1
1.62986E-1,0.64254E-1
1.64276E-1,0.60310E-1
1.65626E-1,0.55343E-1
1.65840E-1,0.48278E-1
1.63787E-1,0.42282E-1
1.61499E-1,0.38513E-1
1.59606E-1,0.35385E-1
1.58783E-1,0.32394E-1
1.58279E-1,0.28854E-1
1.57531E-1,0.24589E-1
1.55044E-1,0.20446E-1
1.53457E-1,0.17013E-1
1.51374E-1,0.13221E-1
1.48178E-1,0.09162E-1
1.44523E-1,0.05889E-1
1.41220E-1,0.03204E-1
1.37451E-1,0.00030E-1
1.33209E-1,-1.99127E-3
1.29249E-1,-4.28009E-3
1.24496E-1,-6.51168E-3
1.18911E-1,-7.91168E-3
1.13304E-1,-8.72802E-3
1.07811E-1,-8.84246E-3
1.02478E-1,-8.03375E-3
9.77172E-2,-7.39288E-3
9.22851E-2,-6.49261E-3
8.71353E-2,-4.24957E-3
8.30383E-2,-1.49536E-3
7.94143E-2,0.10147E-2
7.58972E-2,0.36239E-2
7.20367E-2,0.72708E-2
7.01828E-2,1.19781E-2
6.94770E-2,1.50871E-2
6.87141E-2,1.71203E-2
6.71577E-2,1.97372E-2
6.56738E-2,2.16789E-2
6.36253E-2,2.50968E-2
6.27632E-2,2.90870E-2
6.29425E-2,3.27720E-2
6.31141E-2,3.58924E-2
6.34841E-2,3.89480E-2
6.43730E-2,4.2202E-2
6.57653E-2,4.47616E-2
6.69670E-2,4.67948E-2
6.82144E-2,4.86526E-2
6.88781E-2,4.99191E-2
6.91604E-2,5.16662E-2
6.96411E-2,5.38635E-2
7.11975E-2,5.59387E-2
7.22351E-2,5.69610E-2
7.29217E-2,5.83801E-2
7.37152E-2,5.93414E-2
7.37152E-2,6.06689E-2
7.43255E-2,6.24771E-2
7.53784E-2,6.42776E-2
7.69500E-2,6.53915E-2
7.84912E-2,6.55593E-2
7.85598E-2,6.53457E-2
7.87353E-2,6.57577E-2
7.88116E-2,6.64901E-2
7.85064E-2,6.70242E-2
7.83844E-2,6.85577E-2
7.92083E-2,6.88476E-2
7.87048E-2,6.96029E-2
7.86590E-2,7.09838E-2
7.78732E-2,7.23037E-2
7.73162E-2,7.37381E-2
7.67898E-2,7.60574E-2
7.62939E-2,7.79876E-2
7.63855E-2,8.09555E-2
7.61413E-2,8.33511E-2
7.56988E-2,8.64868E-2
7.52792E-2,8.98284E-2
7.58056E-2,9.43985E-2
7.75680E-2,9.90142E-2
8.02688E-2,1.02462E-1
8.23822E-2,1.04843E-1
8.43200E-2,1.07818E-1
8.58459E-2,1.10458E-1
8.73642E-2,1.13960E-1
8.89434E-2,1.17797E-1
9.20333E-2,1.21971E-1
0.96328E-1,1.25160E-1
0.99884E-1,1.27876E-1
1.03462E-1,1.30653E-1
1.07734E-1,1.33651E-1
1.12518E-1,1.35589E-1
1.17202E-1,1.36642E-1
1.20666E-1,1.38366E-1
1.25351E-1,1.41113E-1
1.30828E-1,1.42898E-1
1.36505E-1,1.44012E-1
1.42395E-1,1.45690E-1
1.49475E-1,1.46423E-1
1.56677E-1,1.46118E-1
1.63970E-1,1.44470E-1
1.68914E-1,1.41754E-1
1.73660E-1,1.40914E-1
1.79504E-1,1.39221E-1
1.84875E-1,1.38198E-1
1.90933E-1,1.36337E-1
1.97540E-1,1.33850E-1
2.03521E-1,1.30233E-1
2.08221E-1,1.27441E-1
2.13638E-1,1.24252E-1
2.19879E-1,1.2117E-1
2.2612E-1,1.15417E-1
2.29736E-1,1.09985E-1
2.33856E-1,1.05239E-1
2.37731E-1,1.00570E-1
2.42172E-1,0.95367E-1
2.46414E-1,0.88668E-1
2.49069E-1,0.81512E-1
2.51022E-1,0.75088E-1
2.52410E-1,0.69091E-1
2.54577E-1,0.63308E-1
2.56256E-1,0.57052E-1
2.58834E-1,0.50521E-1
2.59918E-1,0.42144E-1
2.59841E-1,0.34683E-1
2.58865E-1,0.27847E-1
2.57705E-1,0.20752E-1
2.56088E-1,0.14389E-1
2.54150E-1,0.08728E-1
2.52349E-1,0.02594E-1
2.5E-1,-2.28881E-3
2.47695E-1,-7.44628E-3
2.45590E-1,-1.32675E-2
2.42492E-1,-1.77536E-2
2.38670E-1,-2.20031E-2
2.36000E-1,-2.61993E-2
2.33573E-1,-3.02581E-2
2.29980E-1,-3.45077E-2
2.26852E-1,-3.80630E-2
2.23121E-1,-4.25109E-2
2.18254E-1,-4.59594E-2
2.14363E-1,-4.85992E-2
2.10029E-1,-5.18646E-2
2.04551E-1,-5.36575E-2
1.99554E-1,-5.49850E-2
1.95541E-1,-5.55496E-2
1.92199E-1,-5.70220E-2
1.87797E-1,-5.95169E-2
1.82853E-1,-6.07223E-2
1.77085E-1,-5.94940E-2
1.73713E-1,-5.81588E-2
1.70852E-1,-5.76400E-2
1.68159E-1,-5.76171E-2
1.64428E-1,-5.75714E-2
1.60850E-1,-5.63812E-2
1.58401E-1,-5.56106E-2
1.54708E-1,-5.45578E-2
1.50802E-1,-5.25970E-2
1.48559E-1,-4.93698E-2
1.46942E-1,-4.75769E-2
1.44660E-1,-4.51736E-2
1.43409E-1,-4.19006E-2
1.43577E-1,-3.93829E-2
1.43997E-1,-3.81469E-2
1.43524E-1,-3.70788E-2
1.42967E-1,-3.62167E-2
1.42799E-1,-3.47976E-2
1.43341E-1,-3.42788E-2
1.42700E-1,-3.37905E-2
1.41647E-1,-3.35388E-2
1.40396E-1,-3.30047E-2
1.39450E-1,-3.19824E-2
1.39152E-1,-3.13110E-2
1.37504E-1,-3.08456E-2
1.36848E-1,-2.89688E-2
1.35383E-1,-2.74734E-2
1.35665E-1,-2.59933E-2
1.36283E-1,-2.53982E-2
1.34971E-1,-2.57110E-2
1.33415E-1,-2.40402E-2
1.32614E-1,-2.11410E-2
1.33743E-1,-1.79061E-2
1.35437E-1,-1.71585E-2
1.36589E-1,-1.68609E-2
1.36390E-1,-1.72424E-2
1.35765E-1,-1.61590E-2
1.35009E-1,-1.41830E-2
1.36261E-1,-1.19552E-2
1.37046E-1,-1.07803E-2
1.38130E-1,-9.09423E-3
1.39053E-1,-7.93457E-3
1.39335E-1,-6.93512E-3
1.40548E-1,-5.72204E-3
1.41357E-1,-4.84466E-3
1.42021E-1,-3.55529E-3
1.43150E-1,-2.39563E-3
1.43684E-1,-1.54876E-3
1.43966E-1,-6.86645E-5
1.44966E-1,0.02555E-1
1.46286E-1,0.04531E-1
1.47911E-1,0.05744E-1
1.49742E-1,0.06553E-1
1.51123E-1,0.07896E-1
1.52504E-1,0.09712E-1
1.54274E-1,0.11619E-1
1.56814E-1,0.12832E-1
1.59881E-1,0.13786E-1
1.62559E-1,0.14091E-1
1.65405E-1,0.14259E-1
1.67602E-1,0.14587E-1
1.70105E-1,0.15190E-1
1.72882E-1,0.16265E-1
1.77169E-1,0.16525E-1
1.81068E-1,0.15655E-1
1.83654E-1,0.13458E-1
1.85623E-1,0.13252E-1
1.88522E-1,0.13389E-1
1.91932E-1,0.13031E-1
1.95518E-1,0.11749E-1
1.98219E-1,0.10818E-1
2.00737E-1,0.09689E-1
2.04666E-1,0.09559E-1
2.07969E-1,0.07766E-1
2.11708E-1,0.05668E-1
2.13890E-1,0.04203E-1
2.15995E-1,0.02548E-1
2.19238E-1,0.00068E-1
2.20878E-1,-1.64032E-3
2.23754E-1,-2.99072E-3
2.26394E-1,-5.15747E-3
2.28828E-1,-7.76672E-3
2.31216E-1,-1.04675E-2
2.33634E-1,-1.28021E-2
2.36694E-1,-1.58081E-2
2.39280E-1,-1.93634E-2
2.4189E-1,-2.35061E-2
2.43911E-1,-2.77481E-2
2.44575E-1,-3.2341E-2
2.45391E-1,-3.66363E-2
2.46246E-1,-4.00009E-2
2.47581E-1,-4.39529E-2
2.48222E-1,-4.76379E-2
2.49382E-1,-5.18493E-2
2.50335E-1,-5.55725E-2
2.51449E-1,-6.11419E-2
2.5177E-1,-6.61010E-2
2.51236E-1,-7.15789E-2
2.49290E-1,-7.62329E-2
2.48535E-1,-7.94677E-2
2.47345E-1,-8.29162E-2
2.46223E-1,-8.66088E-2
2.44667E-1,-8.99124E-2
2.43835E-1,-9.29489E-2
2.43156E-1,-9.66796E-2
2.41111E-1,-1.00265E-1
2.39883E-1,-1.04316E-1
2.37014E-1,-1.08848E-1
2.33932E-1,-1.12510E-1
2.30575E-1,-1.14540E-1
2.27813E-1,-1.17286E-1
2.24823E-1,-1.18560E-1
2.22526E-1,-1.21139E-1
2.18612E-1,-1.24107E-1
2.14469E-1,-1.25694E-1
2.10723E-1,-1.27327E-1
2.07908E-1,-1.28074E-1
2.05047E-1,-1.29386E-1
2.01675E-1,-1.30676E-1
1.98165E-1,-1.31179E-1
1.94961E-1,-1.31156E-1
1.92268E-1,-1.31004E-1
1.90231E-1,-1.30538E-1
1.89071E-1,-1.30233E-1
1.87728E-1,-1.30699E-1
1.86843E-1,-1.31477E-1
1.85020E-1,-1.31927E-1
1.83258E-1,-1.32316E-1
1.81915E-1,-1.31424E-1
1.80358E-1,-1.31118E-1
1.79809E-1,-1.30050E-1
1.79351E-1,-1.29982E-1
1.79603E-1,-1.29440E-1
1.79245E-1,-1.30340E-1
1.78482E-1,-1.30332E-1
1.78260E-1,-1.30035E-1
1.77932E-1,-1.29997E-1
1.78039E-1,-1.29554E-1
1.77902E-1,-1.30989E-1
1.77490E-1,-1.31912E-1
1.76261E-1,-1.32362E-1
1.74903E-1,-1.31744E-1
1.74781E-1,-1.31485E-1
1.76002E-1,-1.31530E-1
1.76437E-1,-1.32743E-1
1.76361E-1,-1.34887E-1
1.75643E-1,-1.36421E-1
1.74942E-1,-1.38366E-1
1.74362E-1,-1.39442E-1
1.73477E-1,-1.41540E-1
1.71989E-1,-1.43501E-1
1.70227E-1,-1.44607E-1
1.68281E-1,-1.45385E-1
1.67541E-1,-1.46057E-1
1.66770E-1,-1.46789E-1
1.66076E-1,-1.48185E-1
1.65580E-1,-1.49337E-1
1.64505E-1,-1.50253E-1
1.62826E-1,-1.50764E-1
1.63032E-1,-1.50939E-1
1.63482E-1,-1.5242E-1
1.63017E-1,-1.54129E-1
1.62689E-1,-1.55410E-1
1.61712E-1,-1.56234E-1
1.61506E-1,-1.57386E-1
1.61071E-1,-1.59080E-1
1.60156E-1,-1.61186E-1
1.58805E-1,-1.63284E-1
1.56768E-1,-1.64718E-1
1.54655E-1,-1.65329E-1
1.52504E-1,-1.65725E-1
1.51413E-1,-1.65412E-1
1.50535E-1,-1.65916E-1
1.49246E-1,-1.66259E-1
1.47705E-1,-1.66984E-1
1.46583E-1,-1.67572E-1
1.44744E-1,-1.68487E-1
1.43310E-1,-1.68853E-1
1.41891E-1,-1.70585E-1
1.39160E-1,-1.70814E-1
1.36711E-1,-1.70547E-1
1.35101E-1,-1.69677E-1
1.33827E-1,-1.68708E-1
1.33377E-1,-1.68365E-1
1.32804E-1,-1.68121E-1
1.32026E-1,-1.68678E-1
1.31881E-1,-1.68869E-1
1.31897E-1,-1.69265E-1
1.31378E-1,-1.70455E-1
1.30226E-1,-1.71638E-1
1.2854E-1,-1.72065E-1
1.27105E-1,-1.71844E-1
1.26266E-1,-1.71043E-1
1.26152E-1,-1.69563E-1
1.27410E-1,-1.69067E-1
1.28128E-1,-1.69288E-1
1.28822E-1,-1.69883E-1
1.29219E-1,-1.70524E-1
1.29623E-1,-1.70784E-1
1.31118E-1,-1.71867E-1
1.31248E-1,-1.73606E-1
1.30897E-1,-1.74850E-1
1.30172E-1,-1.76048E-1
1.29585E-1,-1.76490E-1
1.29638E-1,-1.76513E-1
1.30081E-1,-1.77253E-1
1.30302E-1,-1.79061E-1
1.29898E-1,-1.80435E-1
1.29921E-1,-1.82037E-1
1.28974E-1,-1.84150E-1
1.27624E-1,-1.86378E-1
1.26129E-1,-1.88148E-1
1.24511E-1,-1.89552E-1
1.23161E-1,-1.91101E-1
1.20925E-1,-1.93115E-1
1.18797E-1,-1.94328E-1
1.17546E-1,-1.95098E-1
1.15837E-1,-1.96357E-1
1.14463E-1,-1.97410E-1
1.13357E-1,-1.98898E-1
1.09451E-1,-2.02384E-1
1.07040E-1,-2.03430E-1
1.04576E-1,-2.05284E-1
1.0289E-1,-2.06817E-1
1.00441E-1,-2.07977E-1
0.98487E-1,-2.08595E-1
0.96794E-1,-2.09724E-1
0.95008E-1,-2.11654E-1
0.92170E-1,-2.14141E-1
0.89340E-1,-2.15797E-1
0.85861E-1,-2.17292E-1
0.82099E-1,-2.18513E-1
0.78338E-1,-2.18040E-1
0.74813E-1,-2.18063E-1
0.71945E-1,-2.18315E-1
0.68756E-1,-2.17376E-1
0.66062E-1,-2.16812E-1
0.63575E-1,-2.16331E-1
0.61332E-1,-2.16102E-1
0.58471E-1,-2.16316E-1
0.54733E-1,-2.15713E-1
0.51490E-1,-2.14363E-1
0.48362E-1,-2.12394E-1
0.46585E-1,-2.10784E-1
0.43846E-1,-2.09762E-1
0.40916E-1,-2.08519E-1
